Using: /usr/bin/time -p /usr/cad/synopsys/hspice/cur/hspice/linux/hspice iEnB.sp
 ****** HSPICE -- B-2008.09-SP1 32-BIT (Nov 24 2008) linux ******               
  Copyright (C) 2008 Synopsys, Inc. All Rights Reserved.                        
  Unpublished-rights reserved under US copyright laws.
  This program is protected by law and is subject to the 
  terms and conditions of the license agreement from Synopsys.
  Use of this program is your acceptance to be bound by the 
  license agreement. HSPICE is the trademark of Synopsys, Inc.
  Input File: iEnB.sp                                                           
 lic:  
 lic: FLEXlm: v8.5b 
 lic: USER:   m103061608           HOSTNAME: ws45 
 lic: HOSTID: e41f13edf052         PID:      9448 
 lic: Using FLEXlm license file: 
 lic: 26585@lsnctu 
 lic: Checkout 1 hspice 
 lic: License/Maintenance for hspice will expire on 14-may-2016/2015.06 
 lic: FLOATING license(s) on SERVER lsnctu 
 lic:   
 Init: read install configuration file: /usr/cad/synopsys/hspice/cur/hspice/meta.cfg
 Init: hspice initialization file: /usr/cad/synopsys/hspice/cur/hspice/hspice.ini
 .option runlvl
 .option post acout=0 accurate=1 dcon=1 converge=0 gmindc=1.0000e-12 captab=1 unwrap=1
 + ingold=2

 ***op include***


 ******netlist***
 .subckt op vdd vss vinn vinp cp cn vop
 mb	b	cp	vdd	vdd	pch	w = 31u  l = 1u	  m = 2
 m1	1	vinn	b		b		pch	w = 10u l = 0.4u m = 1
 m2	2	vinp	b		b		pch	w = 10u l = 0.4u m = 1
 m3	1	cn		vss	vss	nch	w = 4.2u l = 0.4u m = 2
 m4	2	cn		vss	vss	nch	w = 4.2u l = 0.4u m = 2

 m1pa	voa	voa	vdd	vdd	pch	w = 4u l = 0.4u    m = 2
 m1pb	von	von	voa	voa	pch	w = 4u l = 0.4u    m = 2
 m2pa	vo2	voa	vdd	vdd	pch	w = 4u l = 0.4u    m = 2
 m2pb	vop	von	vo2 vo2	pch	w = 4u l = 0.4u    m = 2
 m3n	    von	1   vss vss nch w = 15u   l = 0.4u    m = 2
 m4n	    vop	2   vss vss nch w = 15u   l = 0.4u    m = 2

 ******compensation***
 cvonvop zon vop 1p
 *vvb zb gnd dc = 2
 *mz1 zon zb von von pch w = 1u l = 1u
 rz zon von 100k
 .ends
 .subckt op_a vdd vss vinn vinp cz 2
 mb	b	cz	 vdd vdd pch w = 12u  l = 5u  m = 1
 m1	1	vinp b	 b	 pch w = 6u   l = 5u  m = 1
 m2	2	vinn b	 b	 pch w = 6u   l = 5u  m = 1
 m3	1	1	 vss vss nch w = 3u   l = 5u  m = 1
 m4	2	1	 vss vss nch w = 3u l = 5u    m = 1
 .ends
 ******current mirror***
 ic  cp vss dc = 500n
 mc0 cp cp vdd vdd pch w = 5u l = 0.4u m = 7
 mc1 c0 cp vdd vdd pch w = 5u l = 0.4u m = 2
 mc2 cn cn c0  c0  pch w = 1u l = 0.4u m = 1
 mc3 cn cn vss vss nch w = 5.1u l = 0.4u m = 3
 mcx  cz cz vdd vdd pch w = 1u l = 1u m = 1
 mcz  cz cn vss vss nch w = 10u l = 1u m = 3

 *xop1 vdd vss vinn vinp cp cn vop op
 xop1 vdd vss vinn vinp cz vop op_a
 *ei vop gnd opamp vinp vinn 100
 ******optest_open***
 *vinp vinp gnd dc = 'comon-diff' *ac = 1
 vinn vinn gnd dc = 'comon+diff' *ac = 1 *180
 .param
 +comon		= 2
 +diff		= 0
 ********************
 ********************

 ***enlargement mos***
 *******pinput*******
 *me1 vinp vop vdd vdd pch w = 5u l = 0.4u
 *me2 vout vop vdd vdd pch w = 5u l = 0.4u m = 100
 *me1b vinp eb vss vss nch w = 2u l = 0.4u            *decide by noise:
 *me2b vout eb vss vss nch w = 2u l = 0.4u m = 100    *id ~45n, in~0.8n
 *veb eb gnd dc = 0.6
 *******ninput*******
 me1b vinp eb vdd vdd pch w = 10u l = 0.4u
 me2b vout eb vdd vdd pch w = 10u l = 0.4u m = 100
 me1 vinp vop vss vss nch w = 2u l = 0.4u            *decide by noise:
 me2 vout vop vss vss nch w = 2u l = 0.4u m = 100    *id ~45n, in~0.8n
 *veb eb gnd dc = '3.3-0.5'      *10n
 *veb eb gnd dc = '3.3-0.58'      *100n
 *veb eb gnd dc = '3.3-0.7'      *1u
 veb eb gnd dc = '3.3-0.85'      *10u
 ***

 ***input***
 *******source input*******
 *iin vinp vdd dc = 1n  ac = 1  sin(1u 10n 1k 1ns)
 iin vdd vinp dc = 100n  ac = 1  sin(1u 10n 1k 1ns)
 *******mos input*******

 ***output***
 ******e element***
 *eo vout gnd opamp ref vout
 *vr ref gnd dc = 1.7
 *.probe dc i(eo)

 ******op by design***
 *xop2 vdd vss vop2 vinp2 cp cn vop2 op
 eout vop2 gnd opamp vinp2 vop2
 vinp2 vinp2 gnd dc = comon
 ro vout vop2 0
 .probe dc i(ro)

 ***
 ***source***
 vd		vdd 	gnd dc supplyp
 vs		vss 	gnd dc supplyn
 .param
 +supplyp	= 3.3
 +supplyn	= 0

 ***test***
 mt  vdt vgt vst vst pch w = 5u l = 0.4u
 it  vdd vst dc = 10n
 vtg vgt gnd dc = 2v
 vtd vdt gnd dc = 1v

 .op

 ******iinput*******
 .dc iin dec 100 1n 100u
 *.dc it dec 100 1n 1u
 *.probe dc i(me1) i(me2)
 *+lx3(me1) lx3(me2) lx7(me1) lx7(me2)
 *+i(xop1.m4n)
 *********input impedance*********
 *.print zin=par('v(vinp)/i(iin)') id=par('i(iin)')

 ******ac*******
 .ac dec 100 1 1g
 .noise i(ro) iin

 ******trans******
 *.tran 100ns 2ms
 *.probe tran i(me1) i(me2)
 .end


 **warning**  the accurate option increases  the cpu time but the results
                are more accurate.
 ***accurate option sets default value of the options: 
 lvltim= 4         dvdt= 3       relvar= 200.00m absvar= 200.00m
     ft= 200.00m relmos=  10.00m
 (used for FFT control ) fft_accurate= 1
1****** HSPICE -- B-2008.09-SP1 32-BIT (Nov 24 2008) linux ******               
 ******  
 *current enlargge: use an op and two mos of current mirror

  ******  circuit name directory
 circuit number to circuit name directory
   number circuitname                     definition         multiplier
        0 main circuit
        1 xop1.                           op_a               1.00 
 **warning**     0:ro              defined in subckt 0                resistance limited to   1.000E-05

 

 
      
  Opening plot unit= 15
 file=iEnB.pa0                                                                 

1****** HSPICE -- B-2008.09-SP1 32-BIT (Nov 24 2008) linux ******               
 ******  
 *current enlargge: use an op and two mos of current mirror

  ******  operating point information tnom=  25.000 temp=  25.000 *****
 ***** operating point status is all       simulation time is     0.     
    node    =voltage      node    =voltage      node    =voltage

 +0:c0      = 1.225e+00 0:cn      = 4.499e-01 0:cp      = 2.700e+00
 +0:cz      = 2.394e+00 0:eb      = 2.450e+00 0:vdd     = 3.300e+00
 +0:vdt     = 1.000e+00 0:vgt     = 2.000e+00 0:vinn    = 2.000e+00
 +0:vinp    = 2.000e+00 0:vinp2   = 2.000e+00 0:vop     = 7.398e-01
 +0:vop2    = 2.000e+00 0:vout    = 2.000e+00 0:vss     =   0.     
 +0:vst     = 2.491e+00 1:1       = 6.710e-01 1:b       = 2.908e+00


 maximum nodal capacitance=   6.303E-12         on node     0:vdd             

    nodal  capacitance table 

    node    =    cap      node    =    cap      node    =    cap

 +0:c0      = 1.793e-14 0:cn      = 7.945e-14 0:cp      = 8.232e-14
 +0:cz      = 2.266e-13 0:eb      = 1.378e-12 0:vdd     = 6.303e-12
 +0:vdt     = 5.943e-15 0:vgt     = 3.592e-15 0:vinn    = 9.590e-14
 +0:vinp    = 1.102e-13 0:vinp2   =   0.      0:vop     = 3.450e-13
 +0:vop2    =   0.      0:vout    = 1.432e-12 0:vss     = 1.608e-12
 +0:vst     = 2.376e-14 1:1       = 1.118e-13 1:b       = 3.403e-13

 

 ****  voltage sources

 subckt                                                                    
 element  0:vinn     0:veb      0:vinp2    0:vd       0:vs       0:vtg     
  volts    2.000e+00  2.450e+00  2.000e+00  3.300e+00    0.       2.000e+00
  current    0.         0.         0.      -1.890e-03  1.899e-03    0.     
  power      0.         0.         0.       6.236e-03    0.         0.     

 subckt             
 element  0:vtd     
  volts    1.000e+00
  current  1.000e-08
  power   -1.000e-08

     total voltage source power dissipation=  6.236e-03       watts



 ***** current sources

 subckt                                   
 element  0:ic       0:iin      0:it      
  volts    2.700e+00  1.299e+00  8.087e-01
  current  5.000e-07  1.000e-07  1.000e-08
  power   -1.350e-06 -1.300e-07 -8.087e-09


     total current source power dissipation=-1.488e-06       watts

 **** resistors

 subckt             
 element  0:ro      
  r value  1.000e-05
  v drop  -9.778e-11
  current -9.778e-06
  power    9.561e-16


 **** voltage-controlled voltage sources


 subckt             
 element  0:eout    
  volts    2.000e+00
  current -9.778e-06





 **** mosfets


 subckt                                                                    
 element  0:mc0      0:mc1      0:mc2      0:mc3      0:mcx      0:mcz     
 model    0:pch.3    0:pch.3    0:pch.6    0:nch.3    0:pch.5    0:nch.2   
 region       Cutoff     Cutoff   Saturati     Cutoff   Saturati     Cutoff
  id      -5.000e-07 -3.747e-07 -3.747e-07  3.747e-07 -6.069e-07  6.063e-07
  ibs      1.004e-19  7.527e-20  8.207e-20 -5.981e-19  1.329e-19 -9.126e-19
  ibd      3.331e-15  2.494e-12  1.159e-16 -2.153e-14  1.160e-16 -5.585e-10
  vgs     -5.993e-01 -5.993e-01 -7.753e-01  4.499e-01 -9.058e-01  4.499e-01
  vds     -5.993e-01 -2.074e+00 -7.753e-01  4.499e-01 -9.058e-01  2.394e+00
  vbs        0.         0.         0.         0.         0.         0.     
  vth     -7.198e-01 -6.799e-01 -7.454e-01  5.699e-01 -7.778e-01  5.635e-01
  vdsat   -4.893e-02 -5.365e-02 -1.021e-01  4.412e-02 -1.747e-01  4.465e-02
  vod      1.205e-01  8.054e-02 -2.990e-02 -1.199e-01 -1.280e-01 -1.136e-01
  beta     4.335e-03  1.252e-03  1.063e-04  8.618e-03  4.825e-05  6.708e-03
  gam eff  4.553e-01  4.553e-01  4.082e-01  5.577e-01  3.889e-01  4.720e-01
  gm       1.151e-05  8.252e-06  5.574e-06  9.828e-06  6.523e-06  1.525e-05
  gds      3.541e-07  2.330e-07  1.632e-07  1.620e-07  6.154e-08  8.384e-08
  gmb      2.576e-06  1.809e-06  1.177e-06  2.825e-06  1.414e-06  4.592e-06
  cdtot    5.072e-14  1.084e-14  1.895e-15  2.054e-14  1.835e-15  3.189e-14
  cgtot    2.458e-14  7.023e-15  9.699e-16  1.269e-14  3.685e-15  4.335e-14
  cstot    6.271e-14  1.792e-14  2.700e-15  2.275e-14  5.690e-15  4.284e-14
  cbtot    1.121e-13  2.838e-14  4.394e-15  4.318e-14  5.204e-15  9.314e-14
  cgs      6.469e-15  1.848e-15  3.889e-16  3.200e-15  2.762e-15  6.232e-15
  cgd      6.469e-15  1.848e-15  1.922e-16  3.200e-15  1.922e-16  6.232e-15



 subckt                                                          xop1      
 element  0:me1b     0:me2b     0:me1      0:me2      0:mt       1:mb      
 model    0:pch.3    0:pch.3    0:nch.3    0:nch.3    0:pch.3    0:pch.1   
 region     Saturati   Saturati   Saturati   Saturati     Cutoff   Saturati
  id      -1.867e-05 -1.867e-03  1.876e-05  1.876e-03 -9.997e-09 -2.631e-06
  ibs      3.694e-18  3.694e-16 -3.486e-17 -3.486e-15  2.008e-21  5.203e-19
  ibd      5.818e-14  5.841e-12 -2.900e-09 -2.895e-07  1.851e-15  1.106e-15
  vgs     -8.500e-01 -8.500e-01  7.398e-01  7.398e-01 -4.913e-01 -9.058e-01
  vds     -1.299e+00 -1.300e+00  2.000e+00  2.000e+00 -1.491e+00 -3.918e-01
  vbs        0.         0.         0.         0.         0.         0.     
  vth     -6.960e-01 -6.960e-01  5.535e-01  5.535e-01 -6.957e-01 -7.452e-01
  vdsat   -1.761e-01 -1.761e-01  1.757e-01  1.757e-01 -4.568e-02 -1.991e-01
  vod     -1.540e-01 -1.540e-01  1.862e-01  1.862e-01  2.043e-01 -1.605e-01
  beta     1.246e-03  1.246e-01  1.027e-03  1.027e-01  6.241e-04  1.577e-04
  gam eff  4.626e-01  4.626e-01  5.352e-01  5.352e-01  4.553e-01  4.181e-01
  gm       2.003e-04  2.003e-02  1.712e-04  1.712e-02  2.494e-07  2.480e-05
  gds      6.182e-06  6.182e-04  2.481e-06  2.481e-04  7.103e-09  1.443e-07
  gmb      4.238e-05  4.238e-03  4.503e-05  4.503e-03  5.914e-08  5.866e-06
  cdtot    1.175e-14  1.174e-12  2.576e-15  2.576e-13  5.943e-15  1.752e-14
  cgtot    1.365e-14  1.365e-12  3.312e-15  3.312e-13  3.592e-15  1.892e-13
  cstot    2.825e-14  2.825e-12  6.105e-15  6.105e-13  8.959e-15  2.302e-13
  cbtot    2.866e-14  2.865e-12  6.084e-15  6.084e-13  1.480e-14  9.405e-14
  cgs      1.047e-14  1.047e-12  2.479e-15  2.479e-13  9.242e-16  1.659e-13
  cgd      1.839e-15  1.839e-13  4.270e-16  4.270e-14  9.242e-16  2.205e-15



 subckt   xop1       xop1       xop1       xop1      
 element  1:m1       1:m2       1:m3       1:m4      
 model    0:pch.1    0:pch.1    0:nch.1    0:nch.1   
 region     Saturati   Saturati   Saturati   Saturati
  id      -1.315e-06 -1.316e-06  1.315e-06  1.316e-06
  ibs      2.629e-19  2.632e-19 -2.263e-18 -2.265e-18
  ibd      6.404e-13  4.552e-13 -4.644e-15 -4.644e-15
  vgs     -9.079e-01 -9.082e-01  6.710e-01  6.710e-01
  vds     -2.237e+00 -2.168e+00  6.710e-01  7.398e-01
  vbs        0.         0.         0.         0.     
  vth     -7.471e-01 -7.472e-01  5.345e-01  5.344e-01
  vdsat   -1.984e-01 -1.985e-01  1.590e-01  1.590e-01
  vod     -1.609e-01 -1.610e-01  1.365e-01  1.366e-01
  beta     7.762e-05  7.761e-05  1.166e-04  1.166e-04
  gam eff  4.121e-01  4.121e-01  4.547e-01  4.547e-01
  gm       1.239e-05  1.240e-05  1.455e-05  1.456e-05
  gds      2.594e-08  2.611e-08  2.054e-08  1.984e-08
  gmb      2.915e-06  2.916e-06  4.289e-06  4.293e-06
  cdtot    6.259e-15  6.318e-15  4.115e-15  4.076e-15
  cgtot    9.589e-14  9.590e-14  5.069e-14  5.069e-14
  cstot    1.155e-13  1.155e-13  6.017e-14  6.017e-14
  cbtot    4.586e-14  4.592e-14  2.725e-14  2.721e-14
  cgs      8.313e-14  8.315e-14  4.225e-14  4.225e-14
  cgd      1.107e-15  1.107e-15  6.333e-16  6.333e-16






 **** the results of the sqrt of integral (I**2 / freq)
      using more points from fstart to fstop 
      results in more accurate total noise values.

 **** total output noise current   =  6.924e-06       amps
 **** total equivalent input noise =  1.210e-06      

          ***** job concluded
1****** HSPICE -- B-2008.09-SP1 32-BIT (Nov 24 2008) linux ******               
 ******  
 *current enlargge: use an op and two mos of current mirror

  ******  job statistics summary tnom=  25.000 temp=  25.000 *****

  ******  HSPICE Threads Information  ******
  Command Line Threads Count:                      0
  Available CPU Count:                            12
  Actual Model Evaluation(Load) Threads Count:     1
  Actual Solver Threads Count:                     1


  ******  Circuit Statistics  ******
  # nodes       =      52  # elements   =      29
  # resistors   =       1  # capacitors =       0  # inductors   =       0
  # mutual_inds =       0  # vccs       =       0  # vcvs        =       1
  # cccs        =       0  # ccvs       =       0  # volt_srcs   =       8
  # curr_srcs   =       3  # diodes     =       0  # bjts        =       0
  # jfets       =       0  # mosfets    =      16  # U elements  =       0
  # T elements  =       0  # W elements =       0  # B elements  =       0
  # S elements  =       0  # P elements =       0  # va device   =       0


  ******  Runtime Statistics (seconds)  ******

  analysis           time    # points   tot. iter  conv.iter
  op point           0.00           1          72
  dc sweep           0.06         501        1077
  ac analysis        0.03         901         901
  readin             0.04
  errchk             0.01
  setup              0.00
  output             0.00


           total memory used          522  kbytes
           total cpu time            0.14 seconds
           total elapsed time        0.30 seconds
           job started at     00:49:12 01/26/2016
           job ended   at     00:49:12 01/26/2016


 Init: hspice initialization file: /usr/cad/synopsys/hspice/cur/hspice/hspice.ini
 lic: Release hspice token(s) 
