Using: /usr/bin/time -p /usr/cad/synopsys/hspice/cur/hspice/linux/hspice iEnB.sp
 ****** HSPICE -- B-2008.09-SP1 32-BIT (Nov 24 2008) linux ******               
  Copyright (C) 2008 Synopsys, Inc. All Rights Reserved.                        
  Unpublished-rights reserved under US copyright laws.
  This program is protected by law and is subject to the 
  terms and conditions of the license agreement from Synopsys.
  Use of this program is your acceptance to be bound by the 
  license agreement. HSPICE is the trademark of Synopsys, Inc.
  Input File: iEnB.sp                                                           
 lic:  
 lic: FLEXlm: v8.5b 
 lic: USER:   m103061608           HOSTNAME: ws44 
 lic: HOSTID: e41f13bf3ba4         PID:      25625 
 lic: Using FLEXlm license file: 
 lic: 26585@lsnctu 
 lic: Checkout 1 hspice 
 lic: License/Maintenance for hspice will expire on 14-may-2016/2015.06 
 lic: FLOATING license(s) on SERVER lsnctu 
 lic:   
 Init: read install configuration file: /usr/cad/synopsys/hspice/cur/hspice/meta.cfg
 Init: hspice initialization file: /usr/cad/synopsys/hspice/cur/hspice/hspice.ini
 .option runlvl
 .option post acout=0 accurate=1 dcon=1 converge=1 gmindc=1.0000e-12 captab=1 unwrap=1

 ***op include***


 ******netlist***
 .subckt op vdd vss vinn vinp cp cn vop
 mb	b	cp	vdd	vdd	pch	w = 31u  l = 1u	  m = 2
 m1	1	vinn	b		b		pch	w = 10u l = 0.4u m = 1
 m2	2	vinp	b		b		pch	w = 10u l = 0.4u m = 1
 m3	1	cn		vss	vss	nch	w = 4.2u l = 0.4u m = 2
 m4	2	cn		vss	vss	nch	w = 4.2u l = 0.4u m = 2

 m1pa	voa	voa	vdd	vdd	pch	w = 4u l = 0.4u    m = 2
 m1pb	von	von	voa	voa	pch	w = 4u l = 0.4u    m = 2
 m2pa	vo2	voa	vdd	vdd	pch	w = 4u l = 0.4u    m = 2
 m2pb	vop	von	vo2 vo2	pch	w = 4u l = 0.4u    m = 2
 m3n	    von	1   vss vss nch w = 15u   l = 0.4u    m = 2
 m4n	    vop	2   vss vss nch w = 15u   l = 0.4u    m = 2

 ******compensation***
 cvonvop zon vop 1p
 *vvb zb gnd dc = 2
 *mz1 zon zb von von pch w = 1u l = 1u
 rz zon von 100k
 .ends

 ******current mirror***
 ic  cp vss dc = 500n
 mc0 cp cp vdd vdd pch w = 5u l = 0.4u m = 7
 mc1 c0 cp vdd vdd pch w = 5u l = 0.4u m = 2
 mc2 cn cn c0  c0  pch w = 1u l = 0.4u m = 1
 mc3 cn cn vss vss nch w = 5.1u l = 0.4u m = 3

 xop1 vdd vss vinn vinp cp cn vop op
 *ei vop gnd opamp vinp vinn 100
 ******optest_open***
 *vinp vinp gnd dc = 'comon-diff' *ac = 1
 vinn vinn gnd dc = 'comon+diff' *ac = 1 *180
 .param
 +comon		= 1.7
 +diff		= 0
 ********************
 ********************

 ***enlargement mos***
 *******pinput*******
 *me1 vinp vop vdd vdd pch w = 5u l = 0.4u
 *me2 vout vop vdd vdd pch w = 5u l = 0.4u m = 100
 *me1b vinp eb vss vss nch w = 2u l = 0.4u            *decide by noise:
 *me2b vout eb vss vss nch w = 2u l = 0.4u m = 100    *id ~45n, in~0.8n
 *veb eb gnd dc = 0.6
 *******ninput*******
 me1b vinp eb vdd vdd pch w = 8u l = 0.4u
 me2b vout eb vdd vdd pch w = 8u l = 0.4u m = 100
 me1 vinp vop vss vss nch w = 2u l = 0.4u            *decide by noise:
 me2 vout vop vss vss nch w = 2u l = 0.4u m = 100    *id ~45n, in~0.8n
 veb eb gnd dc = '3.3-0.7'
 ***

 ***input***
 *******source input*******
 iin vinp vdd dc = 10n  ac = 1  sin(1u 10n 1k 1ns)
 *iin vdd vinp dc = 100n  ac = 1  sin(1u 10n 1k 1ns)
 *******mos input*******

 ***output***
 ******e element***
 *eo vout gnd opamp ref vout
 *vr ref gnd dc = 1.7
 *.probe dc i(eo)

 ******op by design***
 xop2 vdd vss vop2 vinp2 cp cn vop2 op
 vinp2 vinp2 gnd dc = 1.7
 ro vout vop2 0
 .probe dc i(ro)

 ***
 ***source***
 vd		vdd 	gnd dc supplyp
 vs		vss 	gnd dc supplyn
 .param
 +supplyp	= 3.3
 +supplyn	= 0

 ***test***
 mt  vdt vgt vst vst pch w = 5u l = 0.4u
 it  vdd vst dc = 1u
 vtg vgt gnd dc = 2v
 vtd vdt gnd dc = 1v

 .op
 .dc iin dec 10 1n 10u
 *.dc it dec 100 1n 1u
 .probe dc i(me1) i(me2)
 +lx3(me1) lx3(me2) lx7(me1) lx7(me2)
 +i(xop1.m4n)
 *.print rds=par('v(vinn)/i(iin)')
 .ac dec 100 1 1g
 .noise i(ro) iin

 *.tran 100ns 2ms
 *.probe tran i(me1) i(me2)
 .end


 **warning**  the accurate option increases  the cpu time but the results
                are more accurate.
 ***accurate option sets default value of the options: 
 lvltim= 4         dvdt= 3       relvar= 200.00m absvar= 200.00m
     ft= 200.00m relmos=  10.00m
 (used for FFT control ) fft_accurate= 1
1****** HSPICE -- B-2008.09-SP1 32-BIT (Nov 24 2008) linux ******               
 ******  
 *current enlargge: use an op and two mos of current mirror

  ******  circuit name directory
 circuit number to circuit name directory
   number circuitname                     definition         multiplier
        0 main circuit
        1 xop1.                           op                 1.00 
        2 xop2.                           op                 1.00 
 **warning**     0:ro              defined in subckt 0                resistance limited to   1.000E-05

 

 
      
  Opening plot unit= 15
 file=iEnB.pa0                                                                 

  *** initial damped pseudo transient completed. ***
  *** final try started ***
1****** HSPICE -- B-2008.09-SP1 32-BIT (Nov 24 2008) linux ******               
 ******  
 *current enlargge: use an op and two mos of current mirror

  ******  operating point information tnom=  25.000 temp=  25.000 *****
 ***** operating point status is all       simulation time is     0.     
    node    =voltage      node    =voltage      node    =voltage

 +0:c0      =   1.2252  0:cn      = 449.9268m 0:cp      =   2.7007 
 +0:eb      =   2.6000  0:vdd     =   3.3000  0:vdt     =   1.0000 
 +0:vgt     =   2.0000  0:vinn    =   1.7000  0:vinp    =   1.6992 
 +0:vinp2   =   1.7000  0:vop     = 580.9593m 0:vop2    =   1.7002 
 +0:vout    =   1.7002  0:vss     =   0.      0:vst     =   2.6910 
 +1:1       = 518.8776m 1:2       = 535.7981m 1:b       =   2.2845 
 +1:vo2     =   2.4648  1:voa     =   2.4964  1:von     =   1.6928 
 +1:zon     =   1.6928  2:1       = 525.0211m 2:2       = 529.2424m
 +2:b       =   2.2850  2:vo2     =   2.4873  2:voa     =   2.4865 
 +2:von     =   1.6729  2:zon     =   1.6729 


 maximum nodal capacitance=   4.685E-12         on node     0:vdd             

    nodal  capacitance table 

    node    =    cap      node    =    cap      node    =    cap

 +0:c0      =  17.9291f 0:cn      =  64.1981f 0:cp      = 228.0203f
 +0:eb      = 547.5863f 0:vdd     =   4.6848p 0:vdt     =   5.7439f
 +0:vgt     =   3.4520f 0:vinn    =   6.8878f 0:vinp    =  18.5255f
 +0:vinp2   =   6.8871f 0:vop     =   1.2546p 0:vop2    =   1.0511p
 +0:vout    =   1.1640p 0:vss     =   1.6892p 0:vst     =  23.4174f
 +1:1       =  46.1678f 1:2       =  46.0978f 1:b       = 163.8128f
 +1:vo2     =  54.2041f 1:voa     =  78.9722f 1:von     =  62.7936f
 +1:zon     =   1.0000p 2:1       =  46.1413f 2:2       =  46.1238f
 +2:b       = 163.8182f 2:vo2     =  59.4479f 2:voa     =  80.0315f
 +2:von     =  64.9457f 2:zon     =   1.0000p

 

 ****  voltage sources

 subckt                                                                    
 element  0:vinn     0:veb      0:vinp2    0:vd       0:vs       0:vtg     
  volts      1.7000     2.6000     1.7000     3.3000     0.         2.0000 
  current    0.         0.         0.      -214.8725u  213.8725u    0.     
  power      0.         0.         0.       709.0792u    0.         0.     

 subckt             
 element  0:vtd     
  volts      1.0000 
  current    1.0000u
  power     -1.0000u

     total voltage source power dissipation=  708.0792u       watts



 ***** current sources

 subckt                                   
 element  0:ic       0:iin      0:it      
  volts      2.7007    -1.6008   608.9790m
  current  500.0000n   10.0000n    1.0000u
  power     -1.3503u   16.0079n -608.9790n


     total current source power dissipation=  -1.9433u       watts

 **** resistors

 subckt              xop1       xop2      
 element  0:ro       1:rz       2:rz      
  r value   10.0000u  100.0000k  100.0000k
  v drop     8.5116p    0.      -222.0446a
  current  851.1636n    0.      -2.220e-21
  power      7.2448a    0.         0.     



 **** mosfets


 subckt                                                                    
 element  0:mc0      0:mc1      0:mc2      0:mc3      0:me1b     0:me2b    
 model    0:pch.3    0:pch.3    0:pch.6    0:nch.3    0:pch.3    0:pch.3   
 region       Cutoff     Cutoff   Saturati     Cutoff   Saturati   Saturati
  id      -499.9916n -374.7296n -374.7388n  374.7377n   -1.8243u -182.3362u
  ibs      1.004e-19  7.527e-20  8.207e-20 -5.981e-19  3.628e-19   36.2648a
  ibd        3.3314f    2.4938p  115.9258a  -21.5264f  490.0845f   48.5826p
  vgs     -599.3222m -599.3222m -775.2674m  449.9268m -700.0000m -700.0000m
  vds     -599.3222m   -2.0748  -775.2674m  449.9268m   -1.6008    -1.5998 
  vbs        0.         0.         0.         0.         0.         0.     
  vth     -719.8247m -679.8662m -745.3677m  569.8638m -689.0626m -689.0891m
  vdsat    -48.9331m  -53.6544m -102.1390m   44.1177m  -79.9089m  -79.8966m
  vod      120.5025m   80.5440m  -29.8997m -119.9370m  -10.9374m  -10.9109m
  beta       4.3353m    1.2523m  106.3096u    8.6184m    1.0107m  101.0664m
  gam eff  455.2807m  455.2808m  408.2469m  557.6573m  460.7523m  460.7523m
  gm        11.5078u    8.2520u    5.5740u    9.8278u   34.8868u    3.4871m
  gds      354.1031n  233.0318n  163.2106n  161.9936n  998.0981n   99.7668u
  gmb        2.5757u    1.8089u    1.1767u    2.8253u    7.4289u  742.5517u
  cdtot     50.7212f   10.8352f    1.8946f   20.5427f    9.0059f  900.7408f
  cgtot     24.5798f    7.0228f  969.8884a   12.6943f    5.4216f  542.1646f
  cstot     62.7138f   17.9182f    2.6998f   22.7458f   13.8402f    1.3840p
  cbtot    112.1386f   28.3830f    4.3941f   43.1839f   22.3752f    2.2377p
  cgs        6.4691f    1.8483f  388.9027a    3.1997f    1.4732f  147.3150f
  cgd        6.4691f    1.8483f  192.1500a    3.1997f    1.4732f  147.3150f



 subckt                                    xop1       xop1       xop1      
 element  0:me1      0:me2      0:mt       1:mb       1:m1       1:m2      
 model    0:nch.3    0:nch.3    0:pch.3    0:pch.11   0:pch.3    0:pch.3   
 region     Saturati   Saturati   Saturati     Cutoff     Cutoff     Cutoff
  id         1.8143u  181.4787u -999.9961n -426.6876n -212.5793n -214.1049n
  ibs       -3.3867a -338.7661a  2.008e-19  8.384e-20  4.215e-20  4.245e-20
  ibd      -63.4244p   -6.3968n  562.8348f    5.6590f  246.4519f  221.4306f
  vgs      580.9593m  580.9593m -691.0210m -599.3222m -584.4845m -585.2725m
  vds        1.6992     1.7002    -1.6910    -1.0155    -1.7656    -1.7487 
  vbs        0.         0.         0.         0.         0.         0.     
  vth      555.8625m  555.8547m -690.2623m -746.9929m -683.4090m -683.8638m
  vdsat     71.5820m   71.5855m  -77.1782m  -52.7337m  -50.2327m  -50.2682m
  vod       25.0968m   25.1046m -758.7051u  147.6707m   98.9245m   98.5913m
  beta       1.0351m  103.5119m  621.7822u    3.6767m    1.2786m    1.2784m
  gam eff  535.1635m  535.1635m  455.2809m  391.6940m  462.5849m  462.5849m
  gm        37.0671u    3.7076m   19.0976u    9.3405u    4.8853u    4.9188u
  gds      514.0180n   51.4112u  547.5718n   81.1525n  137.6187n  138.6211n
  gmb        9.9104u  991.2596u    4.0747u    2.1407u    1.0915u    1.0987u
  cdtot      2.6329f  263.2724f    5.7439f   74.6930f   10.8257f   10.8549f
  cgtot      2.0616f  206.1579f    3.4520f   72.8482f    6.8878f    6.8867f
  cstot      3.9367f  393.6695f    8.9591f  102.5259f   17.0945f   17.0945f
  cbtot      6.0244f  602.4155f   14.4583f  204.6099f   27.4514f   27.4795f
  cgs      865.0905a   86.5090f  924.1500a   11.3643f    1.8391f    1.8391f
  cgd      427.0410a   42.7041f  924.1500a   11.3643f    1.8391f    1.8391f



 subckt   xop1       xop1       xop1       xop1       xop1       xop1      
 element  1:m3       1:m4       1:m1pa     1:m1pb     1:m2pa     1:m2pb    
 model    0:nch.3    0:nch.3    0:pch.3    0:pch.3    0:pch.3    0:pch.3   
 region       Cutoff     Cutoff   Saturati   Saturati   Saturati   Saturati
  id       212.5810n  214.1065n   -6.4942u   -6.4942u   -6.5857u   -6.5856u
  ibs     -3.476e-19 -3.501e-19    1.3115a    1.3115a    1.3300a    1.3300a
  ibd      -12.1810f  -12.1810f  772.1256a  772.1256a  772.8563a   10.0307p
  vgs      449.9268m  449.9268m -803.5879m -803.5879m -803.5879m -771.9411m
  vds      518.8776m  535.7981m -803.5879m -803.5879m -835.2346m   -1.8838 
  vbs        0.         0.         0.         0.         0.         0.     
  vth      568.7664m  568.6389m -716.7998m -716.7998m -715.9397m -687.4358m
  vdsat     44.0665m   44.0711m -128.1109m -128.1109m -128.7118m -126.5033m
  vod     -118.8395m -118.7121m  -86.7881m  -86.7881m  -87.6482m  -84.5053m
  beta       4.6797m    4.6798m  967.8298u  967.8298u  967.9793u  976.6981u
  gam eff  554.4915m  554.4915m  451.6565m  451.6565m  451.6565m  451.6565m
  gm         5.5774u    5.6164u   89.5328u   89.5328u   90.4774u   91.8373u
  gds       90.0424n   90.2808n    2.8863u    2.8863u    2.8999u    2.6766u
  gmb        1.5975u    1.6082u   18.9332u   18.9332u   19.1324u   19.4230u
  cdtot     11.3450f   11.3139f   11.2372f   11.2372f   11.1497f    9.1208f
  cgtot      7.0242f    7.0242f   10.0440f   10.0440f   10.0440f    8.5497f
  cstot     12.7039f   12.7039f   21.8369f   21.8369f   21.8368f   19.4572f
  cbtot     24.0259f   23.9948f   25.8102f   25.8102f   25.7228f   23.5972f
  cgs        1.7618f    1.7618f    7.0516f    7.0516f    7.0515f    5.2015f
  cgd        1.7618f    1.7618f    1.4823f    1.4823f    1.4823f    1.4823f



 subckt   xop1       xop1       xop2       xop2       xop2       xop2      
 element  1:m3n      1:m4n      2:mb       2:m1       2:m2       2:m3      
 model    0:nch.3    0:nch.3    0:pch.11   0:pch.3    0:pch.3    0:nch.3   
 region       Cutoff     Cutoff     Cutoff     Cutoff     Cutoff     Cutoff
  id         6.4940u    6.5857u -426.6495n -213.1327n -213.5133n  213.1344n
  ibs       -9.5645a   -9.6996a  8.383e-20  4.226e-20  4.234e-20 -3.485e-19
  ibd     -254.8853p  -38.2199f    5.6587f  237.8641f  231.6001f  -12.1810f
  vgs      518.8776m  535.7981m -599.3222m -584.7575m -584.9541m  449.9268m
  vds        1.6928   580.9593m   -1.0150    -1.7599    -1.7557   525.0211m
  vbs        0.         0.         0.         0.         0.         0.     
  vth      562.6349m  570.7152m -746.9963m -683.5615m -683.6750m  568.7201m
  vdsat     51.2597m   52.9088m  -52.7334m  -50.2455m  -50.2543m   44.0681m
  vod      -43.7573m  -34.9171m  147.6741m   98.8040m   98.7209m -118.7933m
  beta      17.4814m   17.4605m    3.6767m    1.2785m    1.2785m    4.6797m
  gam eff  567.5246m  567.5246m  391.6940m  462.5849m  462.5849m  554.4915m
  gm       153.9827u  157.0711u    9.3397u    4.8975u    4.9058u    5.5915u
  gds        2.1529u    2.4754u   81.1515n  137.9807n  138.2307n   90.1266n
  gmb       42.4528u   43.8618u    2.1405u    1.0941u    1.0959u    1.6014u
  cdtot     32.9628f   37.2625f   74.7008f   10.8355f   10.8428f   11.3337f
  cgtot     23.9970f   23.9289f   72.8482f    6.8874f    6.8871f    7.0242f
  cstot     42.2232f   42.2232f  102.5259f   17.0945f   17.0945f   12.7039f
  cbtot     74.3115f   78.5430f  204.6177f   27.4608f   27.4678f   24.0145f
  cgs        6.2179f    6.2179f   11.3643f    1.8391f    1.8391f    1.7618f
  cgd        6.2179f    6.2179f   11.3643f    1.8391f    1.8391f    1.7618f



 subckt   xop2       xop2       xop2       xop2       xop2       xop2      
 element  2:m4       2:m1pa     2:m1pb     2:m2pa     2:m2pb     2:m3n     
 model    0:nch.3    0:pch.3    0:pch.3    0:pch.3    0:pch.3    0:nch.3   
 region       Cutoff   Saturati   Saturati   Saturati   Saturati     Cutoff
  id       213.5149n   -7.4584u   -7.4584u   -7.4557u   -7.4557u    7.4582u
  ibs     -3.491e-19    1.5061a    1.5061a    1.5055a    1.5055a  -10.9844a
  ibd      -12.1810f  772.2131a  772.2131a  772.2002a  771.9495a -245.4892p
  vgs      449.9268m -813.5348m -813.5348m -813.5348m -814.3678m  525.0211m
  vds      529.2424m -813.5348m -813.5348m -812.7017m -787.1017m    1.6729 
  vbs        0.         0.         0.         0.         0.         0.     
  vth      568.6883m -716.5312m -716.5312m -716.5538m -717.2497m  562.7798m
  vdsat     44.0693m -135.3530m -135.3530m -135.3367m -135.4359m   52.3503m
  vod     -118.7615m  -97.0036m  -97.0036m  -96.9810m  -97.1181m  -37.7587m
  beta       4.6798m  966.6638u  966.6638u  966.6599u  966.4382u   17.4795m
  gam eff  554.4915m  451.6566m  451.6566m  451.6566m  451.6566m  567.5246m
  gm         5.6012u   98.4518u   98.4518u   98.4259u   98.3553u  175.2908u
  gds       90.1861n    3.1939u    3.1939u    3.1935u    3.2100u    2.4503u
  gmb        1.6041u   20.8132u   20.8132u   20.8078u   20.7928u   48.2326u
  cdtot     11.3259f   11.2094f   11.2094f   11.2118f   11.2836f   33.0154f
  cgtot      7.0242f   10.3490f   10.3490f   10.3490f   10.3719f   23.9722f
  cstot     12.7039f   22.3226f   22.3226f   22.3226f   22.3590f   42.2232f
  cbtot     24.0068f   25.8015f   25.8015f   25.8038f   25.8771f   74.3392f
  cgs        1.7618f    7.4299f    7.4299f    7.4299f    7.4584f    6.2179f
  cgd        1.7618f    1.4823f    1.4823f    1.4823f    1.4823f    6.2179f



 subckt   xop2      
 element  2:m4n     
 model    0:nch.3   
 region       Cutoff
  id         8.3066u
  ibs      -12.2337a
  ibd     -340.9255p
  vgs      529.2424m
  vds        1.7002 
  vbs        0.     
  vth      562.5818m
  vdsat     53.2269m
  vod      -33.3394m
  beta      17.4787m
  gam eff  567.5246m
  gm       193.7809u
  gds        2.7001u
  gmb       53.2117u
  cdtot     32.9434f
  cgtot     23.9552f
  cstot     42.2232f
  cbtot     74.2503f
  cgs        6.2179f
  cgd        6.2179f






 **** the results of the sqrt of integral (I**2 / freq)
      using more points from fstart to fstop 
      results in more accurate total noise values.

 **** total output noise current   =  657.6214n       amps
 **** total equivalent input noise =    2.0119u      

          ***** job concluded
1****** HSPICE -- B-2008.09-SP1 32-BIT (Nov 24 2008) linux ******               
 ******  
 *current enlargge: use an op and two mos of current mirror

  ******  job statistics summary tnom=  25.000 temp=  25.000 *****

  ******  HSPICE Threads Information  ******
  Command Line Threads Count:                      0
  Available CPU Count:                             8
  Actual Model Evaluation(Load) Threads Count:     1
  Actual Solver Threads Count:                     1


  ******  Circuit Statistics  ******
  # nodes       =      96  # elements   =      50
  # resistors   =       3  # capacitors =       2  # inductors   =       0
  # mutual_inds =       0  # vccs       =       0  # vcvs        =       0
  # cccs        =       0  # ccvs       =       0  # volt_srcs   =      11
  # curr_srcs   =       3  # diodes     =       0  # bjts        =       0
  # jfets       =       0  # mosfets    =      31  # U elements  =       0
  # T elements  =       0  # W elements =       0  # B elements  =       0
  # S elements  =       0  # P elements =       0  # va device   =       0


  ******  Runtime Statistics (seconds)  ******

  analysis           time    # points   tot. iter  conv.iter
  op point           0.06           1         634
  dc sweep           0.02          41         207
  ac analysis        0.05         901         901
  readin             0.04
  errchk             0.00
  setup              0.01
  output             0.00


           total memory used          557  kbytes
           total cpu time            0.18 seconds
           total elapsed time        0.34 seconds
           job started at     23:19:28 01/21/2016
           job ended   at     23:19:29 01/21/2016


 Init: hspice initialization file: /usr/cad/synopsys/hspice/cur/hspice/hspice.ini
 lic: Release hspice token(s) 
