Using: /usr/bin/time -p /usr/cad/synopsys/hspice/cur/hspice/linux/hspice ImirrorBias.sp
 ****** HSPICE -- B-2008.09-SP1 32-BIT (Nov 24 2008) linux ******               
  Copyright (C) 2008 Synopsys, Inc. All Rights Reserved.                        
  Unpublished-rights reserved under US copyright laws.
  This program is protected by law and is subject to the 
  terms and conditions of the license agreement from Synopsys.
  Use of this program is your acceptance to be bound by the 
  license agreement. HSPICE is the trademark of Synopsys, Inc.
  Input File: ImirrorBias.sp                                                    
 lic:  
 lic: FLEXlm: v8.5b 
 lic: USER:   m103061608           HOSTNAME: ws34 
 lic: HOSTID: e41f1366b76c         PID:      32759 
 lic: Using FLEXlm license file: 
 lic: 26585@lscic 
 lic: Checkout 1 hspice 
 lic: License/Maintenance for hspice will expire on 14-may-2016/2015.06 
 lic: FLOATING license(s) on SERVER lscic 
 lic:   
 Init: read install configuration file: /usr/cad/synopsys/hspice/cur/hspice/meta.cfg
 Init: hspice initialization file: /usr/cad/synopsys/hspice/cur/hspice/hspice.ini
 .option runlvl
 .option post acout=0 accurate=1 dcon=1 converge=1 gmindc=1.0000e-12 captab=1 unwrap=1
 + ingold=1
 *.options node list


 .subckt cmb vdd vss cp cp2 cp3 cp4 cn     *cp = 2.4; cp2 = 1.25; cp3 = 0.6; cp4 = 2.7
 mc0 cp  cp  vdd vdd pch w = 5.1u l = 5u     m = 1
 mc1 c0  cp  vdd vdd pch w = 2u   l = 5u     m = 1
 mc5 c2  cp  vdd vdd pch w = 2u   l = 5u     m = 1
 mc2 cp2 cp2 c0  c0  pch w = 1u   l = 5u     m = 1
 mc6 c3  cp2 c2  c2  pch w = 1u   l = 5u     m = 1
 mc3 cn  cp3 cp2 cp2 pch w = 5u   l = 0.5u   m = 2
 mc7 cp3 cp3 c3  c3  pch w = 5u   l = 0.5u   m = 2
 mc4 cn  cn  vss vss nch w = 1u   l = 3u     m = 1
 mc8 cp3 cn  vss vss nch w = 1u   l = 3u     m = 1

 mca cp4 cp4 vdd vdd pch w = 5u   l = 0.5u   m = 6
 mcb cp4 cn  vss vss nch w = 1u   l = 2u     m = 1
 .ends

 .subckt cmb_beta vdd vss ix 1 2 rr = 60k wx = 1u
 m0 ix  ix  vdd vdd pch w = 5u l = 5u  m = 1
 m1 1   ix   vdd vdd pch w = 5u l = 5u m = 1
 m2 2   ix   vdd vdd pch w = 5u l = 5u m = 1
 m3 1   rx   vss vss nch w = wx  l = 2u m = 1
 m4 2   1   rx  vss nch w = 'wx * 4' l = 2u m = 1
 r1 rx  vss 1000k
 .ends

 .subckt cmb_beta2 vdd vss 1 2 3 4 rr = 60k wx = 1u
 m1 1   1   vdd vdd pch w = 5u l = 5u m = 1
 m2 2   1   vdd vdd pch w = 5u l = 5u m = 1
 m3 1   2   3   vss nch w = wx  l = 1u m = 3
 m4 2   2   4   vss nch w = wx  l = 1u m = 3
 m5 3   3   vss vss nch w = wx  l = 1u m = 4
 m6 4   3   rx  vss nch w = 'wx * 4' l = 1u m = 4
 r1 rx  vss rr
 .ends

 .subckt cmb_beta3 vdd vss ix 1 2 3 4 rr = 60k wx = 1u
 m0 ix  ix  vdd vdd pch w = 5u l = 5u  m = 1
 m1 1   ix  vdd vdd pch w = 5u l = 5u m = 1
 m2 2   ix  vdd vdd pch w = 5u l = 5u m = 1
 m3 3   3   1   1   pch w = 5u l = 5u m = 1
 m4 4   3   2   2   pch w = 5u l = 5u m = 1
 m5 3   4   rx vss nch w = 'wx * 4'  l = 1u m = 1
 m6 4   4   vss vss nch w = wx l = 1u m = 1
 r1 rx  vss rr
 .ends

 .subckt cmb_beta4 vdd vss 1 4 wp = 20u
 m1 1   1   vdd vdd pch w = wp l = 5u m = 1
 m2 2   1   vdd vdd pch w = wp l = 5u m = 1
 m3 3   3   1   1   pch w = wp l = 1u m = 1
 m4 4   3   2   2   pch w = wp l = 1u m = 1
 m5 3   4   rx  vss nch w = '3.5u * 4' l = 5u m = 1
 m6 4   4   vss vss nch w = '3.5u * 1' l = 5u m = 1
 r1 rx vss 25k
 msus1a s0  s1  vdd vdd pch w = 1u l = 5u m = 1
 msus1b s1  s1  s0  s0  pch w = 1u l = 5u m = 1
 msus2  s1  4   vss vss nch w = 3.5u l = 5u m = 1
 msus3  1   s1  4   vss nch w = 1u   l = 1u m = 1
 .ends

 .subckt cmb_bete5 vdd vss cp cn wp = 5u
 mc0 cp  cp  vdd vdd pch w = 1.5u l = 1u m = 1
 mc1 cn  cp  vdd vdd pch w = 1.5u l = 1u m = 4
 mc2 cn  cn  vss vss nch w = 3.5u  l = 5u m = 1
 .ends

 .subckt ibias vdd vss cn mpx mpy rin = 10k
 mp  mpy mpx vdd vdd pch w = 1u   l =  0.5u m = 4
 mpb io  mpx vdd vdd pch w = 1u   l =  0.5u m = 1
 *eo  io  vss opamp opb1 io

 *vio vio vss dc = 0.8
 eio io gnd opamp io cn
 *(id, vgs, gm, rds): (10n, -0.5423, 2.363e-07, 574x); (10u, -0.9871,  7.141e-05, 1.67x)
 mn  mpy cn rx vss nch w = 5u l =  0.5u m = 3
 r1  rx  vss rin
 .ends

 .subckt opnw vdd vss vinp vinn vop cz
 mb	b	cz	 vdd vdd pch w = 12u  l = 10u  m = 1
 m1	1	vinn b	 b	 pch w = 1u   l = 1u  m = 1
 m2	2	vinp b	 b	 pch w = 1u   l = 1u  m = 1
 m3	1	1	 vss vss nch w = 1u   l = 1u  m = 1
 m4	2	1	 vss vss nch w = 1u   l = 1u    m = 1
 ma1 vop cz vdd vdd pch w =  2u l = 0.5u m = 1
 ma2 vop 2  vss vss nch w =  4u l = 1u m = 2
 .ends

 .subckt opnw2 vdd vss vinp vinn 2 opb1 cp
 ******** bias from fd op *******
 *mc1 cp2 cp2 vdd vdd pch w = 1u   l = 5u m = 1
 *mc2 cp2 opb1  cn2 cn2 nch w = 3.5u l = 1u   m = 3
 *mc3 cn2 cn2 vss vss nch w = 5u   l = 1u m = 2

 mc1 cp2 cp2 vdd vdd pch w = 1u   l = 5u m = 1
 mc2 cp2 opb1  cn2 vss nch w = 3.5u l = 0.5u   m = 7
 mc3 cn2 cn2 vss vss nch w = 2u   l = 1u m = 1
 ********
 m1	1	vinp b	 vss nch w = 5u   l = 2u  m = 1
 m2	2	vinn b	 vss nch w = 5u   l = 2u  m = 1
 m3	1	1	 vdd vdd pch w = 2u   l = 1u  m = 1
 m4	2	1	 vdd vdd pch w = 2u   l = 1u  m = 1
 mb  b   cn2  vss vss nch w = 2u   l = 1u m = 1
 c1   2   vinp 30f
 *c3   1   vinp 100f
 mr1  xx  rb  1   1   pch w = 1u l = 5u m = 1
 mcr1 cr1 1   vdd vdd pch w = 2u l = 1u m = 1
 mcr4 rb  rb  cr2 cr2 pch w = 1u l = 1u m = 2
 mcr5 cr2 cr2 vdd vdd pch w = 2u l = 1u m = 1
 mcr2 cr1 cr1 vss vss nch w = 1u l = 0.5u m = 1
 mcr3 rb  cr1 vss vss nch w = 1u l = 0.5u m = 1
 c2   2   xx  200f
 *c5  vinp vss  100f
 *c3   2  1 100f
 *r3  zz  1  10x
 .ends

 .subckt op_fc vdd vss vinp vinn vop cn cp
 ***input stage***
 mn	1	vinp b	 b	 nch w = 3u   l = 5u  m = 2
 mp	2	vinn b	 b	 nch w = 3u   l = 5u  m = 2
 mb 	b	cn2	 vss  vss nch w = 5u   l = 1u  m = 4
 ***output stage***
 m1  1   cp2 vdd vdd pch w = 1u   l = 5u m = 2
 m2  2   cp2 vdd vdd pch w = 1u   l = 5u m = 2
 m3	von cp	1   1   pch w = 2u   l = 1u  m = 1      * gm*rds = 50 (id = 200n)
 m4	vop	cp	2   2   pch w = 2u   l = 1u  m = 1
 m5  von	cn  5   vss nch w = 2u   l = 1u  m = 1
 m6  vop	cn  6   vss nch w = 2u   l = 1u  m = 1
 m7  5   von vss vss nch w = 3u   l = 5u  m = 1
 m8  6   von vss vss nch w = 3u   l = 5u  m = 1
 mc1 cp2 cp2 vdd vdd pch w = 1u   l = 5u m = 1
 mc2 cp2 cn  cn2 cn2 nch w = 3.5u l = 1u   m = 3
 mc3 cn2 cn2 vss vss nch w = 5u   l = 1u m = 2
 *c1  vop vss 5p
 .ends




 * vgsi + vdsb = 0.8; 0.8 - vth < vdsb
 * => 0.8 - vth < 0.8 - vgsi -> vth > vgsi




 iin cp  vss dc = 1u
 *iin2 ix vss dc = 1u
 xcmb   vdd vss cp cn cmb_bete5 wp = 5u
 *xcmb_b vdd vss 1 2 3 4 cmb_beta2 rr = 10k wx = 1u
 *xcmb_c vdd vss ix 1 2 3 4 cmb_beta3 rr = 10k wx = 1u
 *xcmb_d vdd vss cz 4 cmb_beta4 wp = 20u



 *** compensation ***
 *c1  vss mpy 1p
 *r1  mpx xx 25k

 *c2  xx 1   100f
 *r2  mpy xx  100k



 mt vdt vgt vst vst nch w = 5u l = 5u
 vtd vdt gnd dc = 2
 vtg vgt gnd dc = 1.5
 *vts vst gnd dc =
 *vtb vbt gnd
 it vst vss dc = 1u


 .param
 +supplyp	= 3.3
 +supplyn	= 0
 vd		vdd 	gnd dc supplyp
 vs		vss 	gnd dc supplyn







 *.tran 1us 20ms
 *.ic v(1) = 3.3
 **.ic v(4) = 0

 *.alter
 *.lib 'test.l'  noib


 .alter


 **warning**  the accurate option increases  the cpu time but the results
                are more accurate.
 ***accurate option sets default value of the options: 
 lvltim= 4         dvdt= 3       relvar= 200.00m absvar= 200.00m
     ft= 200.00m relmos=  10.00m
 (used for FFT control ) fft_accurate= 1
1****** HSPICE -- B-2008.09-SP1 32-BIT (Nov 24 2008) linux ******               
 ******  
 ***current mirror

  ******  circuit name directory
 circuit number to circuit name directory
   number circuitname                     definition         multiplier
        0 main circuit
        1 xcmb.                           cmb_bete5          1.00 
 

 
      
  Opening plot unit= 15
 file=ImirrorBias.pa0                                                          


          ***** job concluded
1****** HSPICE -- B-2008.09-SP1 32-BIT (Nov 24 2008) linux ******               
 ******  
 ***current mirror

  ******  job statistics summary tnom=  25.000 temp=  25.000 *****

  ******  HSPICE Threads Information  ******
  Command Line Threads Count:                      0
  Available CPU Count:                             8
  Actual Model Evaluation(Load) Threads Count:     1
  Actual Solver Threads Count:                     1


  ******  Circuit Statistics  ******
  # nodes       =      16  # elements   =      10
  # resistors   =       0  # capacitors =       0  # inductors   =       0
  # mutual_inds =       0  # vccs       =       0  # vcvs        =       0
  # cccs        =       0  # ccvs       =       0  # volt_srcs   =       4
  # curr_srcs   =       2  # diodes     =       0  # bjts        =       0
  # jfets       =       0  # mosfets    =       4  # U elements  =       0
  # T elements  =       0  # W elements =       0  # B elements  =       0
  # S elements  =       0  # P elements =       0  # va device   =       0


  ******  Runtime Statistics (seconds)  ******

  analysis           time    # points   tot. iter  conv.iter
  op point           0.00           1           0
  readin             0.04
  errchk             0.01
  setup              0.00
  output             0.00


           total memory used          599  kbytes
           total cpu time            0.05 seconds
           total elapsed time        0.36 seconds
           job started at     18:16:26 04/12/2016
           job ended   at     18:16:26 04/12/2016


1****** HSPICE -- B-2008.09-SP1 32-BIT (Nov 24 2008) linux ******               
 ******  
 

  ******    alter processing listing tnom=  25.000 temp=  25.000 *****
 .del lib 'test.l'  noib
 .lib 'test.l' closed

     .op
     .param rr = 1x
     vaci cn opb1 dc = 0 ac = 1
     vopx vop mpx dc = 0

     xib vdd vss  opb1 mpx mpy ibias rin = rr
     xop1 vdd vss mpy cn vop cn cp opnw2

     .ac dec 1000 1 1000g sweep rr dec 1 1k 1x
     .dc rr dec 100 1k 10000k
     .probe dc i(xib.mp) i(xib.rio) rdsp=par('1/(lx8(xib.mp) + lx8(xib.mn))') gmp=par('lx7(xib.mp)')  gainib=par('gmp*rdsp') par'1/lx8(xop1.mr1)'
     + lx2(xop1.mr1) i(xib.eio)
     .probe ac i(xib.rio) rdsp=par('1/(lx8(xib.mp) + lx8(xib.mn))') gmp=par('lx7(xib.mp)')  gainib=par('gmp*rdsp')  i(xib.eio)

     .noise i(xib.eio) vaci

 .endl
 *
 *
 .alter
 $ alter processing continues $


 **warning**  the accurate option increases  the cpu time but the results
                are more accurate.
 ***accurate option sets default value of the options: 
 lvltim= 4         dvdt= 3       relvar= 200.00m absvar= 200.00m
     ft= 200.00m relmos=  10.00m
 (used for FFT control ) fft_accurate= 1
1****** HSPICE -- B-2008.09-SP1 32-BIT (Nov 24 2008) linux ******               
 ******  
 ***current mirror

  ******  circuit name directory
 circuit number to circuit name directory
   number circuitname                     definition         multiplier
        0 main circuit
        1 xcmb.                           cmb_bete5          1.00 
        2 xib.                            ibias              1.00 
        3 xop1.                           opnw2              1.00 
 **warning** could not find branch element     2:rio             
      branch - output ignored
 **warning** could not find branch element     2:rio             
      branch - output ignored
 
      
  Opening plot unit= 15
 file=ImirrorBias.pa1                                                          

  *** initial damped pseudo transient completed. ***
  *** final try started ***
1****** HSPICE -- B-2008.09-SP1 32-BIT (Nov 24 2008) linux ******               
 ******  
 ***current mirror

  ******  operating point information tnom=  25.000 temp=  25.000 *****
 ***** operating point status is all       simulation time is     0.     
    node    =voltage      node    =voltage      node    =voltage

 +0:cn      =   0.6943  0:cp      =   2.2940  0:mpx     =   2.5349 
 +0:mpy     =   0.6941  0:opb1    =   0.6943  0:vdd     =   3.3000 
 +0:vdt     =   2.0000  0:vgt     =   1.5000  0:vop     =   2.5349 
 +0:vss     =   0.      0:vst     =   0.9928  2:io      =   0.6943 
 +2:rx      =   0.2729  3:1       =   2.5569  3:b       =   0.3174 
 +3:cn2     =   0.3539  3:cp2     =   2.3672  3:cr1     =   0.3499 
 +3:cr2     =   2.5205  3:rb      =   1.7283  3:xx      =   2.5569 


 maximum nodal capacitance=   2.708E-13         on node     0:vss             

    nodal  capacitance table 

    node    =    cap      node    =    cap      node    =    cap

 +0:cn      = 1.074e-13 0:cp      = 2.900e-14 0:mpx     = 4.766e-15
 +0:mpy     = 6.563e-14 0:opb1    = 1.330e-14 0:vdd     = 1.891e-13
 +0:vdt     = 5.702e-15 0:vgt     = 7.187e-14 0:vop     = 2.385e-13
 +0:vss     = 2.708e-13 0:vst     = 1.215e-13 2:io      = 1.503e-15
 +2:rx      = 1.909e-14 3:1       = 3.081e-14 3:b       = 1.545e-14
 +3:cn2     = 4.103e-14 3:cp2     = 4.157e-14 3:cr1     = 6.278e-15
 +3:cr2     = 2.266e-14 3:rb      = 1.546e-14 3:xx      = 2.027e-13

 

 ****  voltage sources

 subckt                                                                    
 element  0:vtd      0:vtg      0:vd       0:vs       0:vaci     0:vopx    
  volts      2.0000     1.5000     3.3000     0.         0.         0.     
  current -1.000e-06    0.      -6.112e-06  7.044e-06    0.         0.     
  power    2.000e-06    0.       2.017e-05    0.         0.         0.     

     total voltage source power dissipation=  2.217e-05       watts



 ***** current sources

 subckt                        
 element  0:iin      0:it      
  volts      2.2940     0.9928 
  current  1.000e-06  1.000e-06
  power   -2.294e-06 -9.928e-07


     total current source power dissipation=-3.287e-06       watts

 **** resistors

 subckt   xib       
 element  2:r1      
  r value  1.000e+06
  v drop     0.2729 
  current  2.729e-07
  power    7.448e-08


 **** voltage-controlled voltage sources


 subckt     xib     
 element  2:eio     
  volts      0.6943 
  current  6.822e-08





 **** mosfets


 subckt              xcmb       xcmb       xcmb       xib        xib       
 element  0:mt       1:mc0      1:mc1      1:mc2      2:mp       2:mpb     
 model    0:nch.1    0:pch.2    0:pch.2    0:nch.1    0:pch.6    0:pch.6   
 region     Saturati   Saturati   Saturati   Saturati     Cutoff     Cutoff
  id       1.000e-06 -1.000e-06 -4.598e-06  4.598e-06 -2.729e-07 -6.822e-08
  ibs     -1.600e-18  2.118e-19  9.738e-19 -7.712e-18  5.978e-20  1.494e-20
  ibd     -7.095e-15  1.634e-16  5.561e-11 -5.247e-15  1.081e-11  2.699e-12
  vgs        0.5072    -1.0060    -1.0060     0.6943    -0.7651    -0.7651 
  vds        1.0072    -1.0060    -2.6057     0.6943    -2.6059    -2.6057 
  vbs        0.         0.         0.         0.         0.         0.     
  vth        0.4375    -0.8702    -0.8596     0.4356    -0.8303    -0.8303 
  vdsat      0.1142    -0.1814    -0.1900     0.2567  -6.551e-02 -6.551e-02
  vod      6.972e-02   -0.1358    -0.1464     0.2587   6.517e-02  6.518e-02
  beta     2.039e-04  7.284e-05  2.918e-04  1.383e-04  3.520e-04  8.801e-05
  gam eff    0.4621     0.3947     0.3947     0.4573     0.4029     0.4029 
  gm       1.448e-05  1.047e-05  4.628e-05  3.177e-05  4.881e-06  1.220e-06
  gds      1.956e-08  1.030e-07  3.588e-07  5.536e-08  8.248e-08  2.062e-08
  gmb      4.344e-06  2.277e-06  1.005e-05  9.283e-06  1.072e-06  2.680e-07
  cdtot    5.702e-15  2.598e-15  7.994e-15  4.298e-15  6.010e-15  1.503e-15
  cgtot    7.187e-14  5.280e-15  2.112e-14  6.110e-14  3.813e-15  9.532e-16
  cstot    8.029e-14  8.408e-15  3.363e-14  7.363e-14  1.071e-14  2.677e-15
  cbtot    4.118e-14  7.331e-15  2.692e-14  3.051e-14  1.746e-14  4.364e-15
  cgs      5.595e-14  4.120e-15  1.648e-14  5.238e-14  7.686e-16  1.922e-16
  cgd      1.046e-15  2.837e-16  1.135e-15  7.365e-16  7.686e-16  1.922e-16



 subckt   xib        xop1       xop1       xop1       xop1       xop1      
 element  2:mn       3:mc1      3:mc2      3:mc3      3:m1       3:m2      
 model    0:nch.3    0:pch.4    0:nch.3    0:nch.2    0:nch.1    0:nch.1   
 region       Cutoff   Saturati     Cutoff     Cutoff     Cutoff     Cutoff
  id       2.729e-07 -4.690e-08  4.685e-08  4.687e-08  2.326e-08  2.335e-08
  ibs     -2.116e-14  1.027e-20 -3.673e-14 -8.753e-20 -7.055e-15 -7.055e-15
  ibd     -2.116e-14  1.159e-16 -1.402e-11 -3.438e-15 -5.235e-12 -4.732e-12
  vgs        0.4214    -0.9328     0.3405     0.3539     0.3767     0.3769 
  vds        0.4212    -0.9328     2.0133     0.3539     2.2395     2.2175 
  vbs       -0.2729     0.        -0.3539     0.        -0.3174    -0.3174 
  vth        0.5440    -0.8888     0.5520     0.4524     0.5335     0.5335 
  vdsat    4.510e-02   -0.1105   4.389e-02  4.559e-02  4.456e-02  4.457e-02
  vod       -0.1225  -4.398e-02   -0.2116  -9.855e-02   -0.1568    -0.1566 
  beta     6.649e-03  1.106e-05  1.061e-02  4.027e-04  5.292e-04  5.292e-04
  gam eff    0.5246     0.3553     0.5203     0.4612     0.4538     0.4538 
  gm       7.310e-06  6.367e-07  1.348e-06  1.160e-06  6.022e-07  6.044e-07
  gds      9.617e-08  1.788e-09  1.476e-08  6.853e-09  2.243e-09  2.204e-09
  gmb      1.879e-06  1.478e-07  3.400e-07  3.449e-07  1.591e-07  1.596e-07
  cdtot    1.779e-14  1.987e-15  2.598e-14  2.816e-15  5.059e-15  5.065e-15
  cgtot    1.330e-14  1.361e-14  2.216e-14  3.216e-15  1.184e-14  1.184e-14
  cstot    1.909e-14  1.332e-14  3.178e-14  3.054e-15  6.308e-15  6.308e-15
  cbtot    3.763e-14  1.086e-14  5.929e-14  7.377e-15  1.902e-14  1.903e-14
  cgs      3.138e-15  8.667e-15  5.155e-15  4.270e-16  1.046e-15  1.046e-15
  cgd      3.138e-15  1.922e-16  5.155e-15  4.270e-16  1.046e-15  1.046e-15



 subckt   xop1       xop1       xop1       xop1       xop1       xop1      
 element  3:m3       3:m4       3:mb       3:mr1      3:mcr1     3:mcr4    
 model    0:pch.2    0:pch.2    0:nch.2    0:pch.4    0:pch.2    0:pch.5   
 region       Cutoff     Cutoff     Cutoff     Cutoff     Cutoff     Cutoff
  id      -2.327e-08 -2.336e-08  4.661e-08 -4.925e-18 -3.240e-08 -4.722e-08
  ibs      4.844e-21  4.862e-21 -8.705e-20    0.       6.745e-21  1.034e-20
  ibd      2.059e-16  2.059e-16 -3.438e-15  9.079e-26  1.600e-12  2.318e-16
  vgs       -0.7431    -0.7431     0.3539    -0.8286    -0.7431    -0.7922 
  vds       -0.7431    -0.7651     0.3174  -2.012e-11   -2.9501    -0.7922 
  vbs        0.         0.         0.         0.         0.         0.     
  vth       -0.8669    -0.8667     0.4525    -0.8907    -0.8522    -0.8784 
  vdsat   -5.549e-02 -5.551e-02  4.558e-02 -6.668e-02 -5.755e-02 -6.197e-02
  vod        0.1238     0.1236  -9.863e-02  6.211e-02    0.1091   8.620e-02
  beta     1.033e-04  1.033e-04  4.027e-04  1.114e-05  1.037e-04  9.555e-05
  gam eff    0.3948     0.3948     0.4612     0.3553     0.3948     0.3889 
  gm       4.601e-07  4.617e-07  1.154e-06  6.195e-17  6.270e-07  8.633e-07
  gds      4.008e-09  3.999e-09  7.068e-09  2.448e-07  4.534e-09  6.917e-09
  gmb      1.048e-07  1.052e-07  3.431e-07  1.539e-17  1.427e-07  1.957e-07
  cdtot    3.455e-15  3.436e-15  2.835e-15  2.677e-15  2.396e-15  4.112e-15
  cgtot    2.777e-15  2.777e-15  3.216e-15  6.708e-15  2.777e-15  3.209e-15
  cstot    4.448e-15  4.448e-15  3.054e-15  2.677e-15  4.448e-15  5.353e-15
  cbtot    9.180e-15  9.161e-15  7.396e-15  1.129e-14  8.121e-15  1.114e-14
  cgs      3.751e-16  3.751e-16  4.270e-16  1.922e-16  3.751e-16  3.843e-16
  cgd      3.751e-16  3.751e-16  4.270e-16  1.922e-16  3.751e-16  3.843e-16



 subckt   xop1       xop1       xop1      
 element  3:mcr5     3:mcr2     3:mcr3    
 model    0:pch.2    0:nch.6    0:nch.6   
 region       Cutoff     Cutoff     Cutoff
  id      -4.722e-08  3.240e-08  4.721e-08
  ibs      9.830e-21 -7.347e-20 -1.071e-19
  ibd      2.059e-16 -2.233e-15 -2.017e-12
  vgs       -0.7795     0.3499     0.3499 
  vds       -0.7795     0.3499     1.7283 
  vbs        0.         0.         0.     
  vth       -0.8666     0.4539     0.4474 
  vdsat   -6.151e-02  4.476e-02  4.524e-02
  vod      8.714e-02   -0.1040  -9.744e-02
  beta     1.032e-04  3.748e-04  3.749e-04
