Using: /usr/bin/time -p /usr/cad/synopsys/hspice/cur/hspice/linux/hspice ImirrorBias.sp
 ****** HSPICE -- B-2008.09-SP1 32-BIT (Nov 24 2008) linux ******               
  Copyright (C) 2008 Synopsys, Inc. All Rights Reserved.                        
  Unpublished-rights reserved under US copyright laws.
  This program is protected by law and is subject to the 
  terms and conditions of the license agreement from Synopsys.
  Use of this program is your acceptance to be bound by the 
  license agreement. HSPICE is the trademark of Synopsys, Inc.
  Input File: ImirrorBias.sp                                                    
 lic:  
 lic: FLEXlm: v8.5b 
 lic: USER:   m103061608           HOSTNAME: ws34 
 lic: HOSTID: e41f1366b76c         PID:      2484 
 lic: Using FLEXlm license file: 
 lic: 26585@lsnctu 
 lic: Checkout 1 hspice 
 lic: License/Maintenance for hspice will expire on 14-may-2016/2015.06 
 lic: FLOATING license(s) on SERVER lsnctu 
 lic:   
 Init: read install configuration file: /usr/cad/synopsys/hspice/cur/hspice/meta.cfg
 Init: hspice initialization file: /usr/cad/synopsys/hspice/cur/hspice/hspice.ini
 .option runlvl
 .option post acout=0 accurate=1 dcon=1 converge=1 gmindc=1.0000e-12 captab=1 unwrap=1
 + ingold=1
 *.options node list


 .subckt cmb vdd vss cp cp2 cp3 cp4 cn     *cp = 2.4; cp2 = 1.25; cp3 = 0.6; cp4 = 2.7
 mc0 cp  cp  vdd vdd pch w = 5.1u l = 5u     m = 1
 mc1 c0  cp  vdd vdd pch w = 2u   l = 5u     m = 1
 mc5 c2  cp  vdd vdd pch w = 2u   l = 5u     m = 1
 mc2 cp2 cp2 c0  c0  pch w = 1u   l = 5u     m = 1
 mc6 c3  cp2 c2  c2  pch w = 1u   l = 5u     m = 1
 mc3 cn  cp3 cp2 cp2 pch w = 5u   l = 0.5u   m = 2
 mc7 cp3 cp3 c3  c3  pch w = 5u   l = 0.5u   m = 2
 mc4 cn  cn  vss vss nch w = 1u   l = 3u     m = 1
 mc8 cp3 cn  vss vss nch w = 1u   l = 3u     m = 1

 mca cp4 cp4 vdd vdd pch w = 5u   l = 0.5u   m = 6
 mcb cp4 cn  vss vss nch w = 1u   l = 3u     m = 1
 .ends

 .subckt cmb_beta vdd vss ix 1 2 rr = 60k wx = 1u
 m0 ix  ix  vdd vdd pch w = 5u l = 5u  m = 1
 m1 1   ix   vdd vdd pch w = 5u l = 5u m = 1
 m2 2   ix   vdd vdd pch w = 5u l = 5u m = 1
 m3 1   rx   vss vss nch w = wx  l = 2u m = 1
 m4 2   1   rx  vss nch w = 'wx * 4' l = 2u m = 1
 r1 rx  vss 1000k
 .ends

 .subckt cmb_beta2 vdd vss 1 2 3 4 rr = 60k wx = 1u
 m1 1   1   vdd vdd pch w = 5u l = 5u m = 1
 m2 2   1   vdd vdd pch w = 5u l = 5u m = 1
 m3 1   2   3   vss nch w = wx  l = 1u m = 3
 m4 2   2   4   vss nch w = wx  l = 1u m = 3
 m5 3   3   vss vss nch w = wx  l = 1u m = 4
 m6 4   3   rx  vss nch w = 'wx * 4' l = 1u m = 4
 r1 rx  vss rr
 .ends

 .subckt cmb_beta3 vdd vss ix 1 2 3 4 rr = 60k wx = 1u
 m0 ix  ix  vdd vdd pch w = 5u l = 5u  m = 1
 m1 1   ix  vdd vdd pch w = 5u l = 5u m = 1
 m2 2   ix  vdd vdd pch w = 5u l = 5u m = 1
 m3 3   3   1   1   pch w = 5u l = 5u m = 1
 m4 4   3   2   2   pch w = 5u l = 5u m = 1
 m5 3   4   rx vss nch w = 'wx * 4'  l = 1u m = 1
 m6 4   4   vss vss nch w = wx l = 1u m = 1
 r1 rx  vss rr
 .ends

 .subckt cmb_beta4 vdd vss 1 4 wp = 20u
 m1 1   1   vdd vdd pch w = wp l = 5u m = 1
 m2 2   1   vdd vdd pch w = wp l = 5u m = 1
 m3 3   3   1   1   pch w = wp l = 1u m = 1
 m4 4   3   2   2   pch w = wp l = 1u m = 1
 m5 3   4   rx  vss nch w = '3.5u * 4' l = 5u m = 1
 m6 4   4   vss vss nch w = '3.5u * 1' l = 5u m = 1
 r1 rx vss 25k
 msus1a s0  s1  vdd vdd pch w = 1u l = 5u m = 1
 msus1b s1  s1  s0  s0  pch w = 1u l = 5u m = 1
 msus2  s1  4   vss vss nch w = 3.5u l = 5u m = 1
 msus3  1   s1  4   vss nch w = 1u   l = 1u m = 1
 .ends

 .subckt cmb_bete5 vdd vss cp cn cp2 wp = 5u
 mc0 cp  cp  vdd vdd pch w = 5.1u l = 5u m = 1
 mc1 cn  cp  vdd vdd pch w = 5.1u l = 5u m = 4
 mc2 cn  cn  vss vss nch w = 3.2u  l = 5u m = 1
 ***(366n)
 mc3 cp2 cp2 vdd vdd pch w = 5.1u l = 5u m = 3
 mc4 cp2 cn  1   vss nch w = 1u  l = 5u m = 1
 mc5 1   cn  2   vss nch w = 1u  l = 5u m = 1
 mc6 2   cn vss  vss nch w = 1u  l = 5u m = 1
 .ends

 .subckt ibias vdd vss opb1 mpx mpy rin = 10k
 mp mpy mpx vdd vdd pch w = 5u   l =  1u
 *(id, vgs, gm, rds): (10n, -0.5423, 2.363e-07, 574x); (10u, -0.9871,  7.141e-05, 1.67x)
 mn mpy opb1 rx vss nch w = 3.5u l =  1u m = 5
 r1 rx  vss rin
 .ends

 .subckt opnw vdd vss vinp vinn vop cz
 mb	b	cz	 vdd vdd pch w = 12u  l = 10u  m = 1
 m1	1	vinn b	 b	 pch w = 1u   l = 1u  m = 1
 m2	2	vinp b	 b	 pch w = 1u   l = 1u  m = 1
 m3	1	1	 vss vss nch w = 1u   l = 1u  m = 1
 m4	2	1	 vss vss nch w = 1u   l = 1u    m = 1
 ma1 vop cz vdd vdd pch w =  2u l = 0.5u m = 1
 ma2 vop 2  vss vss nch w =  4u l = 1u m = 2
 .ends

 .subckt opnw2 vdd vss vinp vinn 1 2 opb1
 m1	1	vinp b	 vss nch w = 2u   l = 1u  m = 6
 m2	2	vinn b	 vss nch w = 2u   l = 1u  m = 6
 m3	1	1	 vdd vdd pch w = 2u   l = 1u  m = 1
 m4	2	1	 vdd vdd pch w = 2u   l = 1u  m = 1
 mbx	b	opb1 bx  vss nch w = 1u   l = 5u  m = 1
 mby	bx	opb1 by  vss nch w = 1u   l = 5u  m = 1
 mbz	by	opb1 vss vss nch w = 1u   l = 5u  m = 1
 c1  1 vss 500f
 c2  vinp   2   30f
 .ends

 * vgsi + vdsb = 0.8; 0.8 - vth < vdsb
 * => 0.8 - vth < 0.8 - vgsi -> vth > vgsi




 iin cp  vss dc = 1u
 *iin2 ix vss dc = 1u
 xcmb   vdd vss cp cn cp2 cmb_bete5 wp = 5u
 *xcmb_b vdd vss 1 2 3 4 cmb_beta2 rr = 10k wx = 1u
 *xcmb_c vdd vss ix 1 2 3 4 cmb_beta3 rr = 10k wx = 1u
 *xcmb_d vdd vss cz 4 cmb_beta4 wp = 20u



 *** compensation ***
 *c1  vss mpy 1p
 *r1  mpx xx 25k

 *c2  xx 1   100f
 *r2  mpy xx  100k



 mt vdt vgt vst vst nch w = 5u l = 5u
 vtd vdt gnd dc = 2
 vtg vgt gnd dc = 1.5
 *vts vst gnd dc =
 *vtb vbt gnd
 it vst vss dc = 1u


 .param
 +supplyp	= 3.3
 +supplyn	= 0
 vd		vdd 	gnd dc supplyp
 vs		vss 	gnd dc supplyn







 *.tran 1us 20ms
 *.ic v(1) = 3.3
 **.ic v(4) = 0

 .alter


 **warning**  the accurate option increases  the cpu time but the results
                are more accurate.
 ***accurate option sets default value of the options: 
 lvltim= 4         dvdt= 3       relvar= 200.00m absvar= 200.00m
     ft= 200.00m relmos=  10.00m
 (used for FFT control ) fft_accurate= 1
1****** HSPICE -- B-2008.09-SP1 32-BIT (Nov 24 2008) linux ******               
 ******  
 ***current mirror

  ******  circuit name directory
 circuit number to circuit name directory
   number circuitname                     definition         multiplier
        0 main circuit
        1 xcmb.                           cmb_bete5          1.00 
 

 
      
  Opening plot unit= 15
 file=ImirrorBias.pa0                                                          


          ***** job concluded
1****** HSPICE -- B-2008.09-SP1 32-BIT (Nov 24 2008) linux ******               
 ******  
 ***current mirror

  ******  job statistics summary tnom=  25.000 temp=  25.000 *****

  ******  HSPICE Threads Information  ******
  Command Line Threads Count:                      0
  Available CPU Count:                             8
  Actual Model Evaluation(Load) Threads Count:     1
  Actual Solver Threads Count:                     1


  ******  Circuit Statistics  ******
  # nodes       =      27  # elements   =      14
  # resistors   =       0  # capacitors =       0  # inductors   =       0
  # mutual_inds =       0  # vccs       =       0  # vcvs        =       0
  # cccs        =       0  # ccvs       =       0  # volt_srcs   =       4
  # curr_srcs   =       2  # diodes     =       0  # bjts        =       0
  # jfets       =       0  # mosfets    =       8  # U elements  =       0
  # T elements  =       0  # W elements =       0  # B elements  =       0
  # S elements  =       0  # P elements =       0  # va device   =       0


  ******  Runtime Statistics (seconds)  ******

  analysis           time    # points   tot. iter  conv.iter
  op point           0.00           1           0
  readin             0.05
  errchk             0.01
  setup              0.00
  output             0.00


           total memory used          608  kbytes
           total cpu time            0.06 seconds
           total elapsed time        0.27 seconds
           job started at     17:50:11 03/27/2016
           job ended   at     17:50:11 03/27/2016


1****** HSPICE -- B-2008.09-SP1 32-BIT (Nov 24 2008) linux ******               
 ******  
 

  ******    alter processing listing tnom=  25.000 temp=  25.000 *****
 .lib 'test.l'  noib

     *.op
     .dc wp 1u 20u 0.1u  *sweep rr dec 5 10k 100k
     .ac dec 1000 1 10g
     .probe dc i(xcmb_d.m1) i(xcmb_d.m2)
     vd		vdd 	gnd dc supplyp ac = 1
 .endl


 .alter
 $ alter processing continues $


 **warning**  the accurate option increases  the cpu time but the results
                are more accurate.
 ***accurate option sets default value of the options: 
 lvltim= 4         dvdt= 3       relvar= 200.00m absvar= 200.00m
     ft= 200.00m relmos=  10.00m
 (used for FFT control ) fft_accurate= 1
1****** HSPICE -- B-2008.09-SP1 32-BIT (Nov 24 2008) linux ******               
 ******  
 ***current mirror

  ******  circuit name directory
 circuit number to circuit name directory
   number circuitname                     definition         multiplier
        0 main circuit
        1 xcmb.                           cmb_bete5          1.00 
 **warning** invalid circuit pathname xcmb_d
 **Warning** pathname identification problem
   with output     0:m1               ignored
 **warning** invalid circuit pathname xcmb_d
 **Warning** pathname identification problem
   with output     0:m2               ignored
 
      
  Opening plot unit= 15
 file=ImirrorBias.pa1                                                          

  *** initial damped pseudo transient completed. ***
  *** final try started ***
1****** HSPICE -- B-2008.09-SP1 32-BIT (Nov 24 2008) linux ******               
 ******  
 ***current mirror

  ******  operating point information tnom=  25.000 temp=  25.000 *****
 ***** operating point status is all       simulation time is     0.     
    node    =voltage      node    =voltage      node    =voltage

 +0:cn      =   0.7948  0:cp      =   2.3981  0:cp2     =   2.5599 
 +0:vdd     =   3.3000  0:vdt     =   2.0000  0:vgt     =   1.5000 
 +0:vss     =   0.      0:vst     =   0.8920  1:1       =   0.1090 
 +1:2       = 4.594e-02


 maximum nodal capacitance=   8.272E-13         on node     0:vdd             

    nodal  capacitance table 

    node    =    cap      node    =    cap      node    =    cap

 +0:cn      = 1.526e-13 0:cp      = 4.144e-13 0:cp2     = 9.897e-14
 +0:vdd     = 8.272e-13 0:vdt     = 6.150e-15 0:vgt     = 7.210e-14
 +0:vss     = 1.543e-13 0:vst     = 1.236e-13 1:1       = 4.054e-14
 +1:2       = 4.463e-14

 

 ****  voltage sources

 subckt                                              
 element  0:vtd      0:vtg      0:vd       0:vs      
  volts      2.0000     1.5000     3.3000     0.     
  current -1.000e-06    0.      -5.513e-06  6.513e-06
  power    2.000e-06    0.       1.819e-05    0.     

     total voltage source power dissipation=  2.019e-05       watts



 ***** current sources

 subckt                        
 element  0:iin      0:it      
  volts      2.3981     0.8920 
  current  1.000e-06  1.000e-06
  power   -2.398e-06 -8.920e-07


     total current source power dissipation=-3.290e-06       watts


 **** mosfets


 subckt              xcmb       xcmb       xcmb       xcmb       xcmb      
 element  0:mt       1:mc0      1:mc1      1:mc2      1:mc3      1:mc4     
 model    0:nch.1    0:pch.1    0:pch.1    0:nch.1    0:pch.1    0:nch.4   
 region     Saturati   Saturati   Saturati   Saturati     Cutoff   Saturati
  id       1.000e-06 -1.000e-06 -4.146e-06  4.146e-06 -3.670e-07  3.670e-07
  ibs     -1.600e-18  2.007e-19  8.322e-19 -7.055e-18  7.369e-20 -2.201e-15
  ibd     -7.512e-15  4.849e-16  6.512e-12 -4.885e-15  1.455e-15 -5.167e-11
  vgs        0.6080    -0.9019    -0.9019     0.7948    -0.7401     0.6858 
  vds        1.1080    -0.9019    -2.5052     0.7948    -0.7401     2.4509 
  vbs        0.         0.         0.         0.         0.        -0.1090 
  vth        0.5374    -0.7510    -0.7483     0.5349    -0.7513     0.5510 
  vdsat      0.1148    -0.1900    -0.1922     0.2572  -8.512e-02    0.1547 
  vod      7.061e-02   -0.1509    -0.1536     0.2599   1.116e-02    0.1349 
  beta     2.012e-04  6.562e-05  2.626e-04  1.239e-04  2.005e-04  3.369e-05
  gam eff    0.4621     0.4100     0.4100     0.4558     0.4100     0.4269 
  gm       1.442e-05  9.768e-06  4.010e-05  2.850e-05  5.851e-06  4.174e-06
  gds      1.938e-08  2.701e-08  8.356e-08  4.402e-08  1.427e-08  1.107e-08
  gmb      4.331e-06  2.296e-06  9.424e-06  8.333e-06  1.442e-06  1.139e-06
  cdtot    6.150e-15  6.824e-15  2.084e-14  4.280e-15  2.131e-14  1.485e-15
  cgtot    7.210e-14  8.151e-14  3.260e-13  5.612e-14  7.618e-14  1.878e-14
  cstot    8.133e-14  9.768e-14  3.907e-13  6.789e-14  2.737e-14  2.090e-14
  cbtot    4.229e-14  4.088e-14  1.570e-13  2.887e-14  1.135e-13  1.048e-14
  cgs      5.625e-14  7.023e-14  2.809e-13  4.799e-14  2.827e-15  1.482e-14
  cgd      1.046e-15  9.425e-16  3.770e-15  6.746e-16  2.827e-15  2.207e-16



 subckt   xcmb       xcmb      
 element  1:mc5      1:mc6     
 model    0:nch.4    0:nch.4   
 region       Linear     Linear
  id       3.670e-07  3.670e-07
  ibs     -1.860e-15 -8.320e-19
  ibd     -2.201e-15 -1.859e-15
  vgs        0.7489     0.7948 
  vds      6.304e-02  4.594e-02
  vbs     -4.594e-02    0.     
  vth        0.5346     0.5212 
  vdsat      0.2155     0.2620 
  vod        0.2143     0.2736 
  beta     3.362e-05  3.357e-05
  gam eff    0.4289     0.4304 
  gm       1.968e-06  1.471e-06
  gds      4.789e-06  7.199e-06
  gmb      5.638e-07  4.345e-07
  cdtot    1.965e-14  2.143e-14
  cgtot    2.611e-14  2.649e-14
  cstot    2.320e-14  2.388e-14
  cbtot    1.145e-14  1.170e-14
  cgs      1.369e-14  1.318e-14
  cgd      1.046e-14  1.145e-14




          ***** job concluded
1****** HSPICE -- B-2008.09-SP1 32-BIT (Nov 24 2008) linux ******               
 ******  
 ***current mirror

  ******  job statistics summary tnom=  25.000 temp=  25.000 *****

  ******  HSPICE Threads Information  ******
  Command Line Threads Count:                      0
  Available CPU Count:                             8
  Actual Model Evaluation(Load) Threads Count:     1
  Actual Solver Threads Count:                     1


  ******  Circuit Statistics  ******
  # nodes       =      27  # elements   =      14
  # resistors   =       0  # capacitors =       0  # inductors   =       0
  # mutual_inds =       0  # vccs       =       0  # vcvs        =       0
  # cccs        =       0  # ccvs       =       0  # volt_srcs   =       4
  # curr_srcs   =       2  # diodes     =       0  # bjts        =       0
  # jfets       =       0  # mosfets    =       8  # U elements  =       0
  # T elements  =       0  # W elements =       0  # B elements  =       0
  # S elements  =       0  # P elements =       0  # va device   =       0


  ******  Runtime Statistics (seconds)  ******

  analysis           time    # points   tot. iter  conv.iter
  op point           0.00           1          80
  dc sweep           0.03         191         432
  ac analysis        0.08       10001       10001
  readin             0.01
  errchk             0.00
  setup              0.00
  output             0.00


           total memory used          772  kbytes
           total cpu time            0.12 seconds
           total elapsed time        0.14 seconds
           job started at     17:50:11 03/27/2016
           job ended   at     17:50:11 03/27/2016


1****** HSPICE -- B-2008.09-SP1 32-BIT (Nov 24 2008) linux ******               
 ******  
 

  ******    alter processing listing tnom=  25.000 temp=  25.000 *****
 .del lib 'test.l'  noib
 .lib 'test.l' closed

     .op
     .ac dec 1000 1 10g
     xib vdd vss  opb1 mpx mpy ibias rin = 1k
     xop1 vdd vss mpy opb1 1 vop opb1 opnw2
     vaci cn opb1 dc = 0 ac = 1
     vopx vop mpx dc = 0
     .noise v(mpx) vaci

 .endl
 *
 .alter
 $ alter processing continues $


 **warning**  the accurate option increases  the cpu time but the results
                are more accurate.
 ***accurate option sets default value of the options: 
 lvltim= 4         dvdt= 3       relvar= 200.00m absvar= 200.00m
     ft= 200.00m relmos=  10.00m
 (used for FFT control ) fft_accurate= 1
1****** HSPICE -- B-2008.09-SP1 32-BIT (Nov 24 2008) linux ******               
 ******  
 ***current mirror

  ******  circuit name directory
 circuit number to circuit name directory
   number circuitname                     definition         multiplier
        0 main circuit
        1 xcmb.                           cmb_bete5          1.00 
        2 xib.                            ibias              1.00 
        3 xop1.                           opnw2              1.00 
 
      
  Opening plot unit= 15
 file=ImirrorBias.pa2                                                          

  *** initial damped pseudo transient completed. ***
  *** final try started ***
1****** HSPICE -- B-2008.09-SP1 32-BIT (Nov 24 2008) linux ******               
 ******  
 ***current mirror

  ******  operating point information tnom=  25.000 temp=  25.000 *****
 ***** operating point status is all       simulation time is     0.     
    node    =voltage      node    =voltage      node    =voltage

 +0:1       =   2.5498  0:cn      =   0.7948  0:cp      =   2.3981 
 +0:cp2     =   2.5599  0:mpx     =   1.9371  0:mpy     =   0.7885 
 +0:opb1    =   0.7948  0:vdd     =   3.3000  0:vdt     =   2.0000 
 +0:vgt     =   1.5000  0:vop     =   1.9371  0:vss     =   0.     
 +0:vst     =   0.8920  1:1       =   0.1090  1:2       = 4.594e-02
 +2:rx      = 5.331e-02 3:b       =   0.2838  3:bx      =   0.1060 
 +3:by      = 4.494e-02


 maximum nodal capacitance=   8.948E-13         on node     0:vdd             

    nodal  capacitance table 

    node    =    cap      node    =    cap      node    =    cap

 +0:1       = 5.235e-13 0:cn      = 1.526e-13 0:cp      = 4.144e-13
 +0:cp2     = 9.897e-14 0:mpx     = 1.710e-14 0:mpy     = 7.627e-14
 +0:opb1    = 1.528e-13 0:vdd     = 8.948e-13 0:vdt     = 6.150e-15
 +0:vgt     = 7.210e-14 0:vop     = 4.830e-14 0:vss     = 8.592e-13
 +0:vst     = 1.236e-13 1:1       = 4.054e-14 1:2       = 4.463e-14
 +2:rx      = 9.006e-14 3:b       = 3.934e-14 3:bx      = 4.081e-14
 +3:by      = 4.471e-14

 

 ****  voltage sources

 subckt                                                                    
 element  0:vtd      0:vtg      0:vd       0:vs       0:vaci     0:vopx    
  volts      2.0000     1.5000     3.3000     0.         0.         0.     
  current -1.000e-06    0.      -5.918e-05  6.018e-05    0.         0.     
  power    2.000e-06    0.       1.953e-04    0.         0.         0.     

     total voltage source power dissipation=  1.973e-04       watts



 ***** current sources

 subckt                        
 element  0:iin      0:it      
  volts      2.3981     0.8920 
  current  1.000e-06  1.000e-06
  power   -2.398e-06 -8.920e-07


     total current source power dissipation=-3.290e-06       watts

 **** resistors

 subckt   xib       
 element  2:r1      
  r value  1.000e+03
  v drop   5.331e-02
  current  5.331e-05
  power    2.842e-06



 **** mosfets


 subckt              xcmb       xcmb       xcmb       xcmb       xcmb      
 element  0:mt       1:mc0      1:mc1      1:mc2      1:mc3      1:mc4     
 model    0:nch.1    0:pch.1    0:pch.1    0:nch.1    0:pch.1    0:nch.4   
 region     Saturati   Saturati   Saturati   Saturati     Cutoff   Saturati
  id       1.000e-06 -1.000e-06 -4.146e-06  4.146e-06 -3.670e-07  3.670e-07
  ibs     -1.600e-18  2.007e-19  8.322e-19 -7.055e-18  7.369e-20 -2.201e-15
  ibd     -7.512e-15  4.849e-16  6.512e-12 -4.885e-15  1.455e-15 -5.167e-11
  vgs        0.6080    -0.9019    -0.9019     0.7948    -0.7401     0.6858 
  vds        1.1080    -0.9019    -2.5052     0.7948    -0.7401     2.4509 
  vbs        0.         0.         0.         0.         0.        -0.1090 
  vth        0.5374    -0.7510    -0.7483     0.5349    -0.7513     0.5510 
