Using: /usr/bin/time -p /usr/cad/synopsys/hspice/cur/hspice/linux/hspice ImirrorBias.sp
 ****** HSPICE -- B-2008.09-SP1 32-BIT (Nov 24 2008) linux ******               
  Copyright (C) 2008 Synopsys, Inc. All Rights Reserved.                        
  Unpublished-rights reserved under US copyright laws.
  This program is protected by law and is subject to the 
  terms and conditions of the license agreement from Synopsys.
  Use of this program is your acceptance to be bound by the 
  license agreement. HSPICE is the trademark of Synopsys, Inc.
  Input File: ImirrorBias.sp                                                    
 lic:  
 lic: FLEXlm: v8.5b 
 lic: USER:   m103061608           HOSTNAME: ws34 
 lic: HOSTID: e41f1366b76c         PID:      31922 
 lic: Using FLEXlm license file: 
 lic: 26585@lsnctu 
 lic: Checkout 1 hspice 
 lic: License/Maintenance for hspice will expire on 14-may-2016/2015.06 
 lic: FLOATING license(s) on SERVER lsnctu 
 lic:   
 Init: read install configuration file: /usr/cad/synopsys/hspice/cur/hspice/meta.cfg
 Init: hspice initialization file: /usr/cad/synopsys/hspice/cur/hspice/hspice.ini
 .option runlvl
 .option post acout=0 accurate=1 dcon=1 converge=1 gmindc=1.0000e-12 captab=1 unwrap=1
 + ingold=1

 .subckt cmb vdd vss cp cp2 cp3 cp4 cn     *cp = 2.4; cp2 = 1.25; cp3 = 0.6; cp4 = 2.7
 iin cp  vss dc = 1u
 mc0 cp  cp  vdd vdd pch w = 5.1u l = 5u     m = 1
 mc1 c0  cp  vdd vdd pch w = 2u   l = 5u     m = 1
 mc5 c2  cp  vdd vdd pch w = 2u   l = 5u     m = 1
 mc2 cp2 cp2 c0  c0  pch w = 1u   l = 5u     m = 1
 mc6 c3  cp2 c2  c2  pch w = 1u   l = 5u     m = 1
 mc3 cn  cp3 cp2 cp2 pch w = 5u   l = 0.5u   m = 2
 mc7 cp3 cp3 c3  c3  pch w = 5u   l = 0.5u   m = 2
 mc4 cn  cn  vss vss nch w = 1u   l = 3u     m = 1
 mc8 cp3 cn  vss vss nch w = 1u   l = 3u     m = 1

 mca cp4 cp4 vdd vdd pch w = 5u   l = 0.5u   m = 6
 mcb cp4 cn  vss vss nch w = 1u   l = 3u     m = 1
 .ends

 xcmb vdd vss cp cp2 cp3 cp4 cn cmb

 .param
 +supplyp	= 3.3
 +supplyn	= 0
 vd		vdd 	gnd dc supplyp
 vs		vss 	gnd dc supplyn

 .op
 .end


 **warning**  the accurate option increases  the cpu time but the results
                are more accurate.
 ***accurate option sets default value of the options: 
 lvltim= 4         dvdt= 3       relvar= 200.00m absvar= 200.00m
     ft= 200.00m relmos=  10.00m
 (used for FFT control ) fft_accurate= 1
1****** HSPICE -- B-2008.09-SP1 32-BIT (Nov 24 2008) linux ******               
 ******  
 ***current mirror

  ******  circuit name directory
 circuit number to circuit name directory
   number circuitname                     definition         multiplier
        0 main circuit
        1 xcmb.                           cmb                1.00 
 

 
      
  Opening plot unit= 15
 file=ImirrorBias.pa0                                                          

  *** initial damped pseudo transient completed. ***
  *** final try started ***
1****** HSPICE -- B-2008.09-SP1 32-BIT (Nov 24 2008) linux ******               
 ******  
 ***current mirror

  ******  operating point information tnom=  25.000 temp=  25.000 *****
 ***** operating point status is all       simulation time is     0.     
    node    =voltage      node    =voltage      node    =voltage

 +0:cn      =   0.6064  0:cp      =   2.3981  0:cp2     =   1.2502 
 +0:cp3     =   0.6064  0:cp4     =   2.7014  0:vdd     =   3.3000 
 +0:vss     =   0.      1:c0      =   2.2613  1:c2      =   2.2613 
 +1:c3      =   1.2502 


 maximum nodal capacitance=   4.036E-13         on node     0:vdd             

    nodal  capacitance table 

    node    =    cap      node    =    cap      node    =    cap

 +0:cn      = 4.747e-14 0:cp      = 1.547e-13 0:cp2     = 8.994e-14
 +0:cp3     = 3.179e-14 0:cp4     = 6.878e-14 0:vdd     = 4.036e-13
 +0:vss     = 5.900e-14 1:c0      = 3.454e-14 1:c2      = 3.454e-14
 +1:c3      = 5.241e-14

 

 ****  voltage sources

 subckt                        
 element  0:vd       0:vs      
  volts      3.3000     0.     
  current -1.942e-06  1.942e-06
  power    6.409e-06    0.     

     total voltage source power dissipation=  6.409e-06       watts



 ***** current sources

 subckt   xcmb      
 element  1:iin     
  volts      2.3981 
  current  1.000e-06
  power   -2.398e-06


     total current source power dissipation=-2.398e-06       watts


 **** mosfets


 subckt   xcmb       xcmb       xcmb       xcmb       xcmb       xcmb      
 element  1:mc0      1:mc1      1:mc5      1:mc2      1:mc6      1:mc3     
 model    0:pch.1    0:pch.1    0:pch.1    0:pch.4    0:pch.4    0:pch.3   
 region     Saturati   Saturati   Saturati   Saturati   Saturati     Cutoff
  id      -1.000e-06 -3.065e-07 -3.065e-07 -3.065e-07 -3.065e-07 -3.065e-07
  ibs      2.007e-19  6.380e-20  6.380e-20  6.714e-20  6.714e-20  6.157e-20
  ibd      4.849e-16  2.063e-16  2.063e-16  1.159e-16  1.159e-16  9.518e-16
  vgs       -0.9019    -0.9019    -0.9019    -1.0111    -1.0111    -0.6439 
  vds       -0.9019    -1.0387    -1.0387    -1.0111    -1.0111    -0.6439 
  vbs        0.         0.         0.         0.         0.         0.     
  vth       -0.7510    -0.7681    -0.7681    -0.7887    -0.7887    -0.7340 
  vdsat     -0.1900    -0.1739    -0.1739    -0.2407    -0.2407  -5.522e-02
  vod       -0.1509    -0.1338    -0.1338    -0.2224    -0.2224   9.017e-02
  beta     6.562e-05  2.418e-05  2.418e-05  1.114e-05  1.114e-05  1.043e-03
  gam eff    0.4100     0.3885     0.3885     0.3553     0.3553     0.4292 
  gm       9.768e-06  3.166e-06  3.166e-06  2.307e-06  2.307e-06  6.589e-06
  gds      2.701e-08  9.437e-09  9.437e-09  7.985e-09  7.985e-09  1.469e-07
  gmb      2.296e-06  7.308e-07  7.308e-07  5.103e-07  5.103e-07  1.459e-06
  cdtot    6.824e-15  2.960e-15  2.960e-15  1.792e-15  1.792e-15  1.431e-14
  cgtot    8.151e-14  3.320e-14  3.320e-14  1.876e-14  1.876e-14  7.863e-15
  cstot    9.768e-14  3.830e-14  3.830e-14  2.092e-14  2.092e-14  1.792e-14
  cbtot    4.088e-14  1.793e-14  1.793e-14  1.066e-14  1.066e-14  3.270e-14
  cgs      7.023e-14  2.736e-14  2.736e-14  1.496e-14  1.496e-14  1.848e-15
  cgd      9.425e-16  3.751e-16  3.751e-16  1.922e-16  1.922e-16  1.848e-15



 subckt   xcmb       xcmb       xcmb       xcmb       xcmb      
 element  1:mc7      1:mc4      1:mc8      1:mca      1:mcb     
 model    0:pch.3    0:nch.4    0:nch.4    0:pch.3    0:nch.4   
 region       Cutoff   Saturati   Saturati     Cutoff   Saturati
  id      -3.065e-07  3.065e-07  3.065e-07 -3.291e-07  3.288e-07
  ibs      6.157e-20 -6.949e-19 -6.949e-19  6.610e-20 -7.455e-19
  ibd      9.518e-16 -2.233e-15 -2.233e-15  2.855e-15 -2.353e-10
  vgs       -0.6439     0.6064     0.6064    -0.5986     0.6064 
  vds       -0.6439     0.6064     0.6064    -0.5986     2.7014 
  vbs        0.         0.         0.         0.         0.     
  vth       -0.7340     0.5233     0.5233    -0.7349     0.5213 
  vdsat   -5.522e-02    0.1155     0.1155  -4.989e-02    0.1167 
  vod      9.017e-02  8.310e-02  8.310e-02    0.1363   8.503e-02
  beta     1.043e-03  5.691e-05  5.691e-05  3.131e-03  5.692e-05
  gam eff    0.4292     0.4314     0.4314     0.4292     0.4314 
  gm       6.589e-06  4.426e-06  4.426e-06  7.529e-06  4.661e-06
  gds      1.469e-07  8.222e-09  8.222e-09  1.678e-07  2.854e-08
  gmb      1.459e-06  1.268e-06  1.268e-06  1.697e-06  1.336e-06
  cdtot    1.431e-14  1.754e-15  1.754e-15  4.348e-14  1.474e-15
  cgtot    7.863e-15  1.047e-14  1.047e-14  2.383e-14  1.047e-14
  cstot    1.792e-14  1.187e-14  1.187e-14  5.375e-14  1.187e-14
  cbtot    3.270e-14  7.895e-15  7.895e-15  9.889e-14  7.615e-15
  cgs      1.848e-15  7.702e-15  7.702e-15  5.545e-15  7.702e-15
  cgd      1.848e-15  2.207e-16  2.207e-16  5.545e-15  2.207e-16




          ***** job concluded
1****** HSPICE -- B-2008.09-SP1 32-BIT (Nov 24 2008) linux ******               
 ******  
 ***current mirror

  ******  job statistics summary tnom=  25.000 temp=  25.000 *****

  ******  HSPICE Threads Information  ******
  Command Line Threads Count:                      0
  Available CPU Count:                             8
  Actual Model Evaluation(Load) Threads Count:     1
  Actual Solver Threads Count:                     1


  ******  Circuit Statistics  ******
  # nodes       =      33  # elements   =      14
  # resistors   =       0  # capacitors =       0  # inductors   =       0
  # mutual_inds =       0  # vccs       =       0  # vcvs        =       0
  # cccs        =       0  # ccvs       =       0  # volt_srcs   =       2
  # curr_srcs   =       1  # diodes     =       0  # bjts        =       0
  # jfets       =       0  # mosfets    =      11  # U elements  =       0
  # T elements  =       0  # W elements =       0  # B elements  =       0
  # S elements  =       0  # P elements =       0  # va device   =       0


  ******  Runtime Statistics (seconds)  ******

  analysis           time    # points   tot. iter  conv.iter
  op point           0.01           1          71
  readin             0.04
  errchk             0.00
  setup              0.00
  output             0.00


           total memory used          347  kbytes
           total cpu time            0.05 seconds
           total elapsed time        0.19 seconds
           job started at     17:50:43 03/16/2016
           job ended   at     17:50:43 03/16/2016


 Init: hspice initialization file: /usr/cad/synopsys/hspice/cur/hspice/hspice.ini
 lic: Release hspice token(s) 
