Using: /usr/bin/time -p /usr/cad/synopsys/hspice/cur/hspice/linux/hspice current.sp
 ****** HSPICE -- B-2008.09-SP1 32-BIT (Nov 24 2008) linux ******               
  Copyright (C) 2008 Synopsys, Inc. All Rights Reserved.                        
  Unpublished-rights reserved under US copyright laws.
  This program is protected by law and is subject to the 
  terms and conditions of the license agreement from Synopsys.
  Use of this program is your acceptance to be bound by the 
  license agreement. HSPICE is the trademark of Synopsys, Inc.
  Input File: current.sp                                                        
 lic:  
 lic: FLEXlm: v8.5b 
 lic: USER:   m103061608           HOSTNAME: ws40 
 lic: HOSTID: 5cf3fcb5ecc4         PID:      16293 
 lic: Using FLEXlm license file: 
 lic: 26585@lsnctu 
 lic: Checkout 1 hspice 
 lic: License/Maintenance for hspice will expire on 14-may-2016/2015.06 
 lic: FLOATING license(s) on SERVER lsnctu 
 lic:   
 Init: read install configuration file: /usr/cad/synopsys/hspice/cur/hspice/meta.cfg
 Init: hspice initialization file: /usr/cad/synopsys/hspice/cur/hspice/hspice.ini
 .option runlvl
 .options abstol=1e-7 reltol=1e-7
 + post=1 captab=1 accurate=1 ingold=1
 ***netlist***

 .param wp = 10u
 + lp = 0.4u
 + wn = 3u
 + ln = 0.4u
 mp vdp vgp vsp vsp pch w = wp l = lp m = 1
 mn vdn vgn vsn vsn nch w = wn l = ln m = 1

 vps vsp gnd dc = 3.3
 vpd vdp gnd dc = 1.3
 vpg vgp gnd dc = 0.7
 vns vsn gnd dc = 0
 vnd vdn gnd dc = 1
 vng vgn gnd dc = 0.7

 mt vdt vgt vst vst pch w = wp l = lp m = 1

 vts vst gnd dc = 0
 vtd vdt gnd dc = 1
 vtg vgt gnd dc = 0.8

 ***

 .op

 .dc vtd 2 0 0.01
 *sweep vs 0.5v 1.4v 0.3v
 .probe dc par('1/lx8(mp)') par('-i(mp)') par('v(vdp)-v(vgp)') i(mt) i(mp) i(mn)
 *.print dc par('1/lx8(mp)') par('-i(mp)')
 .end


 **warning**  the accurate option increases  the cpu time but the results
                are more accurate.
 ***accurate option sets default value of the options: 
 lvltim= 4         dvdt= 3       relvar= 200.00m absvar= 200.00m
     ft= 200.00m relmos=  10.00m
 (used for FFT control ) fft_accurate= 1
 

 
      
1****** HSPICE -- B-2008.09-SP1 32-BIT (Nov 24 2008) linux ******               
 ******  
 *drain source conductance

  ******  operating point information tnom=  25.000 temp=  25.000 *****
 ***** operating point status is all       simulation time is     0.     
    node    =voltage      node    =voltage      node    =voltage

 +0:vdn     =   1.0000  0:vdp     =   1.3000  0:vdt     =   1.0000 
 +0:vgn     =   0.7000  0:vgp     =   0.7000  0:vgt     =   0.8000 
 +0:vsn     =   0.      0:vsp     =   3.3000  0:vst     =   0.     


 maximum nodal capacitance=   7.036E-14         on node     0:vst             

    nodal  capacitance table 

    node    =    cap      node    =    cap      node    =    cap

 +0:vdn     = 3.947e-15 0:vdp     = 1.046e-14 0:vdt     = 2.483e-14
 +0:vgn     = 4.748e-15 0:vgp     = 1.435e-14 0:vgt     = 1.870e-14
 +0:vsn     = 1.748e-14 0:vsp     = 5.632e-14 0:vst     = 7.036e-14

 

 ****  voltage sources

 subckt                                                                    
 element  0:vps      0:vpd      0:vpg      0:vns      0:vnd      0:vng     
  volts      3.3000     1.3000     0.7000     0.         1.0000     0.7000 
  current -1.367e-03  1.367e-03    0.       1.612e-05 -1.612e-05    0.     
  power    4.510e-03 -1.777e-03    0.         0.       1.612e-05    0.     

 subckt                                   
 element  0:vts      0:vtd      0:vtg     
  volts      0.         1.0000     0.8000 
  current  5.364e-06 -5.364e-06    0.     
  power      0.       5.364e-06    0.     

     total voltage source power dissipation=  2.755e-03       watts




 **** mosfets


 subckt                                   
 element  0:mp       0:mn       0:mt      
 model    0:pch.3    0:nch.3    0:pch.3   
 region     Saturati   Saturati     Cutoff
  id      -1.367e-03  1.612e-05  6.198e-10
  ibs      2.349e-16 -2.766e-17  1.025e-19
  ibd      9.259e-16 -8.296e-15 -5.364e-06
  vgs       -2.6000     0.7000     0.8000 
  vds       -2.0000     1.0000     1.0000 
  vbs        0.         0.         0.     
  vth       -0.6792     0.5638    -0.5732 
  vdsat     -1.4974     0.1397  -4.094e-02
  vod       -1.9208     0.1362     1.3732 
  beta     9.110e-04  1.617e-03  1.321e-03
  gam eff    0.4627     0.5474     0.4506 
  gm       9.864e-04  1.973e-04  1.350e-08
  gds      1.425e-04  2.912e-06  3.953e-10
  gmb      2.176e-04  5.266e-05  1.564e-09
  cdtot    1.046e-14  3.947e-15  2.483e-14
  cgtot    1.435e-14  4.748e-15  1.870e-14
  cstot    2.932e-14  8.635e-15  1.709e-14
  cbtot    2.700e-14  8.850e-15  5.327e-14
  cgs      1.170e-14  3.535e-15  1.839e-15
  cgd      1.839e-15  6.333e-16  1.839e-15




          ***** job concluded
1****** HSPICE -- B-2008.09-SP1 32-BIT (Nov 24 2008) linux ******               
 ******  
 *drain source conductance

  ******  job statistics summary tnom=  25.000 temp=  25.000 *****

  ******  HSPICE Threads Information  ******
  Command Line Threads Count:                      0
  Available CPU Count:                             8
  Actual Model Evaluation(Load) Threads Count:     1
  Actual Solver Threads Count:                     1


  ******  Circuit Statistics  ******
  # nodes       =      19  # elements   =      15
  # resistors   =       0  # capacitors =       0  # inductors   =       0
  # mutual_inds =       0  # vccs       =       0  # vcvs        =       0
  # cccs        =       0  # ccvs       =       0  # volt_srcs   =      12
  # curr_srcs   =       0  # diodes     =       0  # bjts        =       0
  # jfets       =       0  # mosfets    =       3  # U elements  =       0
  # T elements  =       0  # W elements =       0  # B elements  =       0
  # S elements  =       0  # P elements =       0  # va device   =       0


  ******  Runtime Statistics (seconds)  ******

  analysis           time    # points   tot. iter  conv.iter
  op point           0.00           1           4
  dc sweep           0.00         201         404
  readin             0.03
  errchk             0.01
  setup              0.00
  output             0.00


           total memory used          202  kbytes
           total cpu time            0.04 seconds
           total elapsed time        0.21 seconds
           job started at     17:21:29 12/19/2015
           job ended   at     17:21:29 12/19/2015


 Init: hspice initialization file: /usr/cad/synopsys/hspice/cur/hspice/hspice.ini
 lic: Release hspice token(s) 
