 ****** HSPICE -- B-2008.09 32-BIT (Aug 26 2008) winnt ******                   
  Copyright (C) 2008 Synopsys, Inc. All Rights Reserved.                        
  Unpublished-rights reserved under US copyright laws.
  This program is protected by law and is subject to the 
  terms and conditions of the license agreement from Synopsys.
  Use of this program is your acceptance to be bound by the 
  license agreement. HSPICE is the trademark of Synopsys, Inc.
  Input File: c:\users\timer\documents\github\hspice\035lib\sizeandcurrent\curre
 Init: read install configuration file: C:\synopsys\Hspice_B-2008.09\meta.cfg
 Init: hspice initialization file: C:\synopsys\Hspice_B-2008.09\hspice.ini




 .options abstol=1e-7 reltol=1e-7
 + post=1 captab accurate=1 ingold=1
 ***netlist***

 .param wx = 1.1u
 + lx = 0.4u
 *mp  vdp vgp vsp vsp pch w = wx l = lx m = 1  * (id, w/l, m, vds, vgs)=(1.040, 20u/1u, 1, 1.3, 0.7)
 *mp vss vbp vdp vdp pch w = wx l = lx m = 1  * (id, w/l, m, vds, vgs)=(1.035u, 21u/1u, 1, 0.9, 0.7)
 *mp  vdp vgp vsp vsp pch w = wx l = lx m = 1  * (id, w/l, m, vds, vgs)=(507n, 2.9/0.4u, 1, 1.2, 0.7)
 *mp  vdp vgp vsp vsp pch w = wx l = lx m = 1  * (id, w/l, m, vds, vgs)=(504n, 3.2u/0.4u, 1, 1, 0.7)
 *mp vdp vbp vdp vdp pch w = wx l = lx m = 2  * (id, w/l, m, vds, vgs)=(496.8n, 2u/0.4u, 2, 0.7, 0.7)
 *mp  vdp vgp vsp vsp pch w = wx l = lx m = 3  * (id, w/l, m, vds, vgs)=(493.8n, 15u/0.4u, 3, 0.3, 0.6)
 *mp  vdp vgp vsp vsp pch w = wx l = lx m = 2  * (id, w/l, m, vds, vgs)=(297n, 21u/1u, 2, 1.3, 0.6)
 *mp  vdp vgp vsp vsp pch w = wx l = lx m = 1  * (id, w/l, m, vds, vgs)=(146.4n, 1.4u/0.4u, 1, , 0.2, 0.6)
 *mp  vdp vgp vsp vsp pch w = wx l = lx m = 1  * (id, w/l, m, vds, vgs)=(145.3n, 5u/0.4u, 1, , 1.3, 0.5)
 *mp  vdp vgp vsp vsp pch w = wx l = lx m = 1  * (id, w/l, m, vds, vgs)=(148.7n, 4.7u/0.4u, 1, , 1.4, 0.5)
 *mp  vdp vgp vsp vsp pch w = wx l = lx m = 1  * (id, w/l, m, vds, vgs)=(148.7n, 4.7u/0.4u, 1, , 1.3, 0.6)
 *mp  vdp vgp vsp vsp pch w = wx l = lx m = 1  * (id, w/l, m, vds, vgs)=(148.7n, 4.7u/0.4u, 1, , 1.4, 0.5)
 *mp  vdp vgp vsp vsp pch w = wx l = lx m = 1  * (id, w/l, m, vds, vgs)=(1.074, 10u/0.4u, 1, , 0.2, 0.6)
 *mp  vdp vgp vsp vsp pch w = wx l = lx m = 1  * (id, w/l, m, vds, vgs)=(1.028, 8u/0.4u, 1, , 0.4, 0.6)

 *mn  vgn vgn vsn vsn nch w = wx l = lx m = 2  * (id, w/l, m, vds, vgs)=(495.2n, 2.7u/0.4u, 2, 0.5, 0.5)
 *mn  vgn vgn vsn vsn nch w = wx l = lx m = 1  * (id, w/l, m, vds, vgs)=(147.4n, 1.6u/0.4u, 1, 0.4, 0.4)
 *mn  vgn vgn vsn vsn nch w = wx l = lx m = 1  * (id, w/l, m, vds, vgs)=(147.4n, 1.6u/0.4u, 1, 0.4, 0.4)
 mn  vgn vgn vsn vsn nch w = wx l = lx m = 6  * (id, w/l, m, vds, vgs)=(601.2, 13u/1u, 1, 0.6, 0.6)

 *mn  vdn vgn vsn vsn nch w = wx l = lx m = 1  * (id, w/l, m, vds, vgs)=(910.4, 13u/1u, 1, 2.7, 0.4)


 vpd vdp gnd dc = 2.7
 vps vsp gnd dc = 3.1
 vpg vgp gnd dc = 2.5
 vnd vdn gnd dc = 0.4
 vns vsn gnd dc = 0
 vng vgn gnd dc = 0.4

 ***
 .op
 .dc wx 0.4u 3u 0.1u
 .probe dc par('1/lx8(mp)') par('-i(mp)') par('v(vdd)-v(vbp)') i(mn) i(mp)
 *.print dc par('1/lx8(mp)') par('-i(mp)')
 .end


 **warning**  the accurate option increases  the cpu time but the results
                are more accurate.
 ***accurate option sets default value of the options: 
 lvltim= 4         dvdt= 3       relvar= 200.00m absvar= 200.00m
     ft= 200.00m relmos=  10.00m
 (used for FFT control ) fft_accurate= 1
 

 **warning** could not find branch element     0:mp              
      branch - output ignored
 **warning** could not find branch element     0:mp              
      branch - output ignored
 **warning**  attempt to reference undefined node     0:vdd             
  in the definition of v(vdd,0)
   branch - output ignored

 **warning**  attempt to reference undefined node     0:vbp             
  in the definition of v(vbp,0)
   branch - output ignored

 

 **warning** the following singular supplies were terminated to 1 meg resistor 
   supply       node1            node2
  vnd                     0:vdn              defined in subckt 0                     0:0                defined in subckt 0               
  vpd                     0:vdp              defined in subckt 0                     0:0                defined in subckt 0               
  vpg                     0:vgp              defined in subckt 0                     0:0                defined in subckt 0               
  vps                     0:vsp              defined in subckt 0                     0:0                defined in subckt 0               
      

 **warning** zero value is used for the non-existance
             output variable in the expression.
             you may have output variables with
             a long path name.
1****** HSPICE -- B-2008.09 32-BIT (Aug 26 2008) winnt ******                   
 ******  
 *current

  ******  operating point information tnom=  25.000 temp=  25.000 *****
 ***** operating point status is all       simulation time is     0.     
    node    =voltage      node    =voltage      node    =voltage

 +0:vdn     =   0.4000  0:vdp     =   2.7000  0:vgn     =   0.4000 
 +0:vgp     =   2.5000  0:vsn     =   0.      0:vsp     =   3.1000 


 maximum nodal capacitance=   3.507E-14         on node     0:vsn             

    nodal  capacitance table 

    node    =    cap      node    =    cap      node    =    cap

 +0:vdn     =   0.      0:vdp     =   0.      0:vgn     = 1.682e-14
 +0:vgp     =   0.      0:vsn     = 3.507e-14 0:vsp     =   0.     

 

 ****  voltage sources

 subckt                                                                    
 element  0:vpd      0:vps      0:vpg      0:vnd      0:vns      0:vng     
  volts      2.7000     3.1000     2.5000     0.4000     0.         0.4000 
  current -2.700e-06 -3.100e-06 -2.500e-06 -4.000e-07  5.903e-07 -5.903e-07
  power    7.290e-06  9.610e-06  6.250e-06  1.600e-07    0.       2.361e-07

     total voltage source power dissipation=  2.355e-05       watts




 **** mosfets


 subckt             
 element  0:mn      
 model    0:nch.6   
 region       Cutoff
  id       5.903e-07
  ibs     -1.276e-18
  ibd     -1.455e-14
  vgs        0.4000 
  vds        0.4000 
  vbs        0.     
  vth        0.4650 
  vdsat    4.582e-02
  vod     -6.499e-02
  beta     3.911e-03
  gam eff    0.5179 
  gm       1.542e-05
  gds      2.928e-07
  gmb      4.094e-06
  cdtot    1.086e-14
  cgtot    5.959e-15
  cstot    1.187e-14
  cbtot    2.320e-14
  cgs      1.370e-15
  cgd      1.370e-15




          ***** job concluded
1****** HSPICE -- B-2008.09 32-BIT (Aug 26 2008) winnt ******                   
 ******  
 *current

  ******  job statistics summary tnom=  25.000 temp=  25.000 *****

  ******  HSPICE Threads Information  ******
  Command Line Threads Count:                      0
  Available CPU Count:                             4
  Actual Model Evaluation(Load) Threads Count:     1
  Actual Solver Threads Count:                     1


  ******  Circuit Statistics  ******
  # nodes       =      10  # elements   =      12
  # resistors   =       4  # capacitors =       0  # inductors   =       0
  # mutual_inds =       0  # vccs       =       0  # vcvs        =       0
  # cccs        =       0  # ccvs       =       0  # volt_srcs   =       7
  # curr_srcs   =       0  # diodes     =       0  # bjts        =       0
  # jfets       =       0  # mosfets    =       1  # U elements  =       0
  # T elements  =       0  # W elements =       0  # B elements  =       0
  # S elements  =       0  # P elements =       0  # va device   =       0


  ******  Runtime Statistics (seconds)  ******

  analysis           time    # points   tot. iter  conv.iter
  op point           0.01           1           4
  dc sweep           0.04          27          56
  readin             0.12
  errchk             0.02
  setup              0.04
  output             0.00


           total memory used          197  kbytes
           total cpu time            0.28 seconds
           total elapsed time           1 seconds
           job started at     18:18:36 12/25/2015
           job ended   at     18:18:36 12/25/2015


 Init: hspice initialization file: C:\synopsys\Hspice_B-2008.09\hspice.ini
