Using: /usr/bin/time -p /usr/cad/synopsys/hspice/cur/hspice/linux/hspice folded.sp
 ****** HSPICE -- B-2008.09-SP1 32-BIT (Nov 24 2008) linux ******               
  Copyright (C) 2008 Synopsys, Inc. All Rights Reserved.                        
  Unpublished-rights reserved under US copyright laws.
  This program is protected by law and is subject to the 
  terms and conditions of the license agreement from Synopsys.
  Use of this program is your acceptance to be bound by the 
  license agreement. HSPICE is the trademark of Synopsys, Inc.
  Input File: folded.sp                                                         
 lic:  
 lic: FLEXlm: v8.5b 
 lic: USER:   m103061608           HOSTNAME: ws34 
 lic: HOSTID: e41f1366b76c         PID:      15776 
 lic: Using FLEXlm license file: 
 lic: 26585@lsnctu 
 lic: Checkout 1 hspice 
 lic: License/Maintenance for hspice will expire on 14-may-2016/2015.06 
 lic: FLOATING license(s) on SERVER lsnctu 
 lic:   
 Init: read install configuration file: /usr/cad/synopsys/hspice/cur/hspice/meta.cfg
 Init: hspice initialization file: /usr/cad/synopsys/hspice/cur/hspice/hspice.ini
 .option runlvl
 .option post acout=0 accurate=1 dcon=1 converge=1 gmindc=1.0000e-12 captab=1 unwrap=1
 + ingold=1

 ***param***
 .param
 +comon		= 2
 +bias       = 2.4
 +bias1		= 1.3
 +bias2		= 0.6
 +supplyp	= 3.3
 +supplyn	= 0
 +diff			= 0
 ***netlist***

 *.subckt op_fc vdd vss vinp vinn vop cp cp2 cn
 ****input stage***
 *mn	1	vinn b	 b	 nch w = 3u   l = 1u  m = 2
 *mp	2	vinp b	 b	 nch w = 3u   l = 1u  m = 2
 *mb1	b	cn	 01  vss nch w = 1u   l = 4u  m = 2
 *mb2	01	cn	 02  vss nch w = 1u   l = 4u  m = 2
 *mb3	02	cn	 vss vss nch w = 1u   l = 4u  m = 2
 ****output stage***
 *m1  1   cp2 vdd vdd pch w = 3u   l = 2u  m = 3
 *m2  2   cp2 vdd vdd pch w = 3u   l = 2u  m = 3
 *m3	von cp	1   1   pch w = 5u   l = 1u  m = 2      * gm*rds = 50 (id = 200n)
 *m4	vop	cp	2   2   pch w = 5u   l = 1u  m = 2
 *m5  von	cn  5   vss nch w = 5u   l = 1u  m = 2
 *m6  vop	cn  6   vss nch w = 5u   l = 1u  m = 2
 *m7  5   von vss vss nch w = 3u   l = 5u  m = 1
 *m8  6   von vss vss nch w = 3u   l = 5u  m = 1
 *.ends
 .subckt op_fc vdd vss vinp vinn vop cp cn
 ***input stage***
 mn	1	vinn b	 vss	 nch w = 3u   l = 5u  m = 2
 mp	2	vinp b	 vss	 nch w = 3u   l = 5u  m = 2
 mb 	b	cn2	 vss  vss nch w = 5u   l = 1u  m = 4
 ***output stage***
 m1  1   cp2 vdd vdd pch w = 1u   l = 5u m = 2
 m2  2   cp2 vdd vdd pch w = 1u   l = 5u m = 2
 m3	von cp	1   1   pch w = 2u   l = 1u  m = 1      * gm*rds = 50 (id = 200n)
 m4	vop	cp	2   2   pch w = 2u   l = 1u  m = 1
 m5  von	cn  5   vss nch w = 2u   l = 1u  m = 1
 m6  vop	cn  6   vss nch w = 2u   l = 1u  m = 1
 m7  5   von vss vss nch w = 3u   l = 5u  m = 1
 m8  6   von vss vss nch w = 3u   l = 5u  m = 1
 mc1 cp2 cp2 vdd vdd pch w = 1u   l = 5u m = 1
 mc2 cp2 cn  cn2 cn2 nch w = 3.5u l = 1u   m = 3
 mc3 cn2 cn2 vss vss nch w = 5u   l = 1u m = 2
 .ends



 *mc4 2 cp3 vdd vdd pch w = 5u l = 0.5u m = 1
 *mc5 3 cp  2   2   pch w = 5u l = 0.5u m = 1
 *mc6	3 cn  cn2 vss nch w = 3.5u l = 1u  m = 1
 *mc7	cn2 cn2 vss vss nch w = 3.5u l = 5u  m = 1


 .subckt op vdd vss vinp vinn 2 cz
 mb	b	cz	 vdd vdd pch w = 6u  l = 5u  m = 1
 m1	1	vinn b	 b	 pch w = 1u   l = 5u  m = 1
 m2	2	vinp b	 b	 pch w = 1u   l = 5u  m = 1
 m3	1	1	 vss vss nch w = 1u   l = 1u    m = 1
 m4	2	1	 vss vss nch w = 1u   l = 1u    m = 1
 .ends
 ******
 ***current mirror***

 *.subckt cmb_bete5 vdd vss cp cn cp2
 *iin cp  vss dc = 1u
 *mc0 cp  cp  vdd vdd pch w = 5.1u l = 5u m = 1
 *mc1 cn  cp  vdd vdd pch w = 5.1u l = 5u m = 4
 *mc2 cn  cn  vss vss nch w = 3.2u  l = 5u m = 1
 ****(366n)
 *mc3 cp2 cp2 vdd vdd pch w = 5.1u l = 5u m = 3
 *mc4 cp2 cn  1   vss nch w = 1u  l = 5u m = 1
 *mc5 1   cn  2   vss nch w = 1u  l = 5u m = 1
 *mc6 2   cn vss  vss nch w = 1u  l = 5u m = 1
 *r1  rx  vss 25k
 *.ends
 .subckt cmb_bete5 vdd vss cp cn cp2 wp = 5u
 iin cp  vss dc = 1u
 mc0 cp  cp  vdd vdd pch w = 1.5u l = 1u m = 1
 mc1 cn  cp  vdd vdd pch w = 1.5u l = 1u m = 4
 mc2 cn  cn  vss vss nch w = 3.5u  l = 5u m = 1

 .ends

 *vcp2 cp2 gnd dc = 2.5454



 xcmb   vdd vss cp cn cp2 cmb_bete5


 xop    vdd vss vinp vinn vop cp cn  op_fc




 ***source***
 vd		vdd 	gnd dc supplyp
 vs		vss 	gnd dc supplyn
 vb0		b0		gnd dc bias
 vb1		b1		gnd dc bias1
 vb2		b2		gnd dc bias2

 ***input***
 vinp vinp gnd dc = 'comon+diff' ac = 1
 vinn vinn gnd dc = 'comon-diff' *ac = 1 180

 ***test***
 mt vdt vgt vst vst nch w = 5u l = 1u m = 1
 *vtd vdt gnd dc =
 vtg vgt cp2  dc = 1.7441
 vts vst gnd dc = 0
 *vtb vbt gnd
 it vdd vdt dc = 200n
 *im3,4 : 2.352e-07

 *.dc it 0n 300n 1n

 ***open loop wi loading test***


 ***cloase loop feedback test***



 ****mos resistor***




 .op

 ***sweep***
 .dc diff -0.01 0.01 0.00001

 ***probe&measuring***
 .ac dec 1000 0.1 1g
 *.tf v(voa) vinp
 *.pz v(2) vinp
 .probe dc i(m1) i(m2)	i(mt)
 .probe ac cap(von)
 +gain1st=par('vdb(2)-vdb(vinp,vinn)')	par('i(m1)-i(m2)')	phase1st=par('vp(2)')
 +nf(xop.mn) nf(xop.m1) nf(xop.m3) nf(xop.m5) nf(xop.m7)
 *+gainall=par('vdb(vop)-vdb(vinp,vinn)')		phaseall=par('vp(vop)')
 *.meas ac gain max par('vdb(vop)-vdb(vinp,vinn)')
 .meas ac gain1st max par('vdb(2, 1)-vdb(vinp,vinn)')
 *.meas ac zerodb when par('vdb(vop)-vdb(vinp,vinn)') = 0
 *.meas ac phaseatdb	find par('vp(vop)') when par('vdb(vop)-vdb(vinp,vinn)') = 0

 .noise v(vop) vinp 100

 *.alter
 *.protect
 *.lib 'mm0355v.l' ff
 *.unprotect
 *.alter
 *.protect
 *.lib 'mm0355v.l' ss
 *.unprotect

 *xop vdd vss vinp vinn vop cp cp2 cn op_fc
 *.alter
 *xop vdd vss vinp vinn vop cn op

 .end


 **warning**  the accurate option increases  the cpu time but the results
                are more accurate.
 ***accurate option sets default value of the options: 
 lvltim= 4         dvdt= 3       relvar= 200.00m absvar= 200.00m
     ft= 200.00m relmos=  10.00m
 (used for FFT control ) fft_accurate= 1
1****** HSPICE -- B-2008.09-SP1 32-BIT (Nov 24 2008) linux ******               
 ******  
 ***myop_2stage_aboveth

  ******  circuit name directory
 circuit number to circuit name directory
   number circuitname                     definition         multiplier
        0 main circuit
        1 xcmb.                           cmb_bete5          1.00 
        2 xop.                            op_fc              1.00 
 

 **warning** could not find branch element     0:m1              
      branch - output ignored
 **warning** could not find branch element     0:m2              
      branch - output ignored
 **warning**  attempt to reference undefined node     0:von             
  in the definition of cap(von,0)
   branch - output ignored

 **warning**  attempt to reference undefined node     0:2               
  in the definition of vdb(2,0)
   branch - output ignored

 **warning** could not find branch element     0:m1              
      branch - output ignored
 **warning** could not find branch element     0:m2              
      branch - output ignored
 **warning**  attempt to reference undefined node     0:2               
  in the definition of vp(2,0)
   branch - output ignored

 **warning**  attempt to reference undefined node     0:2               
  in the definition of vdb(2,1)
   branch - output ignored

 **warning** print/plot=out0         of analysis=ac  
 contains unused outputs
 this entire output statement is ignored

 
 **warning**  no dc path to ground from node        0:vgt              defined in subckt 0               now it is connected with gdcpath



 **warning** the following singular supplies were terminated to 1 meg resistor 
   supply       node1            node2
  vb0                     0:b0               defined in subckt 0                     0:0                defined in subckt 0               
  vb1                     0:b1               defined in subckt 0                     0:0                defined in subckt 0               
  vb2                     0:b2               defined in subckt 0                     0:0                defined in subckt 0               
  vtg                     0:vgt              defined in subckt 0                     0:cp2              defined in subckt 0               
      
  Opening plot unit= 15
 file=folded.pa0                                                               


 **warning** zero value is used for the non-existance
             output variable in the expression.
             you may have output variables with
             a long path name.
  *** initial damped pseudo transient completed. ***
  *** final try started ***
1****** HSPICE -- B-2008.09-SP1 32-BIT (Nov 24 2008) linux ******               
 ******  
 ***myop_2stage_aboveth

  ******  operating point information tnom=  25.000 temp=  25.000 *****
 ***** operating point status is all       simulation time is     0.     
    node    =voltage      node    =voltage      node    =voltage

 +0:b0      =   2.4000  0:b1      =   1.3000  0:b2      =   0.6000 
 +0:cn      =   0.7967  0:cp      =   2.3955  0:cp2     =  -1.7424 
 +0:vdd     =   3.3000  0:vdt     =  83.9287  0:vgt     = 1.742e-03
 +0:vinn    =   2.0000  0:vinp    =   2.0000  0:vop     =   0.4641 
 +0:vss     =   0.      0:vst     =   0.      2:1       =   3.0538 
 +2:2       =   3.0538  2:5       =   0.2699  2:6       =   0.2699 
 +2:b       =   1.2512  2:cn2     =   0.4050  2:cp2     =   2.4611 
 +2:von     =   0.4641 


 maximum nodal capacitance=   4.001E-13         on node     0:vss             

    nodal  capacitance table 

    node    =    cap      node    =    cap      node    =    cap

 +0:b0      =   0.      0:b1      =   0.      0:b2      =   0.     
 +0:cn      = 9.541e-14 0:cp      = 3.433e-14 0:cp2     =   0.     
 +0:vdd     = 1.968e-13 0:vdt     = 3.290e-15 0:vgt     = 8.623e-15
 +0:vinn    = 2.713e-14 0:vinp    = 2.713e-14 0:vop     = 5.328e-15
 +0:vss     = 4.001e-13 0:vst     = 2.262e-14 2:1       = 2.298e-14
 +2:2       = 2.298e-14 2:5       = 7.541e-15 2:6       = 7.541e-15
 +2:b       = 3.962e-14 2:cn2     = 1.108e-13 2:cp2     = 8.532e-14
 +2:von     = 4.229e-14

 

 ****  voltage sources

 subckt                                                                    
 element  0:vd       0:vs       0:vb0      0:vb1      0:vb2      0:vinp    
  volts      3.3000     0.         2.4000     1.3000     0.6000     2.0000 
  current -6.067e-06  5.867e-06 -2.400e-06 -1.300e-06 -6.000e-07    0.     
  power    2.002e-05    0.       5.760e-06  1.690e-06  3.600e-07    0.     

 subckt                                   
 element  0:vinn     0:vtg      0:vts     
  volts      2.0000     1.7441     0.     
  current    0.      -1.744e-06  2.000e-07
  power      0.       3.042e-06    0.     

     total voltage source power dissipation=  3.087e-05       watts



 ***** current sources

 subckt              xcmb      
 element  0:it       1:iin     
  volts    -80.6287     2.3955 
  current  2.000e-07  1.000e-06
  power    1.613e-05 -2.396e-06


     total current source power dissipation= 1.373e-05       watts


 **** mosfets


 subckt              xcmb       xcmb       xcmb       xop        xop       
 element  0:mt       1:mc0      1:mc1      1:mc2      2:mn       2:mp      
 model    0:nch.2    0:pch.2    0:pch.2    0:nch.1    0:nch.1    0:nch.1   
 region       Cutoff   Saturati   Saturati   Saturati     Cutoff     Cutoff
  id       1.247e-07 -1.000e-06 -4.612e-06  4.612e-06  5.893e-08  5.893e-08
  ibs     -1.996e-19  2.118e-19  9.769e-19 -7.736e-18 -9.288e-15 -9.288e-15
  ibd     -7.515e-08  1.610e-16  3.871e-11 -5.247e-15 -3.877e-13 -3.877e-13
  vgs      1.742e-03   -0.9045    -0.9045     0.7967     0.7488     0.7488 
  vds       83.9287    -0.9045    -2.5033     0.7967     1.8026     1.8026 
  vbs        0.         0.         0.         0.        -1.2512    -1.2512 
  vth        0.3814    -0.7709    -0.7603     0.5355     0.8345     0.8345 
  vdsat    4.189e-02   -0.1795    -0.1881     0.2588   5.346e-02  5.346e-02
  vod       -0.3797    -0.1336    -0.1441     0.2612  -8.566e-02 -8.566e-02
  beta     1.115e-03  7.484e-05  2.998e-04  1.363e-04  2.275e-04  2.275e-04
  gam eff    0.4693     0.3947     0.3947     0.4573     0.4254     0.4254 
  gm       3.613e-06  1.056e-05  4.685e-05  3.155e-05  1.330e-06  1.330e-06
  gds      1.107e-08  1.076e-07  3.645e-07  4.928e-08  1.756e-09  1.756e-09
  gmb      1.213e-06  2.295e-06  1.016e-05  9.246e-06  2.715e-07  2.715e-07
  cdtot    3.290e-15  2.444e-15  7.463e-15  4.630e-15  6.812e-15  6.812e-15
  cgtot    8.623e-15  5.271e-15  2.109e-14  6.111e-14  2.713e-14  2.713e-14
  cstot    7.445e-15  8.097e-15  3.239e-14  7.412e-14  7.689e-15  7.689e-15
  cbtot    1.517e-14  6.878e-15  2.520e-14  3.130e-14  3.656e-14  3.656e-14
  cgs      1.046e-15  4.109e-15  1.644e-14  5.240e-14  1.267e-15  1.267e-15
  cgd      1.046e-15  2.837e-16  1.135e-15  7.365e-16  1.267e-15  1.267e-15



 subckt   xop        xop        xop        xop        xop        xop       
 element  2:mb       2:m1       2:m2       2:m3       2:m4       2:m5      
 model    0:nch.2    0:pch.4    0:pch.4    0:pch.2    0:pch.2    0:nch.2   
 region       Cutoff   Saturati   Saturati     Cutoff     Cutoff     Cutoff
  id       1.179e-07 -1.013e-07 -1.013e-07 -4.237e-08 -4.237e-08  4.238e-08
  ibs     -1.885e-19  2.220e-20  2.220e-20  8.821e-21  8.821e-21 -3.438e-15
  ibd     -4.191e-14  2.318e-16  2.318e-16  7.506e-13  7.506e-13 -3.438e-15
  vgs        0.4050    -0.8389    -0.8389    -0.6583    -0.6583     0.5268 
  vds        1.2512    -0.2462    -0.2462    -2.5897    -2.5897     0.1942 
  vbs        0.         0.         0.         0.         0.        -0.2699 
  vth        0.5621    -0.7902    -0.7902    -0.7546    -0.7546     0.6278 
  vdsat    4.280e-02   -0.1132    -0.1132  -5.971e-02 -5.971e-02  4.633e-02
  vod       -0.1571  -4.871e-02 -4.871e-02  9.636e-02  9.636e-02   -0.1010 
  beta     4.350e-03  2.272e-05  2.272e-05  1.064e-04  1.064e-04  3.945e-04
  gam eff    0.4693     0.3553     0.3553     0.3948     0.3948     0.4546 
  gm       3.121e-06  1.355e-06  1.355e-06  8.064e-07  8.064e-07  1.073e-06
  gds      1.631e-08  1.054e-08  1.054e-08  5.887e-09  5.887e-09  8.839e-09
  gmb      9.515e-07  3.144e-07  3.144e-07  1.832e-07  1.832e-07  2.825e-07
  cdtot    2.424e-14  4.442e-15  4.442e-15  2.306e-15  2.306e-15  3.022e-15
  cgtot    3.008e-14  2.844e-14  2.844e-14  2.766e-15  2.766e-15  2.993e-15
  cstot    2.978e-14  2.804e-14  2.804e-14  4.078e-15  4.078e-15  3.132e-15
  cbtot    6.737e-14  2.180e-14  2.180e-14  7.649e-15  7.649e-15  7.439e-15
  cgs      4.184e-15  1.882e-14  1.882e-14  3.751e-16  3.751e-16  4.270e-16
  cgd      4.184e-15  3.843e-16  3.843e-16  3.751e-16  3.751e-16  4.270e-16



 subckt   xop        xop        xop        xop        xop        xop       
 element  2:m6       2:m7       2:m8       2:mc1      2:mc2      2:mc3     
 model    0:nch.2    0:nch.1    0:nch.1    0:pch.4    0:nch.2    0:nch.2   
 region       Cutoff     Cutoff     Cutoff   Saturati     Cutoff     Cutoff
  id       4.238e-08  4.238e-08  4.238e-08 -5.217e-08  5.215e-08  5.217e-08
  ibs     -3.438e-15 -7.296e-20 -7.296e-20  1.143e-20 -8.754e-20 -8.345e-20
  ibd     -3.438e-15 -4.644e-15 -4.644e-15  1.159e-16 -9.497e-12 -1.411e-14
  vgs        0.5268     0.4641     0.4641    -0.8389     0.3917     0.4050 
  vds        0.1942     0.2699     0.2699    -0.8389     2.0561     0.4050 
  vbs       -0.2699     0.         0.         0.         0.         0.     
  vth        0.6278     0.5348     0.5348    -0.7890     0.5570     0.5640 
  vdsat    4.633e-02  5.349e-02  5.349e-02   -0.1139   4.256e-02  4.276e-02
  vod       -0.1010  -7.066e-02 -7.066e-02 -4.991e-02   -0.1653    -0.1590 
  beta     3.945e-04  1.176e-04  1.176e-04  1.136e-05  2.230e-03  2.174e-03
  gam eff    0.4546     0.4547     0.4547     0.3553     0.4669     0.4693 
  gm       1.073e-06  9.088e-07  9.088e-07  6.972e-07  1.391e-06  1.385e-06
  gds      8.839e-09  2.003e-09  2.003e-09  2.021e-09  7.022e-09  8.144e-09
  gmb      2.825e-07  2.743e-07  2.743e-07  1.614e-07  4.251e-07  4.221e-07
  cdtot    3.022e-15  4.408e-15  4.408e-15  1.865e-15  1.237e-14  1.356e-14
  cgtot    2.993e-15  1.848e-14  1.848e-14  1.422e-14  1.622e-14  1.504e-14
  cstot    3.132e-15  4.712e-15  4.712e-15  1.402e-14  1.619e-14  1.489e-14
  cbtot    7.439e-15  2.507e-14  2.507e-14  1.054e-14  3.593e-14  3.512e-14
  cgs      4.270e-16  6.333e-16  6.333e-16  9.409e-15  2.209e-15  2.092e-15
  cgd      4.270e-16  6.333e-16  6.333e-16  1.922e-16  2.209e-15  2.092e-15



1****** HSPICE -- B-2008.09-SP1 32-BIT (Nov 24 2008) linux ******               
 ******  
 ***myop_2stage_aboveth

  ******  noise analysis tnom=  25.000 temp=  25.000 *****

     frequency =   0.1000       hz




 **** mosfet squared noise voltages (sq v/hz)




 element     0:mt
       rd    0.         
       rs    0.         
       id    0.         
       rx    0.         
       fn    0.         
    total    0.         




 element     1:mc0
       rd  4.751e-23    
       rs  6.906e-19    
       id  8.092e-16    
       rx  8.588e+04    
       fn  4.452e-09    
    total  4.452e-09    




 element     1:mc1
       rd  6.681e-24    
       rs  1.710e-19    
       id  1.769e-16    
       rx  1.931e+04    
       fn  1.108e-09    
    total  1.108e-09    




 element     1:mc2
       rd  1.223e-25    
       rs  8.422e-20    
       id  1.458e-16    
       rx  1.931e+04    
       fn  3.230e-11    
    total  3.230e-11    




 element     2:mn
       rd    0.         
       rs  1.926e-11    
       id    0.         
       rx  9.776e+09    
       fn  8.553e-03    
    total  8.553e-03    




 element     2:mp
       rd    0.         
       rs  1.926e-11    
       id    0.         
       rx  9.776e+09    
       fn  8.553e-03    
    total  8.553e-03    




 element     2:mb
       rd    0.         
       rs  1.174e-19    
       id    0.         
       rx  5.411e+05    
       fn  2.277e-10    
    total  2.277e-10    




 element     2:m1
       rd  2.844e-15    
       rs  1.078e-10    
       id  1.161e-06    
       rx  9.775e+09    
       fn    0.1323     
    total    0.1323     




 element     2:m2
       rd  2.844e-15    
       rs  1.078e-10    
       id  1.161e-06    
       rx  9.776e+09    
       fn    0.1323     
    total    0.1323     




 element     2:m3
       rd    0.         
       rs  1.064e-14    
       id    0.         
       rx  1.479e+08    
       fn  5.827e-05    
    total  5.827e-05    




 element     2:m4
       rd    0.         
       rs  1.064e-14    
       id    0.         
       rx  1.479e+08    
       fn  5.828e-05    
    total  5.828e-05    




 element     2:m5
       rd    0.         
       rs    0.         
       id    0.         
       rx  1.454e+07    
       fn  1.905e-07    
    total  1.905e-07    




 element     2:m6
       rd    0.         
       rs  1.237e-15    
       id    0.         
       rx  1.454e+07    
       fn  1.905e-07    
    total  1.905e-07    




 element     2:m7
       rd  4.220e-25    
       rs  2.163e-11    
       id    0.         
       rx  9.909e+09    
       fn  8.205e-03    
    total  8.205e-03    




 element     2:m8
       rd  4.220e-25    
       rs  2.163e-11    
       id    0.         
       rx  9.910e+09    
       fn  8.207e-03    
    total  8.207e-03    




 element     2:mc1
       rd  2.119e-23    
       rs  2.620e-18    
       id  2.755e-14    
       rx  2.103e+06    
       fn  3.243e-09    
    total  3.243e-09    




 element     2:mc2
       rd    0.         
       rs  3.042e-20    
       id    0.         
       rx  4.450e+05    
       fn  5.789e-11    
    total  5.789e-11    




 element     2:mc3
       rd  8.832e-23    
       rs  4.349e-19    
       id    0.         
       rx  1.658e+06    
       fn  8.427e-10    
    total  8.427e-10    




 **** total output noise voltage         =   0.2982        sq v/hz
                                         =   0.5461        v/rt hz
