 ****** HSPICE -- B-2008.09 32-BIT (Aug 26 2008) winnt ******                   
  Copyright (C) 2008 Synopsys, Inc. All Rights Reserved.                        
  Unpublished-rights reserved under US copyright laws.
  This program is protected by law and is subject to the 
  terms and conditions of the license agreement from Synopsys.
  Use of this program is your acceptance to be bound by the 
  license agreement. HSPICE is the trademark of Synopsys, Inc.
  Input File: c:\users\timer\documents\github\remotehspice\aboveop_fd\folded.sp 
 Init: read install configuration file: C:\synopsys\Hspice_B-2008.09\meta.cfg
 Init: hspice initialization file: C:\synopsys\Hspice_B-2008.09\hspice.ini




 .option post acout=0 accurate=1 dcon=1 converge=1 gmindc=1.0000e-12 captab=1 unwrap=1
 + ingold=1

 ***param***
 .param
 +comon		= 2
 +bias       = 2.4
 +bias1		= 1.3
 +bias2		= 0.6
 +supplyp	= 3.3
 +supplyn	= 0
 +diff			= 0
 ***netlist***

 *.subckt op_fc vdd vss vinp vinn vop cp cp2 cn
 ****input stage***
 *mn	1	vinn b	 b	 nch w = 3u   l = 1u  m = 2
 *mp	2	vinp b	 b	 nch w = 3u   l = 1u  m = 2
 *mb1	b	cn	 01  vss nch w = 1u   l = 4u  m = 2
 *mb2	01	cn	 02  vss nch w = 1u   l = 4u  m = 2
 *mb3	02	cn	 vss vss nch w = 1u   l = 4u  m = 2
 ****output stage***
 *m1  1   cp2 vdd vdd pch w = 3u   l = 2u  m = 3
 *m2  2   cp2 vdd vdd pch w = 3u   l = 2u  m = 3
 *m3	von cp	1   1   pch w = 5u   l = 1u  m = 2      * gm*rds = 50 (id = 200n)
 *m4	vop	cp	2   2   pch w = 5u   l = 1u  m = 2
 *m5  von	cn  5   vss nch w = 5u   l = 1u  m = 2
 *m6  vop	cn  6   vss nch w = 5u   l = 1u  m = 2
 *m7  5   von vss vss nch w = 3u   l = 5u  m = 1
 *m8  6   von vss vss nch w = 3u   l = 5u  m = 1
 *.ends
 .subckt op_fc vdd vss vinp vinn vop cp cn
 ***input stage***
 mn	1	vinp b	 vss	 nch w = 3u   l = 5u  m = 2
 mp	2	vinn b	 vss	 nch w = 3u   l = 5u  m = 2
 mb 	b	cn2	 vss  vss nch w = 2u   l = 1u  m = 4
 ***output stage***
 m1  1   cp2 vdd vdd pch w = 1u   l = 5u m = 4
 m2  2   cp2 vdd vdd pch w = 1u   l = 5u m = 4
 m3	von cp	1   1   pch w = 2u   l = 1u  m = 1      * gm*rds = 50 (id = 200n)
 m4	vop	cp	2   2   pch w = 2u   l = 1u  m = 1
 m5  von	cn  5   vss nch w = 2u   l = 1u  m = 1
 m6  vop	cn  6   vss nch w = 1u   l = 1u  m = 1
 m7  5   von vss vss nch w = 3u   l = 5u  m = 1
 m8  6   von vss vss nch w = 3u   l = 5u  m = 1
 mc1 cp2 cp2 vdd vdd pch w = 1u   l = 5u m = 1
 mc2 cp2 cn  cn2 vss nch w = 3.5u l = 0.5u   m = 7
 mc3 cn2 cn2 vss vss nch w = 2u   l = 1u m = 1
 .ends



 *mc4 2 cp3 vdd vdd pch w = 5u l = 0.5u m = 1
 *mc5 3 cp  2   2   pch w = 5u l = 0.5u m = 1
 *mc6	3 cn  cn2 vss nch w = 3.5u l = 1u  m = 1
 *mc7	cn2 cn2 vss vss nch w = 3.5u l = 5u  m = 1


 .subckt op vdd vss vinp vinn 2 cz
 mb	b	cz	 vdd vdd pch w = 6u  l = 5u  m = 1
 m1	1	vinn b	 b	 pch w = 1u   l = 5u  m = 1
 m2	2	vinp b	 b	 pch w = 1u   l = 5u  m = 1
 m3	1	1	 vss vss nch w = 1u   l = 1u    m = 1
 m4	2	1	 vss vss nch w = 1u   l = 1u    m = 1
 .ends
 ******
 ***current mirror***

 *.subckt cmb_bete5 vdd vss cp cn cp2
 *iin cp  vss dc = 1u
 *mc0 cp  cp  vdd vdd pch w = 5.1u l = 5u m = 1
 *mc1 cn  cp  vdd vdd pch w = 5.1u l = 5u m = 4
 *mc2 cn  cn  vss vss nch w = 3.2u  l = 5u m = 1
 ****(366n)
 *mc3 cp2 cp2 vdd vdd pch w = 5.1u l = 5u m = 3
 *mc4 cp2 cn  1   vss nch w = 1u  l = 5u m = 1
 *mc5 1   cn  2   vss nch w = 1u  l = 5u m = 1
 *mc6 2   cn vss  vss nch w = 1u  l = 5u m = 1
 *r1  rx  vss 25k
 *.ends
 .subckt cmb_bete5 vdd vss cp cn wp = 5u
 iin cp  vss dc = 1u
 mc0 cp  cp  vdd vdd pch w = 1.5u l = 1u m = 1
 mc1 cn  cp  vdd vdd pch w = 1.5u l = 1u m = 4
 mc2 cn  cn  vss vss nch w = 3.5u  l = 5u m = 1

 .ends

 *vcp2 cp2 gnd dc = 2.5454



 xcmb   vdd vss cp cn cmb_bete5


 xop    vdd vss vinp vinn vop cp cn  op_fc




 ***source***
 vd		vdd 	gnd dc supplyp
 vs		vss 	gnd dc supplyn
 *vb0		b0		gnd dc bias
 *vb1		b1		gnd dc bias1
 *vb2		b2		gnd dc bias2

 ***input***
 vinp vinp vss dc = '0.7967+diff' ac = 1
 vinn vinn vss dc = 0.7967 *ac = 1 180

 ***test***
 mt vdt vgt vst vst nch w = 5u l = 1u m = 1
 *vtd vdt gnd dc =
 vtg vgt vst  dc = 1.7441
 vts vst gnd dc = 0
 *vtb vbt gnd
 it vdd vdt dc = 200n
 *im3,4 : 2.352e-07

 *.dc it 0n 300n 1n

 ***open loop wi loading test***


 ***cloase loop feedback test***



 ****mos resistor***




 .op

 ***sweep***
 .dc diff -0.01 0.01 0.00001

 ***probe&measuring***
 .ac dec 1000 0.1 1g
 *.tf v(voa) vinp
 *.pz v(2) vinp
 .probe dc i(m1) i(m2)	i(mt)
 .probe ac cap(von)
 +gain1st=par('vdb(2)-vdb(vinp,vinn)')	par('i(m1)-i(m2)')	phase1st=par('vp(2)')
 +nf(xop.mn) nf(xop.m1) nf(xop.m3) nf(xop.m5) nf(xop.m7)
 *+gainall=par('vdb(vop)-vdb(vinp,vinn)')		phaseall=par('vp(vop)')
 *.meas ac gain max par('vdb(vop)-vdb(vinp,vinn)')
 .meas ac gain1st max par('vdb(2, 1)-vdb(vinp,vinn)')
 *.meas ac zerodb when par('vdb(vop)-vdb(vinp,vinn)') = 0
 *.meas ac phaseatdb	find par('vp(vop)') when par('vdb(vop)-vdb(vinp,vinn)') = 0

 *.noise v(vop) vinp 100

 *.alter
 *.protect
 *.lib 'mm0355v.l' ff
 *.unprotect
 *.alter
 *.protect
 *.lib 'mm0355v.l' ss
 *.unprotect

 *xop vdd vss vinp vinn vop cp cp2 cn op_fc
 *.alter
 *xop vdd vss vinp vinn vop cn op

 .end


 **warning**  the accurate option increases  the cpu time but the results
                are more accurate.
 ***accurate option sets default value of the options: 
 lvltim= 4         dvdt= 3       relvar= 200.00m absvar= 200.00m
     ft= 200.00m relmos=  10.00m
 (used for FFT control ) fft_accurate= 1
1****** HSPICE -- B-2008.09 32-BIT (Aug 26 2008) winnt ******                   
 ******  
 ***myop_2stage_aboveth

  ******  circuit name directory
 circuit number to circuit name directory
   number circuitname                     definition         multiplier
        0 main circuit
        1 xcmb.                           cmb_bete5          1.00 
        2 xop.                            op_fc              1.00 
 

 **warning** could not find branch element     0:m1              
      branch - output ignored
 **warning** could not find branch element     0:m2              
      branch - output ignored
 **warning**  attempt to reference undefined node     0:von             
  in the definition of cap(von,0)
   branch - output ignored

 **warning**  attempt to reference undefined node     0:2               
  in the definition of vdb(2,0)
   branch - output ignored

 **warning** could not find branch element     0:m1              
      branch - output ignored
 **warning** could not find branch element     0:m2              
      branch - output ignored
 **warning**  attempt to reference undefined node     0:2               
  in the definition of vp(2,0)
   branch - output ignored

 **warning**  attempt to reference undefined node     0:2               
  in the definition of vdb(2,1)
   branch - output ignored

 **warning** print/plot=out0         of analysis=ac  
 contains unused outputs
 this entire output statement is ignored

 
      
  Opening plot unit= 79
 file=c:\users\timer\documents\github\remotehspice\aboveop_fd\folded.pa0       


 **warning** zero value is used for the non-existance
             output variable in the expression.
             you may have output variables with
             a long path name.
  *** initial damped pseudo transient completed. ***
  *** final try started ***
1****** HSPICE -- B-2008.09 32-BIT (Aug 26 2008) winnt ******                   
 ******  
 ***myop_2stage_aboveth

  ******  operating point information tnom=  25.000 temp=  25.000 *****
 ***** operating point status is all       simulation time is     0.     
    node    =voltage      node    =voltage      node    =voltage

 +0:cn      =   0.7967  0:cp      =   2.3955  0:vdd     =   3.3000 
 +0:vdt     = 2.127e-04 0:vgt     =   1.7441  0:vinn    =   0.7967 
 +0:vinp    =   0.7967  0:vop     =   0.6806  0:vss     =   0.     
 +0:vst     =   0.      2:1       =   3.0181  2:2       =   3.0198 
 +2:5       =   0.2909  2:6       =   0.2815  2:b       =   0.3099 
 +2:cn2     =   0.3969  2:cp2     =   2.5661  2:von     =   0.4324 


 maximum nodal capacitance=   3.862E-13         on node     0:vss             

    nodal  capacitance table 

    node    =    cap      node    =    cap      node    =    cap

 +0:cn      = 1.001e-13 0:cp      = 3.438e-14 0:vdd     = 1.895e-13
 +0:vdt     = 2.679e-14 0:vgt     = 2.462e-14 0:vinn    = 3.370e-14
 +0:vinp    = 3.370e-14 0:vop     = 4.116e-15 0:vss     = 3.862e-13
 +0:vst     = 4.727e-14 2:1       = 2.735e-14 2:2       = 2.743e-14
 +2:5       = 7.509e-15 2:6       = 6.250e-15 2:b       = 2.992e-14
 +2:cn2     = 5.382e-14 2:cp2     = 9.016e-14 2:von     = 4.268e-14

 

 ****  voltage sources

 subckt                                                                    
 element  0:vd       0:vs       0:vinp     0:vinn     0:vtg      0:vts     
  volts      3.3000     0.         0.7967     0.7967     1.7441     0.     
  current -5.908e-06  5.708e-06    0.         0.         0.       2.000e-07
  power    1.950e-05    0.         0.         0.         0.         0.     

     total voltage source power dissipation=  1.950e-05       watts



 ***** current sources

 subckt              xcmb      
 element  0:it       1:iin     
  volts      3.2998     2.3955 
  current  2.000e-07  1.000e-06
  power   -6.600e-07 -2.396e-06


     total current source power dissipation=-3.056e-06       watts


 **** mosfets


 subckt              xcmb       xcmb       xcmb       xop        xop       
 element  0:mt       1:mc0      1:mc1      1:mc2      2:mn       2:mp      
 model    0:nch.2    0:pch.2    0:pch.2    0:nch.1    0:nch.1    0:nch.1   
 region       Linear   Saturati   Saturati   Saturati     Cutoff     Cutoff
  id       2.000e-07 -1.000e-06 -4.612e-06  4.612e-06  2.141e-08  2.142e-08
  ibs     -3.199e-19  2.118e-19  9.769e-19 -7.736e-18 -9.288e-15 -9.288e-15
  ibd     -5.785e-17  1.610e-16  3.871e-11 -5.247e-15 -1.186e-11 -1.193e-11
  vgs        1.7441    -0.9045    -0.9045     0.7967     0.4868     0.4868 
  vds      2.127e-04   -0.9045    -2.5033     0.7967     2.7082     2.7100 
  vbs        0.         0.         0.         0.        -0.3099    -0.3099 
  vth        0.5649    -0.7709    -0.7603     0.5355     0.6195     0.6195 
  vdsat      0.8693    -0.1795    -0.1881     0.2588   4.660e-02  4.660e-02
  vod        1.1792    -0.1336    -0.1441     0.2612    -0.1327    -0.1327 
  beta     9.509e-04  7.484e-05  2.998e-04  1.363e-04  2.333e-04  2.333e-04
  gam eff    0.4693     0.3947     0.3947     0.4573     0.4461     0.4461 
  gm       1.227e-07  1.056e-05  4.685e-05  3.155e-05  5.150e-07  5.151e-07
  gds      9.506e-04  1.076e-07  3.645e-07  4.928e-08  1.963e-09  1.969e-09
  gmb      4.799e-08  2.295e-06  1.016e-05  9.246e-06  1.368e-07  1.368e-07
  cdtot    2.679e-14  2.444e-15  7.463e-15  4.630e-15  6.824e-15  6.824e-15
  cgtot    2.462e-14  5.271e-15  2.109e-14  6.111e-14  3.370e-14  3.370e-14
  cstot    2.803e-14  8.097e-15  3.239e-14  7.412e-14  8.745e-15  8.745e-15
  cbtot    1.924e-14  6.878e-15  2.520e-14  3.130e-14  4.420e-14  4.420e-14
  cgs      1.213e-14  4.109e-15  1.644e-14  5.240e-14  1.267e-15  1.267e-15
  cgd      1.213e-14  2.837e-16  1.135e-15  7.365e-16  1.267e-15  1.267e-15



 subckt   xop        xop        xop        xop        xop        xop       
 element  2:mb       2:m1       2:m2       2:m3       2:m4       2:m5      
 model    0:nch.2    0:pch.4    0:pch.4    0:pch.2    0:pch.2    0:nch.2   
 region       Cutoff     Cutoff     Cutoff     Cutoff     Cutoff     Cutoff
  id       4.284e-08 -4.253e-08 -4.252e-08 -2.109e-08 -2.108e-08  2.109e-08
  ibs     -8.001e-20  9.317e-21  9.316e-21  4.390e-21  4.388e-21 -3.438e-15
  ibd     -1.375e-14  4.636e-16  4.636e-16  3.751e-13  1.573e-13 -3.438e-15
  vgs        0.3969    -0.7339    -0.7339    -0.6225    -0.6243     0.5058 
  vds        0.3099    -0.2819    -0.2802    -2.5857    -2.3392     0.1414 
  vbs        0.         0.         0.         0.         0.        -0.2909 
  vth        0.5525    -0.7901    -0.7902    -0.7547    -0.7563     0.6334 
  vdsat    4.262e-02 -6.828e-02 -6.828e-02 -5.448e-02 -5.450e-02  4.461e-02
  vod       -0.1556   5.623e-02  5.623e-02    0.1321     0.1320    -0.1276 
  beta     1.592e-03  4.577e-05  4.577e-05  1.065e-04  1.064e-04  3.943e-04
  gam eff    0.4612     0.3553     0.3553     0.3948     0.3948     0.4542 
  gm       1.132e-06  6.792e-07  6.791e-07  4.221e-07  4.219e-07  5.535e-07
  gds      6.805e-09  2.906e-09  2.924e-09  3.073e-09  3.097e-09  6.860e-09
  gmb      3.431e-07  1.648e-07  1.648e-07  9.618e-08  9.612e-08  1.454e-07
  cdtot    1.243e-14  8.771e-15  8.777e-15  2.307e-15  2.380e-15  3.038e-15
  cgtot    1.305e-14  2.679e-14  2.679e-14  2.793e-15  2.792e-15  2.993e-15
  cstot    1.338e-14  9.803e-15  9.803e-15  4.078e-15  4.078e-15  3.119e-15
  cbtot    3.202e-14  4.229e-14  4.230e-14  7.677e-15  7.749e-15  7.442e-15
  cgs      1.708e-15  7.686e-16  7.686e-16  3.751e-16  3.751e-16  4.270e-16
  cgd      1.708e-15  7.686e-16  7.686e-16  3.751e-16  3.751e-16  4.270e-16



 subckt   xop        xop        xop        xop        xop        xop       
 element  2:m6       2:m7       2:m8       2:mc1      2:mc2      2:mc3     
 model    0:nch.5    0:nch.1    0:nch.1    0:pch.4    0:nch.3    0:nch.2   
 region       Cutoff     Cutoff     Cutoff     Cutoff     Cutoff     Cutoff
  id       2.108e-08  2.109e-08  2.108e-08 -1.088e-08  1.084e-08  1.085e-08
  ibs     -2.233e-15 -3.631e-20 -3.629e-20  2.384e-21 -3.673e-14 -2.027e-20
  ibd     -2.233e-15 -4.644e-15 -4.644e-15  1.159e-16 -7.573e-12 -3.438e-15
  vgs        0.5153     0.4324     0.4324    -0.7339     0.3998     0.3969 
  vds        0.3991     0.2909     0.2815    -0.7339     2.1691     0.3969 
  vbs       -0.2815     0.         0.         0.        -0.3969     0.     
  vth        0.6151     0.5348     0.5348    -0.7892     0.6613     0.5523 
  vdsat    4.649e-02  4.848e-02  4.848e-02 -6.854e-02  4.390e-02  4.263e-02
  vod     -9.982e-02   -0.1024    -0.1024   5.531e-02   -0.2615    -0.1554 
  beta     1.794e-04  1.176e-04  1.176e-04  1.145e-05  1.047e-02  3.980e-04
  gam eff    0.4428     0.4547     0.4547     0.3553     0.5201     0.4612 
  gm       5.298e-07  4.758e-07  4.756e-07  1.737e-07  3.184e-07  2.867e-07
  gds      2.959e-09  9.347e-10  9.662e-10  4.907e-10  3.481e-09  1.608e-09
  gmb      1.384e-07  1.443e-07  1.442e-07  4.208e-08  8.009e-08  8.690e-08
  cdtot    1.736e-15  4.389e-15  4.398e-15  1.915e-15  2.797e-14  3.057e-15
  cgtot    1.702e-15  1.867e-14  1.867e-14  6.698e-15  2.215e-14  3.261e-15
  cstot    1.852e-15  4.712e-15  4.712e-15  2.451e-15  3.446e-14  3.345e-15
  cbtot    4.408e-15  2.524e-14  2.525e-14  1.029e-14  6.396e-14  7.956e-15
  cgs      2.207e-16  6.333e-16  6.333e-16  1.922e-16  5.155e-15  4.270e-16
  cgd      2.207e-16  6.333e-16  6.333e-16  1.922e-16  5.155e-15  4.270e-16



 ******  
 ***myop_2stage_aboveth

  ******  ac analysis tnom=  25.000 temp=  25.000 *****
   gain1st=    failed    from= -1.2346E-29     to=  0.0000E+00

          ***** job concluded
1****** HSPICE -- B-2008.09 32-BIT (Aug 26 2008) winnt ******                   
 ******  
 ***myop_2stage_aboveth

  ******  job statistics summary tnom=  25.000 temp=  25.000 *****

  ******  HSPICE Threads Information  ******
  Command Line Threads Count:                      0
  Available CPU Count:                             4
  Actual Model Evaluation(Load) Threads Count:     1
  Actual Solver Threads Count:                     1


  ******  Circuit Statistics  ******
  # nodes       =      56  # elements   =      27
  # resistors   =       0  # capacitors =       0  # inductors   =       0
  # mutual_inds =       0  # vccs       =       0  # vcvs        =       0
  # cccs        =       0  # ccvs       =       0  # volt_srcs   =       7
  # curr_srcs   =       2  # diodes     =       0  # bjts        =       0
  # jfets       =       0  # mosfets    =      18  # U elements  =       0
  # T elements  =       0  # W elements =       0  # B elements  =       0
  # S elements  =       0  # P elements =       0  # va device   =       0


  ******  Runtime Statistics (seconds)  ******

  analysis           time    # points   tot. iter  conv.iter
  op point           0.03           1         140
  dc sweep           0.70        2001        4084
  ac analysis        0.34       10001       10001
  readin             0.13
  errchk             0.02
  setup              0.02
  output             0.00


           total memory used          696  kbytes
           total cpu time            1.26 seconds
           total elapsed time           1 seconds
           job started at     11:17:44 04/07/2016
           job ended   at     11:17:45 04/07/2016


 Init: hspice initialization file: C:\synopsys\Hspice_B-2008.09\hspice.ini
