Using: /usr/bin/time -p /usr/cad/synopsys/hspice/cur/hspice/linux/hspice twoStageOP.sp
 ****** HSPICE -- B-2008.09-SP1 32-BIT (Nov 24 2008) linux ******               
  Copyright (C) 2008 Synopsys, Inc. All Rights Reserved.                        
  Unpublished-rights reserved under US copyright laws.
  This program is protected by law and is subject to the 
  terms and conditions of the license agreement from Synopsys.
  Use of this program is your acceptance to be bound by the 
  license agreement. HSPICE is the trademark of Synopsys, Inc.
  Input File: twoStageOP.sp                                                     
 lic:  
 lic: FLEXlm: v8.5b 
 lic: USER:   m103061608           HOSTNAME: ws45 
 lic: HOSTID: e41f13edf052         PID:      11020 
 lic: Using FLEXlm license file: 
 lic: 26585@lsnctu 
 lic: Checkout 1 hspice 
 lic: License/Maintenance for hspice will expire on 14-may-2016/2015.06 
 lic: FLOATING license(s) on SERVER lsnctu 
 lic:   
 Init: read install configuration file: /usr/cad/synopsys/hspice/cur/hspice/meta.cfg
 Init: hspice initialization file: /usr/cad/synopsys/hspice/cur/hspice/hspice.ini
 .option runlvl
 .option post acout=0 accurate=1 dcon=1 converge=1 gmindc=1.0000e-12 captab=1 unwrap=1
 + ingold=1

 ***param***
 .param
 +comon		= 1.7
 +bias		= 2.4
 +bias2		= 0.45
 +supplyp	= 3.3
 +supplyn	= 0
 +diff			= 0
 ***netlist***
 ***1st stage***
 mb	b	cz	 vdd vdd pch w = 12u  l = 5u  m = 1
 m1	1	vinp b	 b	 pch w = 6u   l = 5u  m = 1
 m2	2	vinn b	 b	 pch w = 6u   l = 5u  m = 1
 m3	1	1	 vss vss nch w = 3u   l = 5u  m = 1
 m4	2	1	 vss vss nch w = 3u l = 5u    m = 1


 ***2nd stage***

 ***compensation***

 ******

 ***current mirror***
 iin cp vss dc = 200n
 mc0 cp cp vdd vdd pch w = 16u l = 1u m = 2
 mc1 c0 cp vdd vdd pch w = 5u l = 0.4u m = 2
 mc2 cn cn c0  c0  pch w = 1u l = 0.4u m = 1
 mc3 cn cn vss vss nch w = 5.1u l = 0.4u m = 3
 mcx  cz cz vdd vdd pch w = 1u l = 1u m = 1
 mcz  cz cn vss vss nch w = 10u l = 1u m = 3

 ***source***
 vd		vdd 	gnd dc supplyp
 vs		vss 	gnd dc supplyn
 vb 		b0		gnd dc bias
 vb1		b1		gnd dc bias2


 ***input***
 vinp vinp gnd dc = 'comon-diff' ac = 1
 vinn vinn gnd dc = 'comon+diff' *ac = 1 180

 ***test***
 mt	vgt	vgt	vss	vss	nch	w = 3u   l = 5u m = 1
 *mt	vdt	vgt	vst	vst	pch w = 2.8u l = 2u m = 1
 *mt	vdt	vgt	vst	vst	pch	w = 12u   l = 5u m = 1
 vtd	vdt	gnd dc = 2.9
 vtg	vgt	gnd dc = 0.65
 vts vst gnd dc = 3.3


 ***open loop wi loading test***


 ***cloase loop feedback test***



 ****mos resistor***




 .op

 ***sweep***
 .dc diff -0.5 0.5 0.01

 ***probe&measuring***
 .ac dec 1000 0.1 1g
 *.tf v(voa) vinp
 *.pz v(2) vinp
 .probe dc i(m1) i(m2)	i(mt)
 .probe ac cap(von)
 +gain1st=par('vdb(2)-vdb(vinp,vinn)')	par('i(m1)-i(m2)')	phase1st=par('vp(2)')
 *+gainall=par('vdb(vop)-vdb(vinp,vinn)')		phaseall=par('vp(vop)')
 *.meas ac gain max par('vdb(vop)-vdb(vinp,vinn)')
 .meas ac gain1st max par('vdb(2, 1)-vdb(vinp,vinn)')
 *.meas ac zerodb when par('vdb(vop)-vdb(vinp,vinn)') = 0
 *.meas ac phaseatdb	find par('vp(vop)') when par('vdb(vop)-vdb(vinp,vinn)') = 0

 .noise v(2) vinp 100

 *.alter
 *.protect
 *.lib 'mm0355v.l' ff
 *.unprotect
 *.alter
 *.protect
 *.lib 'mm0355v.l' ss
 *.unprotect

 .end


 **warning**  the accurate option increases  the cpu time but the results
                are more accurate.
 ***accurate option sets default value of the options: 
 lvltim= 4         dvdt= 3       relvar= 200.00m absvar= 200.00m
     ft= 200.00m relmos=  10.00m
 (used for FFT control ) fft_accurate= 1
 

 **warning**  attempt to reference undefined node     0:von             
  in the definition of cap(von,0)
   branch - output ignored

 

 **warning** the following singular supplies were terminated to 1 meg resistor 
   supply       node1            node2
  vb                      0:b0               defined in subckt 0                     0:0                defined in subckt 0               
  vb1                     0:b1               defined in subckt 0                     0:0                defined in subckt 0               
  vtd                     0:vdt              defined in subckt 0                     0:0                defined in subckt 0               
  vts                     0:vst              defined in subckt 0                     0:0                defined in subckt 0               
      
  *** initial damped pseudo transient completed. ***
  *** final try started ***
1****** HSPICE -- B-2008.09-SP1 32-BIT (Nov 24 2008) linux ******               
 ******  
 ***myop_2stage_aboveth

  ******  operating point information tnom=  25.000 temp=  25.000 *****
 ***** operating point status is all       simulation time is     0.     
    node    =voltage      node    =voltage      node    =voltage

 +0:1       =   0.6741  0:2       =   0.6741  0:b       =   2.6123 
 +0:b0      =   2.4000  0:b1      =   0.4500  0:c0      =   1.2281 
 +0:cn      =   0.4510  0:cp      =   2.6993  0:cz      =   2.3918 
 +0:vdd     =   3.3000  0:vdt     =   2.9000  0:vgt     =   0.6500 
 +0:vinn    =   1.7000  0:vinp    =   1.7000  0:vss     =   0.     
 +0:vst     =   3.3000 


 maximum nodal capacitance=   5.460E-13         on node     0:vdd             

    nodal  capacitance table 

    node    =    cap      node    =    cap      node    =    cap

 +0:1       = 1.123e-13 0:2       = 1.064e-14 0:b       = 3.401e-13
 +0:b0      =   0.      0:b1      =   0.      0:c0      = 1.797e-14
 +0:cn      = 7.946e-14 0:cp      = 8.862e-14 0:cz      = 2.269e-13
 +0:vdd     = 5.460e-13 0:vdt     =   0.      0:vgt     = 5.362e-14
 +0:vinn    = 9.614e-14 0:vinp    = 9.614e-14 0:vss     = 4.625e-13
 +0:vst     =   0.     

 

 ****  voltage sources

 subckt                                                                    
 element  0:vd       0:vs       0:vb       0:vb1      0:vinp     0:vinn    
  volts      3.3000     0.         2.4000     0.4500     1.7000     1.7000 
  current -3.930e-06  4.961e-06 -2.400e-06 -4.500e-07    0.         0.     
  power    1.297e-05    0.       5.760e-06  2.025e-07    0.         0.     

 subckt                                   
 element  0:vtd      0:vtg      0:vts     
  volts      2.9000     0.6500     3.3000 
  current -2.900e-06 -1.031e-06 -3.300e-06
  power    8.410e-06  6.699e-07  1.089e-05

     total voltage source power dissipation=  3.890e-05       watts



 ***** current sources

 subckt             
 element  0:iin     
  volts      2.6993 
  current  2.000e-07
  power   -5.399e-07


     total current source power dissipation=-5.399e-07       watts


 **** mosfets


 subckt                                                                    
 element  0:mb       0:m1       0:m2       0:m3       0:m4       0:mc0     
 model    0:pch.1    0:pch.1    0:pch.1    0:nch.1    0:nch.1    0:pch.2   
 region     Saturati   Saturati   Saturati   Saturati   Saturati     Cutoff
  id      -2.722e-06 -1.361e-06 -1.361e-06  1.361e-06  1.361e-06 -2.000e-07
  ibs      5.383e-19  2.721e-19  2.721e-19 -2.342e-18 -2.342e-18  3.946e-20
  ibd      1.106e-15  1.223e-13  1.223e-13 -4.644e-15 -4.644e-15  2.932e-15
  vgs       -0.9082    -0.9123    -0.9123     0.6741     0.6741    -0.6007 
  vds       -0.6877    -1.9381    -1.9381     0.6741     0.6741    -0.6007 
  vbs        0.         0.         0.         0.         0.         0.     
  vth       -0.7448    -0.7476    -0.7476     0.5345     0.5345    -0.7542 
  vdsat     -0.2015    -0.2016    -0.2016     0.1613     0.1613  -5.250e-02
  vod       -0.1635    -0.1647    -0.1647     0.1397     0.1397     0.1534 
  beta     1.577e-04  7.756e-05  7.756e-05  1.166e-04  1.166e-04  1.891e-03
  gam eff    0.4181     0.4121     0.4121     0.4547     0.4547     0.3953 
  gm       2.543e-05  1.265e-05  1.265e-05  1.486e-05  1.486e-05  4.356e-06
  gds      7.834e-08  2.735e-08  2.735e-08  2.102e-08  2.102e-08  3.944e-08
  gmb      6.014e-06  2.973e-06  2.973e-06  4.380e-06  4.380e-06  9.940e-07
  cdtot    1.606e-14  6.530e-15  6.530e-15  4.114e-15  4.114e-15  4.341e-14
  cgtot    1.895e-13  9.614e-14  9.614e-14  5.083e-14  5.083e-14  3.819e-14
  cstot    2.306e-13  1.159e-13  1.159e-13  6.041e-14  6.041e-14  5.371e-14
  cbtot    9.260e-14  4.614e-14  4.614e-14  2.725e-14  2.725e-14  1.118e-13
  cgs      1.663e-13  8.344e-14  8.344e-14  4.244e-14  4.244e-14  5.874e-15
  cgd      2.205e-15  1.107e-15  1.107e-15  6.333e-16  6.333e-16  5.874e-15



 subckt                                                                    
 element  0:mc1      0:mc2      0:mc3      0:mcx      0:mcz      0:mt      
 model    0:pch.3    0:pch.6    0:nch.3    0:pch.5    0:nch.2    0:nch.1   
 region       Cutoff   Saturati     Cutoff   Saturati     Cutoff   Saturati
  id      -3.856e-07 -3.856e-07  3.856e-07 -6.232e-07  6.226e-07  1.031e-06
  ibs      7.745e-20  8.444e-20 -6.154e-19  1.365e-19 -9.372e-19 -1.774e-18
  ibd      2.527e-12  1.159e-16 -2.153e-14  1.160e-16 -5.675e-10 -4.644e-15
  vgs       -0.6007    -0.7771     0.4510    -0.9082     0.4510     0.6500 
  vds       -2.0719    -0.7771     0.4510    -0.9082     2.3918     0.6500 
  vbs        0.         0.         0.         0.         0.         0.     
  vth       -0.6799    -0.7453     0.5699    -0.7777     0.5636     0.5345 
  vdsat   -5.387e-02   -0.1032   4.416e-02   -0.1766   4.471e-02    0.1435 
  vod      7.924e-02 -3.181e-02   -0.1189    -0.1305    -0.1126     0.1155 
  beta     1.252e-03  1.063e-04  8.618e-03  4.823e-05  6.708e-03  1.168e-04
  gam eff    0.4553     0.4082     0.5577     0.3889     0.4720     0.4547 
  gm       8.478e-06  5.705e-06  1.010e-05  6.636e-06  1.564e-05  1.246e-05
  gds      2.394e-07  1.672e-07  1.665e-07  6.281e-08  8.596e-08  1.745e-08
  gmb      1.857e-06  1.204e-06  2.903e-06  1.438e-06  4.707e-06  3.683e-06
  cdtot    1.084e-14  1.894e-15  2.054e-14  1.834e-15  3.189e-14  4.128e-15
  cgtot    7.021e-15  9.940e-16  1.269e-14  3.695e-15  4.334e-14  4.949e-14
  cstot    1.792e-14  2.737e-15  2.275e-14  5.705e-15  4.284e-14  5.813e-14
  cbtot    2.839e-14  4.395e-15  4.318e-14  5.203e-15  9.314e-14  2.717e-14
  cgs      1.848e-15  4.182e-16  3.200e-15  2.774e-15  6.232e-15  4.070e-14
  cgd      1.848e-15  1.922e-16  3.200e-15  1.922e-16  6.232e-15  6.333e-16



1****** HSPICE -- B-2008.09-SP1 32-BIT (Nov 24 2008) linux ******               
 ******  
 ***myop_2stage_aboveth

  ******  noise analysis tnom=  25.000 temp=  25.000 *****

     frequency =   0.1000       hz




 **** mosfet squared noise voltages (sq v/hz)




 element     0:mb
       rd  4.920e-25    
       rs  8.440e-20    
       id  3.175e-16    
       rx  3.349e+04    
       fn  9.536e-11    
    total  9.536e-11    




 element     0:m1
       rd  6.528e-20    
       rs  1.563e-14    
       id  5.984e-11    
       rx  2.066e+07    
       fn  1.787e-05    
    total  1.787e-05    




 element     0:m2
       rd  2.901e-20    
       rs  1.563e-14    
       id  5.985e-11    
       rx  2.066e+07    
       fn  1.787e-05    
    total  1.787e-05    




 element     0:m3
       rd  2.766e-20    
       rs  2.475e-14    
       id  7.604e-11    
       rx  2.062e+07    
       fn  9.505e-06    
    total  9.505e-06    




 element     0:m4
       rd  2.766e-20    
       rs  2.491e-14    
       id  7.654e-11    
       rx  2.069e+07    
       fn  9.567e-06    
    total  9.567e-06    




 element     0:mc0
       rd  9.300e-24    
       rs  9.956e-20    
       id    0.         
       rx  3.469e+05    
       fn  5.973e-10    
    total  5.973e-10    




 element     0:mc1
       rd  1.668e-22    
       rs  3.231e-19    
       id    0.         
       rx  1.799e+05    
       fn  5.447e-09    
    total  5.447e-09    




 element     0:mc2
       rd  1.324e-24    
       rs  2.146e-21    
       id  1.996e-18    
       rx  7.336e+03    
       fn  3.945e-11    
    total  3.945e-11    




 element     0:mc3
       rd  3.376e-23    
       rs  1.908e-19    
       id    0.         
       rx  1.872e+05    
       fn  1.014e-09    
    total  1.014e-09    




 element     0:mcx
       rd  4.969e-23    
       rs  8.340e-19    
       id  1.088e-15    
       rx  1.255e+05    
       fn  5.545e-09    
    total  5.545e-09    




 element     0:mcz
       rd  1.020e-24    
       rs  1.070e-19    
       id    0.         
       rx  1.255e+05    
       fn  2.067e-10    
    total  2.067e-10    




 element     0:mt
       rd    0.         
       rs    0.         
       id    0.         
       rx    0.         
       fn    0.         
    total    0.         




 **** total output noise voltage         = 5.482e-05       sq v/hz
                                         = 7.404e-03       v/rt hz
      transfer function value:
        v(2)/vinp                        = 261.3070       
      equivalent input noise at vinp                          
                                         = 2.833e-05       /rt hz



 **** the results of the sqrt of integral (v**2 / freq)
      from fstart upto    0.1000       hz. using more freq points
      results in more accurate total noise values.

 **** total output noise voltage   =    0.            volts
 **** total equivalent input noise =    0.           



1****** HSPICE -- B-2008.09-SP1 32-BIT (Nov 24 2008) linux ******               
 ******  
 ***myop_2stage_aboveth

  ******  noise analysis tnom=  25.000 temp=  25.000 *****

     frequency =   0.1259       hz




 **** mosfet squared noise voltages (sq v/hz)




 element     0:mb
       rd  4.920e-25    
       rs  8.440e-20    
       id  3.175e-16    
       rx  3.349e+04    
       fn  7.574e-11    
    total  7.574e-11    




 element     0:m1
       rd  6.528e-20    
       rs  1.563e-14    
       id  5.984e-11    
       rx  2.066e+07    
       fn  1.419e-05    
    total  1.419e-05    




 element     0:m2
       rd  2.901e-20    
       rs  1.563e-14    
       id  5.985e-11    
       rx  2.066e+07    
       fn  1.419e-05    
    total  1.419e-05    




 element     0:m3
       rd  2.766e-20    
       rs  2.475e-14    
       id  7.604e-11    
       rx  2.062e+07    
       fn  7.816e-06    
    total  7.816e-06    




 element     0:m4
       rd  2.766e-20    
       rs  2.491e-14    
       id  7.654e-11    
       rx  2.069e+07    
       fn  7.867e-06    
    total  7.867e-06    




 element     0:mc0
       rd  9.300e-24    
       rs  9.956e-20    
       id    0.         
       rx  3.469e+05    
       fn  4.745e-10    
    total  4.745e-10    




 element     0:mc1
       rd  1.668e-22    
       rs  3.231e-19    
       id    0.         
       rx  1.799e+05    
       fn  4.327e-09    
    total  4.327e-09    




 element     0:mc2
       rd  1.324e-24    
       rs  2.146e-21    
       id  1.996e-18    
       rx  7.336e+03    
       fn  3.134e-11    
    total  3.134e-11    




 element     0:mc3
       rd  3.376e-23    
       rs  1.908e-19    
       id    0.         
       rx  1.872e+05    
       fn  8.334e-10    
    total  8.334e-10    




 element     0:mcx
       rd  4.969e-23    
       rs  8.340e-19    
       id  1.088e-15    
       rx  1.255e+05    
       fn  4.405e-09    
    total  4.405e-09    




 element     0:mcz
       rd  1.020e-24    
       rs  1.070e-19    
       id    0.         
       rx  1.255e+05    
       fn  1.700e-10    
    total  1.700e-10    




 element     0:mt
       rd    0.         
       rs    0.         
       id    0.         
       rx    0.         
       fn    0.         
    total    0.         




 **** total output noise voltage         = 4.408e-05       sq v/hz
                                         = 6.639e-03       v/rt hz
      transfer function value:
        v(2)/vinp                        = 261.3070       
      equivalent input noise at vinp                          
                                         = 2.541e-05       /rt hz



 **** the results of the sqrt of integral (v**2 / freq)
      from fstart upto    0.1259       hz. using more freq points
      results in more accurate total noise values.

 **** total output noise voltage   =  1.127e-03       volts
 **** total equivalent input noise =  4.313e-06      



1****** HSPICE -- B-2008.09-SP1 32-BIT (Nov 24 2008) linux ******               
 ******  
 ***myop_2stage_aboveth

  ******  noise analysis tnom=  25.000 temp=  25.000 *****

     frequency =   0.1585       hz




 **** mosfet squared noise voltages (sq v/hz)




 element     0:mb
       rd  4.920e-25    
       rs  8.440e-20    
       id  3.175e-16    
       rx  3.349e+04    
       fn  6.017e-11    
    total  6.017e-11    




 element     0:m1
       rd  6.528e-20    
       rs  1.563e-14    
       id  5.984e-11    
       rx  2.066e+07    
       fn  1.127e-05    
    total  1.127e-05    




 element     0:m2
       rd  2.901e-20    
       rs  1.563e-14    
       id  5.985e-11    
       rx  2.066e+07    
       fn  1.127e-05    
    total  1.127e-05    




 element     0:m3
       rd  2.766e-20    
       rs  2.475e-14    
       id  7.604e-11    
       rx  2.062e+07    
       fn  6.426e-06    
    total  6.426e-06    




 element     0:m4
       rd  2.766e-20    
       rs  2.491e-14    
       id  7.654e-11    
       rx  2.069e+07    
       fn  6.468e-06    
    total  6.468e-06    




 element     0:mc0
       rd  9.300e-24    
       rs  9.956e-20    
       id    0.         
       rx  3.469e+05    
       fn  3.769e-10    
    total  3.769e-10    




 element     0:mc1
       rd  1.668e-22    
       rs  3.231e-19    
       id    0.         
       rx  1.799e+05    
       fn  3.437e-09    
    total  3.437e-09    




 element     0:mc2
       rd  1.324e-24    
       rs  2.146e-21    
       id  1.996e-18    
       rx  7.336e+03    
       fn  2.489e-11    
    total  2.489e-11    




 element     0:mc3
       rd  3.376e-23    
       rs  1.908e-19    
       id    0.         
       rx  1.872e+05    
       fn  6.853e-10    
    total  6.853e-10    




 element     0:mcx
       rd  4.969e-23    
       rs  8.340e-19    
       id  1.088e-15    
       rx  1.255e+05    
       fn  3.499e-09    
    total  3.499e-09    




 element     0:mcz
       rd  1.020e-24    
       rs  1.070e-19    
       id    0.         
       rx  1.255e+05    
       fn  1.397e-10    
    total  1.397e-10    




 element     0:mt
       rd    0.         
       rs    0.         
       id    0.         
       rx    0.         
       fn    0.         
    total    0.         




 **** total output noise voltage         = 3.545e-05       sq v/hz
                                         = 5.954e-03       v/rt hz
      transfer function value:
        v(2)/vinp                        = 261.3070       
      equivalent input noise at vinp                          
                                         = 2.279e-05       /rt hz



 **** the results of the sqrt of integral (v**2 / freq)
      from fstart upto    0.1585       hz. using more freq points
      results in more accurate total noise values.

 **** total output noise voltage   =  1.599e-03       volts
 **** total equivalent input noise =  6.118e-06      



1****** HSPICE -- B-2008.09-SP1 32-BIT (Nov 24 2008) linux ******               
 ******  
 ***myop_2stage_aboveth

  ******  noise analysis tnom=  25.000 temp=  25.000 *****

     frequency =   0.1995       hz




 **** mosfet squared noise voltages (sq v/hz)




 element     0:mb
       rd  4.920e-25    
       rs  8.440e-20    
       id  3.175e-16    
       rx  3.349e+04    
       fn  4.779e-11    
    total  4.779e-11    




 element     0:m1
       rd  6.528e-20    
       rs  1.563e-14    
       id  5.984e-11    
       rx  2.066e+07    
       fn  8.955e-06    
    total  8.955e-06    




 element     0:m2
       rd  2.901e-20    
       rs  1.563e-14    
       id  5.985e-11    
       rx  2.066e+07    
       fn  8.955e-06    
    total  8.955e-06    




 element     0:m3
       rd  2.766e-20    
