Using: /usr/bin/time -p /usr/cad/synopsys/hspice/cur/hspice/linux/hspice my-op_2stage.sp
 ****** HSPICE -- B-2008.09-SP1 32-BIT (Nov 24 2008) linux ******               
  Copyright (C) 2008 Synopsys, Inc. All Rights Reserved.                        
  Unpublished-rights reserved under US copyright laws.
  This program is protected by law and is subject to the 
  terms and conditions of the license agreement from Synopsys.
  Use of this program is your acceptance to be bound by the 
  license agreement. HSPICE is the trademark of Synopsys, Inc.
  Input File: my-op_2stage.sp                                                   
 lic:  
 lic: FLEXlm: v8.5b 
 lic: USER:   m103061608           HOSTNAME: ws48 
 lic: HOSTID: e41f13ede70a         PID:      2137 
 lic: Using FLEXlm license file: 
 lic: 26585@lsnctu 
 lic: Checkout 1 hspice 
 lic: License/Maintenance for hspice will expire on 14-may-2016/2015.06 
 lic: FLOATING license(s) on SERVER lsnctu 
 lic:   
 Init: read install configuration file: /usr/cad/synopsys/hspice/cur/hspice/meta.cfg
 Init: hspice initialization file: /usr/cad/synopsys/hspice/cur/hspice/hspice.ini
 .option runlvl
 .option post acout=0 accurate=1 dcon=1 converge=1 gmindc=1.0000e-12 captab=1 unwrap=1
 *.option dccap=1 accurate=1 post

 ***param***
 .param
 +comon		= 2
 +bias		= 2.7
 +bias2		= 0.45
 +supplyp	= 3.3
 +supplyn	= 0
 +diff			= 0
 ***netlist***
 ***1st stage***
 mb	b	cp	vdd	vdd	pch	w = 31u  l = 1u	  m = 2
 m1	1	vinn	b		b		pch	w = 10u l = 0.4u m = 1
 m2	2	vinp	b		b		pch	w = 10u l = 0.4u m = 1
 m3	1	cn		vss	vss	nch	w = 4.2u l = 0.4u m = 2
 m4	2	cn		vss	vss	nch	w = 4.2u l = 0.4u m = 2


 ***2nd stage***
 m1pa	voa	voa	vdd	vdd	pch	w = 4u l = 0.4u    m = 2
 m1pb	von	von	voa	voa	pch	w = 4u l = 0.4u    m = 2
 m2pa	vo2	voa	vdd	vdd	pch	w = 4u l = 0.4u    m = 2
 m2pb	vop	von	vo2 vo2	pch	w = 4u l = 0.4u    m = 2
 m3n	    von	1   vss vss nch w = 15u   l = 0.4u    m = 2
 m4n	    vop	2   vss vss nch w = 15u   l = 0.4u    m = 2

 ***compensation***
 *ct	gnd		2   100f
 *con	gnd	von 50f
 *con1 1 von 50f
 *cop2 2 vop 300f
 *c1   1 gnd 100f  *flatten end
 *c2   2 gnd  50f    *if want better, push 3rd pole left by this
 *cb   b gnd 10f         useless
 *cvoa gnd voa 500f      *useless
 *cvo2 gnd vo2 300f
 *cvoavo2 voa vo2 250f
 cvonvop zon vop 220f
 ******
 *rz1	zon		von   1x
 vvb zb gnd dc = 2
 mz1 zon zb von von pch w = 1u l = 1u


 ***source***
 vd		vdd 	gnd dc supplyp
 vs		vss 	gnd dc supplyn
 vb 		b0		gnd dc bias
 vb1		b1		gnd dc bias2


 ***input***
 vinp vinp gnd dc = 'comon-diff' *ac = 1
 *vinn vinn gnd dc = 'comon+diff' ac = 1 *180
 *viac 2 gnd ac = 1
 *lac 2 vac 1x
 ***current mirror***
 iin cp vss dc = 500n
 mc0 cp cp vdd vdd pch w = 5u l = 0.4u m = 7
 mc1 c0 cp vdd vdd pch w = 5u l = 0.4u m = 2
 mc2 cn cn c0  c0  pch w = 1u l = 0.4u m = 1
 mc3 cn cn vss vss nch w = 5.1u l = 0.4u m = 3

 ***test***
 *mt	vgt	vgt	vss	vss	nch	w = 2.7u   l = 0.5u m = 1
 *mt	vdt	vgt	vst	vst	pch w = 1u l = 1u m = 1
 *
 *vtd	vdt	gnd dc = 1.9
 *vtg	vgt	gnd dc = 2
 *vts vst gnd dc = 2.23
 *.dc vts 2 2.8 0.001

 ***open loop wi loading test***
 *rol vop gnd 100k
 *ril vinn oi 100k
 *vot oi gnd dc = 'comon' ac = 1
 *.probe ac gainopwirl = par('vdb(vop)-vdb(vinp,vinn)')

 ***cloase loop feedback test***
 rf vop vinn 100k
 if vdd vinn  dc = 10n ac = 1
 .dc if -10u 10u 1n


 ****mos resistor***
 **mrp	vinn vref vop  pch w = 3u l = 3u m = 1
 **mrp2 vop vref vinn vinn  pch w = 3u l = 3u m = 1
 *if vdd vinn  dc = 1n ac = 1
 *vr vref gnd dc = 1.5
 *.dc if -500n 500n 1n
 *.probe zr = par('v(vop)-v(vinn)')



 .op

 ***sweep***
 *.dc diff -0.5 0.5 0.01
 .probe ac i(if)
 ***probe&measuring***
 .ac dec 1000 10 1t
 *.tf v(voa) vinp
 .pz v(vop) vinp
 *.pz v(vop) viac
 .probe dc i(m1) i(m2)	i(mt)
 .probe ac cap(von)
 +gain1st=par('vdb(2, 1)-vdb(vinp,vinn)')	par('i(m1)-i(m2)')	phase1st=par('vp(2,1)')
 +gainall=par('vdb(vop)-vdb(vinp,vinn)')		phaseall=par('vp(vop)')
 .meas ac gain max par('vdb(vop)-vdb(vinp,vinn)')
 .meas ac gain1st max par('vdb(2, 1)-vdb(vinp,vinn)')
 .meas ac zerodb when par('vdb(vop)-vdb(vinp,vinn)') = 0
 .meas ac phaseatdb	find par('vp(vop)') when par('vdb(vop)-vdb(vinp,vinn)') = 0

 *.noise v(1) vinn 10
 .end


 **warning**  the accurate option increases  the cpu time but the results
                are more accurate.
 ***accurate option sets default value of the options: 
 lvltim= 4         dvdt= 3       relvar= 200.00m absvar= 200.00m
     ft= 200.00m relmos=  10.00m
 (used for FFT control ) fft_accurate= 1
 

 **warning** could not find branch element     0:mt              
      branch - output ignored
 

 **warning** the following singular supplies were terminated to 1 meg resistor 
   supply       node1            node2
  vb                      0:b0               defined in subckt 0                     0:0                defined in subckt 0               
  vb1                     0:b1               defined in subckt 0                     0:0                defined in subckt 0               
      
  *** initial damped pseudo transient completed. ***
  *** final try started ***
1****** HSPICE -- B-2008.09-SP1 32-BIT (Nov 24 2008) linux ******               
 ******  
 ***myop_2stage

  ******  operating point information tnom=  25.000 temp=  25.000 *****
 ***** operating point status is all       simulation time is     0.     
    node    =voltage      node    =voltage      node    =voltage

 +0:1       = 396.8905m 0:2       = 398.1928m 0:b       =   2.5708 
 +0:b0      =   2.7000  0:b1      = 450.0000m 0:c0      =   1.2252 
 +0:cn      = 449.9268m 0:cp      =   2.7007  0:vdd     =   3.3000 
 +0:vinn    =   2.0001  0:vinp    =   2.0000  0:vo2     =   2.6554 
 +0:voa     =   2.6558  0:von     =   2.0116  0:vop     =   1.9991 
 +0:vss     =   0.      0:zb      =   2.0000  0:zon     =   2.0116 


 maximum nodal capacitance=   6.151E-13         on node     0:vdd             

    nodal  capacitance table 

    node    =    cap      node    =    cap      node    =    cap

 +0:1       =  46.3085f 0:2       =  46.3015f 0:b       = 167.8784f
 +0:b0      =   0.      0:b1      =   0.      0:c0      =  17.9291f
 +0:cn      =  50.1498f 0:cp      = 155.1721f 0:vdd     = 615.0977f
 +0:vinn    =   6.9071f 0:vinp    =   6.9071f 0:vo2     =  52.4207f
 +0:voa     =  63.7246f 0:von     =  63.8531f 0:vop     = 263.8934f
 +0:vss     = 372.4782f 0:zb      =   2.1003f 0:zon     = 222.4508f

 

 ****  voltage sources

 subckt                                                                    
 element  0:vvb      0:vd       0:vs       0:vb       0:vb1      0:vinp    
  volts      2.0000     3.3000     0.         2.7000   450.0000m    2.0000 
  current    0.        -1.9390u    1.9390u   -2.7000u -450.0000n    0.     
  power      0.         6.3987u    0.         7.2900u  202.5000n    0.     

     total voltage source power dissipation=   13.8912u       watts



 ***** current sources

 subckt                        
 element  0:iin      0:if      
  volts      2.7007     1.2999 
  current  500.0000n   10.0000n
  power     -1.3503u  -12.9994n


     total current source power dissipation=  -1.3633u       watts

 **** resistors

 subckt             
 element  0:rf      
  r value  100.0000k
  v drop    -1.0000m
  current  -10.0000n
  power     10.0000p



 **** mosfets


 subckt                                                                    
 element  0:mb       0:m1       0:m2       0:m3       0:m4       0:m1pa    
 model    0:pch.11   0:pch.3    0:pch.3    0:nch.3    0:nch.3    0:pch.3   
 region       Cutoff     Cutoff     Cutoff     Cutoff     Cutoff     Cutoff
  id      -403.4542n -201.6640n -201.7801n  201.6689n  201.7850n -325.3726n
  ibs      7.928e-20  3.999e-20  4.001e-20 -3.297e-19 -3.299e-19  6.576e-20
  ibd        5.6318f    2.1700p    2.1587p  -12.1810f  -12.1810f  771.8203a
  vgs     -599.3222m -570.7408m -570.8022m  449.9268m  449.9268m -644.2215m
  vds     -729.1978m   -2.1739    -2.1726   396.8905m  398.1928m -644.2215m
  vbs        0.         0.         0.         0.         0.         0.     
  vth     -749.0782m -672.4350m -672.4700m  569.6852m  569.6754m -721.1206m
  vdsat    -52.5699m  -49.9450m  -49.9477m   44.0334m   44.0338m  -54.8607m
  vod      149.7560m  101.6942m  101.6679m -119.7584m -119.7485m   76.8991m
  beta       3.6745m    1.2828m    1.2828m    4.6792m    4.6792m  978.9714u
  gam eff  391.6940m  462.5849m  462.5849m  554.4915m  554.4915m  451.6557m
  gm         8.8638u    4.6465u    4.6491u    5.2980u    5.3010u    7.0369u
  gds       81.4948n  129.8612n  129.9354n   89.1698n   89.1677n  217.1746n
  gmb        2.0316u    1.0399u    1.0405u    1.5202u    1.5210u    1.5344u
  cdtot     80.0111f   10.1933f   10.1951f   11.5871f   11.5843f   11.7145f
  cgtot     72.8482f    6.9071f    6.9071f    7.0242f    7.0242f    5.6322f
  cstot    102.5259f   17.0945f   17.0945f   12.7039f   12.7039f   14.6641f
  cbtot    209.9280f   26.8383f   26.8401f   24.2679f   24.2652f   26.0816f
  cgs       11.3643f    1.8391f    1.8391f    1.7618f    1.7618f    1.4823f
  cgd       11.3643f    1.8391f    1.8391f    1.7618f    1.7618f    1.4823f



 subckt                                                                    
 element  0:m1pb     0:m2pa     0:m2pb     0:m3n      0:m4n      0:mz1     
 model    0:pch.3    0:pch.3    0:pch.3    0:nch.3    0:nch.3    0:pch.5   
 region       Cutoff     Cutoff     Cutoff     Cutoff     Cutoff     Cutoff
  id      -325.3726n -325.4514n -325.4513n  325.2440n  335.3277n -1.974e-20
  ibs      6.576e-20  6.578e-20  6.578e-20 -4.791e-19 -4.939e-19    0.     
  ibd      771.8203a  771.8203a  771.8205a -123.8394p -118.6192p  4.976e-21
  vgs     -644.2215m -644.2215m -643.8586m  396.8905m  398.1928m  -11.5571m
  vds     -644.2215m -644.5843m -656.3543m    2.0116     1.9991    -1.1029u
  vbs        0.         0.         0.         0.         0.         0.     
  vth     -721.1206m -721.1107m -720.7908m  560.3168m  560.4076m -783.0698m
  vdsat    -54.8607m  -54.8624m  -54.8547m   43.4644m   43.4791m  -47.8298m
  vod       76.8991m   76.8893m   76.9322m -163.4263m -162.2148m  771.5128m
  beta     978.9714u  978.9740u  979.0684u   17.4975m   17.4973m   49.0006u
  gam eff  451.6557m  451.6557m  451.6557m  567.5246m  567.5246m  388.8673m
  gm         7.0369u    7.0385u    7.0390u    8.7610u    9.0249u  5.520e-19
  gds      217.1746n  217.2113n  216.7865n  118.0020n  121.6667n   17.9009f
  gmb        1.5344u    1.5348u    1.5349u    2.5335u    2.6089u  1.782e-19
  cdtot     11.7145f   11.7133f   11.6758f   32.1896f   32.2176f    2.4508f
  cgtot      5.6322f    5.6322f    5.6326f   24.5281f   24.5221f    2.1003f
  cstot     14.6641f   14.6641f   14.6641f   42.2233f   42.2233f    2.4508f
  cbtot     26.0816f   26.0804f   26.0433f   74.0695f   74.0915f    6.2334f
  cgs        1.4823f    1.4823f    1.4823f    6.2179f    6.2179f  192.1500a
  cgd        1.4823f    1.4823f    1.4823f    6.2179f    6.2179f  192.1500a



 subckt                                              
 element  0:mc0      0:mc1      0:mc2      0:mc3     
 model    0:pch.3    0:pch.3    0:pch.6    0:nch.3   
 region       Cutoff     Cutoff   Saturati     Cutoff
  id      -499.9916n -374.7296n -374.7388n  374.7377n
  ibs      1.004e-19  7.527e-20  8.207e-20 -5.981e-19
  ibd        3.3314f    2.4938p  115.9258a  -21.5264f
  vgs     -599.3222m -599.3222m -775.2674m  449.9268m
  vds     -599.3222m   -2.0748  -775.2674m  449.9268m
  vbs        0.         0.         0.         0.     
  vth     -719.8247m -679.8662m -745.3677m  569.8638m
  vdsat    -48.9331m  -53.6544m -102.1390m   44.1177m
  vod      120.5025m   80.5440m  -29.8997m -119.9370m
  beta       4.3353m    1.2523m  106.3096u    8.6184m
  gam eff  455.2807m  455.2808m  408.2469m  557.6573m
  gm        11.5078u    8.2520u    5.5740u    9.8278u
  gds      354.1031n  233.0318n  163.2106n  161.9936n
  gmb        2.5757u    1.8089u    1.1767u    2.8253u
  cdtot     50.7212f   10.8352f    1.8946f   20.5427f
  cgtot     24.5798f    7.0228f  969.8884a   12.6943f
  cstot     62.7138f   17.9182f    2.6998f   22.7458f
  cbtot    112.1386f   28.3830f    4.3941f   43.1839f
  cgs        6.4691f    1.8483f  388.9027a    3.1997f
  cgd        6.4691f    1.8483f  192.1500a    3.1997f



 ***************************************************
   ******   pole/zero analysis  
 
 
    input =  0:vinp          output = v(vop)
 
       poles (rad/sec)                 poles ( hertz)
 real            imag            real            imag            
 -100.733m       0.              -16.0322m       0.              
 -1.85786x       0.              -295.687k       0.              
 21.3763x        -103.707x       3.40215x        -16.5055x       
 21.3763x        103.707x        3.40215x        16.5055x        
 -58.4228x       0.              -9.29828x       0.              
 -87.3283x       0.              -13.8987x       0.              
 -200.060x       0.              -31.8406x       0.              
 -216.012x       0.              -34.3794x       0.              
 -229.888x       0.              -36.5878x       0.              
 -450.406x       0.              -71.6843x       0.              
 -598.476x       0.              -95.2504x       0.              
 -1.76046g       0.              -280.186x       0.              
 
       zeros (rad/sec)                 zeros ( hertz)
 real            imag            real            imag            
 -100.758m       0.              -16.0361m       0.              
 -1.86054x       0.              -296.115k       0.              
 -66.5418x       0.              -10.5905x       0.              
 -85.6563x       49.3761x        -13.6326x       7.85845x        
 -85.6563x       -49.3761x       -13.6326x       -7.85845x       
 -203.698x       0.              -32.4196x       0.              
 -257.731x       0.              -41.0192x       0.              
 -450.368x       0.              -71.6784x       0.              
 -594.353x       0.              -94.5941x       0.              
 1.01843g        1.06474g        162.088x        169.458x        
 1.01843g        -1.06474g       162.088x        -169.458x       
 -1.74621g       0.              -277.918x       0.              
 
  ***** constant factor = 8.51666m
 ******  
 ***myop_2stage

  ******  ac analysis tnom=  25.000 temp=  25.000 *****
   gain=  2.4776E+01    at=  1.0000E+01
               from=  1.0000E+01    to=  1.0000E+12
   gain1st=  2.6533E+01    at=  1.0000E+01
               from=  1.0000E+01    to=  1.0000E+12
   zerodb=  2.5160E+07
   phaseatdb=  2.5790E+02

          ***** job concluded
1****** HSPICE -- B-2008.09-SP1 32-BIT (Nov 24 2008) linux ******               
 ******  
 ***myop_2stage

  ******  job statistics summary tnom=  25.000 temp=  25.000 *****

  ******  HSPICE Threads Information  ******
  Command Line Threads Count:                      0
  Available CPU Count:                            12
  Actual Model Evaluation(Load) Threads Count:     1
  Actual Solver Threads Count:                     1


  ******  Circuit Statistics  ******
  # nodes       =      53  # elements   =      30
  # resistors   =       3  # capacitors =       1  # inductors   =       0
  # mutual_inds =       0  # vccs       =       0  # vcvs        =       0
  # cccs        =       0  # ccvs       =       0  # volt_srcs   =       8
  # curr_srcs   =       2  # diodes     =       0  # bjts        =       0
  # jfets       =       0  # mosfets    =      16  # U elements  =       0
  # T elements  =       0  # W elements =       0  # B elements  =       0
  # S elements  =       0  # P elements =       0  # va device   =       0


  ******  Runtime Statistics (seconds)  ******

  analysis           time    # points   tot. iter  conv.iter
  op point           0.04           1         330
  dc sweep           2.04       20001       40070
  ac analysis        0.24       11001       11001
  readin             0.04
  errchk             0.01
  setup              0.00
  output             0.00


           total memory used          690  kbytes
           total cpu time            2.37 seconds
           total elapsed time        3.13 seconds
           job started at     14:48:10 01/06/2016
           job ended   at     14:48:13 01/06/2016


 Init: hspice initialization file: /usr/cad/synopsys/hspice/cur/hspice/hspice.ini
 lic: Release hspice token(s) 
