Using: /usr/bin/time -p /usr/cad/synopsys/hspice/cur/hspice/linux/hspice My-gm.sp
 ****** HSPICE -- B-2008.09-SP1 32-BIT (Nov 24 2008) linux ******               
  Copyright (C) 2008 Synopsys, Inc. All Rights Reserved.                        
  Unpublished-rights reserved under US copyright laws.
  This program is protected by law and is subject to the 
  terms and conditions of the license agreement from Synopsys.
  Use of this program is your acceptance to be bound by the 
  license agreement. HSPICE is the trademark of Synopsys, Inc.
  Input File: My-gm.sp                                                          
 lic:  
 lic: FLEXlm: v8.5b 
 lic: USER:   m103061608           HOSTNAME: ws42 
 lic: HOSTID: e41f13bfda98         PID:      23483 
 lic: Using FLEXlm license file: 
 lic: 26585@lsnctu 
 lic: Checkout 1 hspice 
 lic: License/Maintenance for hspice will expire on 14-may-2016/2015.06 
 lic: FLOATING license(s) on SERVER lsnctu 
 lic:   
 Init: read install configuration file: /usr/cad/synopsys/hspice/cur/hspice/meta.cfg
 Init: hspice initialization file: /usr/cad/synopsys/hspice/cur/hspice/hspice.ini
 .option runlvl
 .options abstol=1e-7 reltol=1e-7
 + post=1 captab=1 accurate=1 ingold=1 unwrap = 1
 ***netlist***

 *******subckt************
 .subckt gm  vdd vss inp inn io2 io1 ggp ggn vb cc = 0
 .subckt gmx vdd vss in bd gg id sd
 ms  sd  sd bd  bd  pch w = 2u    l = 1u m = 1
 min id  id  sd  in  pch w = 1u    l = 5u m = 1
 mn  id  gg  vss vss nch w = 2u    l = 2u m = 1
 .ends
 *******circuits**********
 mb  bd  vb  vdd vdd pch w = 3u l = 10u   m = 1
 x1  vdd vss inp bd ggp idp sdp gmx
 x2  vdd vss inn bd ggn idn sdn gmx
 v0  idp ggp dc = 0
 v1  idn ggn dc = 0
 ********bump*********
 mb1  bd   ggp  bump vss nch w = 4u l = 1u m = 1   *slightly adjust bump centerization
 mb2  bump ggn  vss  vss  nch w = 5u l = 1u m = 1    *lowering length to lower vth. i guess this help to release vds supression
 ******second stage*****
 mo1  io1  ggn  vss  vss  nch w = 2u l = 2u m = 1
 mo2  io2  ggp  vss  vss  nch w = 2u l = 2u m = 1
 mo3a io1a io1a vdd  vdd  pch w = 0.6u l = 5u m = 1
 mo3  io1  io1  io1a io1a pch w = 0.6u l = 5u m = 1
 mo4a io2a io1a vdd  vdd  pch w = 0.6u l = 5u m = 1
 mo4  io2  io1  io2a io2a pch w = 0.6u l = 5u m = 1
 *cc   io1 gnd  500f        *the small fallen peak btw 10k, 100k can be slightly reduced by this
 *rc   ggn xx  1k
 .ends

 xgm vdd vss inp inn io2 io1 ggp ggn vb gm cc = 500f

 *******output load**************
 *e1 idn gnd opamp ref idn
 *vr ref gnd dc = 0.383
 *rl idn gnd 5k
 e1   io2 gnd opamp ref io2
 vr ref gnd dc = 2

 *******input******************
 .param diff = 0 cm = 2
 vinp inp  vss dc = 'cm-diff'   ac = 1
 vinn inn  vss dc = 'cm+diff'

 ********bias**************
 vbias   vb  gnd dc = 2.701
 *vbias2  vb2 gnd dc = 1.4
 vd      vdd gnd dc = 3.3
 vs      vss gnd dc = 0



 *******
 .op

 .alter


 **warning**  the accurate option increases  the cpu time but the results
                are more accurate.
 ***accurate option sets default value of the options: 
 lvltim= 4         dvdt= 3       relvar= 200.00m absvar= 200.00m
     ft= 200.00m relmos=  10.00m
 (used for FFT control ) fft_accurate= 1
1****** HSPICE -- B-2008.09-SP1 32-BIT (Nov 24 2008) linux ******               
 ******  
 *mygm

  ******  circuit name directory
 circuit number to circuit name directory
   number circuitname                     definition         multiplier
        0 main circuit
        1 xgm.                            gm                 1.00 
        2 xgm.x1.                         gmx                1.00 
        3 xgm.x2.                         gmx                1.00 
 

 
      
  Opening plot unit= 15
 file=My-gm.pa0                                                                

1****** HSPICE -- B-2008.09-SP1 32-BIT (Nov 24 2008) linux ******               
 ******  
 *mygm

  ******  operating point information tnom=  25.000 temp=  25.000 *****
 ***** operating point status is all       simulation time is     0.     
    node    =voltage      node    =voltage      node    =voltage

 +0:ggn     =   0.3084  0:ggp     =   0.3084  0:inn     =   2.0000 
 +0:inp     =   2.0000  0:io1     =   2.0096  0:io2     =   2.0000 
 +0:ref     =   2.0000  0:vb      =   2.7010  0:vdd     =   3.3000 
 +0:vss     =   0.      1:bd      =   1.5892  1:bump    = 1.826e-02
 +1:idn     =   0.3084  1:idp     =   0.3084  1:io1a    =   2.6548 
 +1:io2a    =   2.6548  1:sdn     =   1.0857  1:sdp     =   1.0857 


 maximum nodal capacitance=   9.439E-14         on node     0:vss             

    nodal  capacitance table 

    node    =    cap      node    =    cap      node    =    cap

 +0:ggn     = 1.948e-14 0:ggp     = 1.801e-14 0:inn     = 8.247e-15
 +0:inp     = 8.247e-15 0:io1     = 1.419e-14 0:io2     = 4.014e-15
 +0:ref     =   0.      0:vb      = 3.246e-14 0:vdd     = 6.459e-14
 +0:vss     = 9.439e-14 1:bd      = 3.434e-14 1:bump    = 1.345e-14
 +1:idn     = 1.029e-14 1:idp     = 1.029e-14 1:io1a    = 2.127e-14
 +1:io2a    = 1.109e-14 1:sdn     = 8.119e-15 1:sdp     = 8.119e-15

 

 ****  voltage sources

 subckt                                                                    
 element  0:vr       0:vinp     0:vinn     0:vbias    0:vd       0:vs      
  volts      2.0000     2.0000     2.0000     2.7010     3.3000     0.     
  current    0.      -2.606e-12 -2.606e-12    0.      -5.225e-09  5.225e-09
  power      0.       5.212e-12  5.212e-12    0.       1.724e-08    0.     

 subckt   xgm        xgm       
 element  1:v0       1:v1      
  volts      0.         0.     
  current -3.469e-18    0.     
  power      0.         0.     

     total voltage source power dissipation=  1.725e-08       watts



 **** voltage-controlled voltage sources


 subckt             
 element  0:e1      
  volts      2.0000 
  current  9.370e-13





 **** mosfets


 subckt   xgm        xgm        xgm        xgm        xgm        xgm       
 element  1:mb       1:mb1      1:mb2      1:mo1      1:mo2      1:mo3a    
 model    0:pch.1    0:nch.2    0:nch.2    0:nch.1    0:nch.1    0:pch.7   
 region       Cutoff     Cutoff     Cutoff     Cutoff     Cutoff     Cutoff
  id      -2.923e-09  9.141e-10  9.156e-10  1.146e-09  1.145e-09 -1.148e-09
  ibs      5.971e-22 -2.976e-15 -1.465e-21 -2.143e-21 -2.142e-21  2.661e-22
  ibd      3.723e-16 -1.071e-14 -3.589e-15 -8.159e-14 -7.726e-14  7.991e-17
  vgs       -0.5990     0.2901     0.3084     0.3084     0.3084    -0.6452 
  vds       -1.7108     1.5709   1.826e-02    2.0096     2.0000    -0.6452 
  vbs        0.      -1.826e-02    0.         0.         0.         0.     
  vth       -0.7576     0.5649     0.5648     0.5361     0.5361    -0.8140 
  vdsat   -5.103e-02  4.196e-02  4.196e-02  4.143e-02  4.143e-02 -4.964e-02
  vod        0.1586    -0.2747    -0.2564    -0.2277    -0.2277     0.1688 
  beta     1.949e-05  8.574e-04  1.087e-03  1.936e-04  1.936e-04  7.108e-06
  gam eff    0.4011     0.4675     0.4693     0.4466     0.4466     0.3359 
  gm       5.382e-08  2.611e-08  2.591e-08  3.168e-08  3.166e-08  1.895e-08
  gds      7.091e-11  1.283e-10  3.617e-08  9.564e-11  9.505e-11  4.113e-11
  gmb      1.376e-08  8.242e-09  8.250e-09  9.754e-09  9.747e-09  4.795e-09
  cdtot    3.647e-15  4.804e-15  7.405e-15  2.575e-15  2.576e-15  1.441e-15
  cgtot    3.246e-14  6.266e-15  7.730e-15  5.873e-15  5.873e-15  5.089e-15
  cstot    5.705e-15  6.046e-15  7.445e-15  3.345e-15  3.345e-15  1.800e-15
  cbtot    3.958e-14  1.376e-14  1.840e-14  1.009e-14  1.009e-14  7.854e-15
  cgs      5.582e-16  8.396e-16  1.046e-15  4.270e-16  4.270e-16  1.190e-16
  cgd      5.582e-16  8.396e-16  1.046e-15  4.270e-16  4.270e-16  1.190e-16



 subckt   xgm        xgm        xgm        xgm.x1     xgm.x1     xgm.x1    
 element  1:mo3      1:mo4a     1:mo4      2:ms       2:min      2:mn      
 model    0:pch.7    0:pch.7    0:pch.7    0:pch.2    0:pch.4    0:nch.1   
 region       Cutoff     Cutoff     Cutoff     Cutoff     Cutoff     Cutoff
  id      -1.148e-09 -1.148e-09 -1.148e-09 -1.003e-09 -1.005e-09  1.006e-09
  ibs      2.661e-22  2.661e-22  2.661e-22  2.090e-22  1.159e-16 -1.880e-21
  ibd      7.991e-17  7.991e-17  7.991e-17  2.059e-16  1.159e-16 -3.438e-15
  vgs       -0.6452    -0.6452    -0.6452    -0.5035    -0.7773     0.3084 
  vds       -0.6452    -0.6452    -0.6548    -0.5035    -0.7773     0.3084 
  vbs        0.         0.         0.         0.         0.9143     0.     
  vth       -0.8140    -0.8140    -0.8140    -0.7685    -0.9536     0.5383 
  vdsat   -4.964e-02 -4.964e-02 -4.964e-02 -4.858e-02 -4.956e-02  4.142e-02
  vod        0.1688     0.1688     0.1688     0.2650     0.1763    -0.2299 
  beta     7.108e-06  7.108e-06  7.108e-06  1.062e-04  1.086e-05  1.936e-04
  gam eff    0.3359     0.3359     0.3359     0.3948     0.3463     0.4466 
  gm       1.895e-08  1.895e-08  1.895e-08  2.520e-08  1.818e-08  2.789e-08
  gds      4.113e-11  4.113e-11  4.097e-11  2.236e-10  5.999e-11  8.862e-11
  gmb      4.795e-09  4.795e-09  4.794e-09  5.939e-09  3.118e-09  8.586e-09
  cdtot    1.441e-15  1.441e-15  1.437e-15  3.394e-15  1.573e-15  3.108e-15
  cgtot    5.089e-15  5.089e-15  5.089e-15  2.894e-15  5.610e-15  5.873e-15
  cstot    1.800e-15  1.800e-15  1.800e-15  4.078e-15  1.832e-15  3.345e-15
  cbtot    7.854e-15  7.854e-15  7.851e-15  8.865e-15  8.247e-15  1.062e-14
  cgs      1.190e-16  1.190e-16  1.190e-16  3.751e-16  1.922e-16  4.270e-16
  cgd      1.190e-16  1.190e-16  1.190e-16  3.751e-16  1.922e-16  4.270e-16



 subckt   xgm.x2     xgm.x2     xgm.x2    
 element  3:ms       3:min      3:mn      
 model    0:pch.2    0:pch.4    0:nch.1   
 region       Cutoff     Cutoff     Cutoff
  id      -1.003e-09 -1.005e-09  1.006e-09
  ibs      2.090e-22  1.159e-16 -1.880e-21
  ibd      2.059e-16  1.159e-16 -3.438e-15
  vgs       -0.5035    -0.7773     0.3084 
  vds       -0.5035    -0.7773     0.3084 
  vbs        0.         0.9143     0.     
  vth       -0.7685    -0.9536     0.5383 
  vdsat   -4.858e-02 -4.956e-02  4.142e-02
  vod        0.2650     0.1763    -0.2299 
  beta     1.062e-04  1.086e-05  1.936e-04
  gam eff    0.3948     0.3463     0.4466 
  gm       2.520e-08  1.818e-08  2.789e-08
  gds      2.236e-10  5.999e-11  8.862e-11
  gmb      5.939e-09  3.118e-09  8.586e-09
  cdtot    3.394e-15  1.573e-15  3.108e-15
  cgtot    2.894e-15  5.610e-15  5.873e-15
  cstot    4.078e-15  1.832e-15  3.345e-15
  cbtot    8.865e-15  8.247e-15  1.062e-14
  cgs      3.751e-16  1.922e-16  4.270e-16
  cgd      3.751e-16  1.922e-16  4.270e-16




          ***** job concluded
1****** HSPICE -- B-2008.09-SP1 32-BIT (Nov 24 2008) linux ******               
 ******  
 *mygm

  ******  job statistics summary tnom=  25.000 temp=  25.000 *****

  ******  HSPICE Threads Information  ******
  Command Line Threads Count:                      0
  Available CPU Count:                             8
  Actual Model Evaluation(Load) Threads Count:     1
  Actual Solver Threads Count:                     1


  ******  Circuit Statistics  ******
  # nodes       =      49  # elements   =      24
  # resistors   =       0  # capacitors =       0  # inductors   =       0
  # mutual_inds =       0  # vccs       =       0  # vcvs        =       1
  # cccs        =       0  # ccvs       =       0  # volt_srcs   =       8
  # curr_srcs   =       0  # diodes     =       0  # bjts        =       0
  # jfets       =       0  # mosfets    =      15  # U elements  =       0
  # T elements  =       0  # W elements =       0  # B elements  =       0
  # S elements  =       0  # P elements =       0  # va device   =       0


  ******  Runtime Statistics (seconds)  ******

  analysis           time    # points   tot. iter  conv.iter
  op point           0.00           1          19
  readin             0.03
  errchk             0.01
  setup              0.00
  output             0.00


           total memory used          363  kbytes
           total cpu time            0.04 seconds
           total elapsed time        0.20 seconds
           job started at     18:05:52 02/26/2016
           job ended   at     18:05:53 02/26/2016


1****** HSPICE -- B-2008.09-SP1 32-BIT (Nov 24 2008) linux ******               
 ******  
 

  ******    alter processing listing tnom=  25.000 temp=  25.000 *****
 .lib 'test.l' open
     *.dc va -2 2 0.01
     .dc diff -1 1 0.01 *sweep cm 1 2 0.2
     .probe dc i(e1) i(rl) i(mb)
     *+ idiff = par('i(xgm.x1.mn)-i(xgm.x2.mn)') vdiff = par('v(ggp)-v(ggn)') i(mb1)
     *+ i(mo1) i(mo2) i(mo3) i(mo4) i(x1.mn) i(x2.mn)
     *.print dc i(x1.mn) i(x2.mn) i(mb1)
     .meas dc gm_val derivative i(e1) at  0
 .endl

 .alter   *use gm as low pass filter
 $ alter processing continues $


 **warning**  the accurate option increases  the cpu time but the results
                are more accurate.
 ***accurate option sets default value of the options: 
 lvltim= 4         dvdt= 3       relvar= 200.00m absvar= 200.00m
     ft= 200.00m relmos=  10.00m
 (used for FFT control ) fft_accurate= 1
1****** HSPICE -- B-2008.09-SP1 32-BIT (Nov 24 2008) linux ******               
 ******  
 *mygm

  ******  circuit name directory
 circuit number to circuit name directory
   number circuitname                     definition         multiplier
        0 main circuit
        1 xgm.                            gm                 1.00 
        2 xgm.x1.                         gmx                1.00 
        3 xgm.x2.                         gmx                1.00 
 **warning** could not find branch element     0:rl              
      branch - output ignored
 **warning** could not find branch element     0:mb              
      branch - output ignored
 
      
  Opening plot unit= 15
 file=My-gm.pa1                                                                

 ******  
 *mygm

  ******  dc transfer curves tnom=  25.000 temp=  25.000 *****
   gm_val= -2.8164E-09
1****** HSPICE -- B-2008.09-SP1 32-BIT (Nov 24 2008) linux ******               
 ******  
 *mygm

  ******  operating point information tnom=  25.000 temp=  25.000 *****
 ***** operating point status is all       simulation time is     0.     
    node    =voltage      node    =voltage      node    =voltage

 +0:ggn     =   0.3084  0:ggp     =   0.3084  0:inn     =   2.0000 
 +0:inp     =   2.0000  0:io1     =   2.0096  0:io2     =   2.0000 
 +0:ref     =   2.0000  0:vb      =   2.7010  0:vdd     =   3.3000 
 +0:vss     =   0.      1:bd      =   1.5892  1:bump    = 1.826e-02
 +1:idn     =   0.3084  1:idp     =   0.3084  1:io1a    =   2.6548 
 +1:io2a    =   2.6548  1:sdn     =   1.0857  1:sdp     =   1.0857 


 maximum nodal capacitance=   9.439E-14         on node     0:vss             

    nodal  capacitance table 

    node    =    cap      node    =    cap      node    =    cap

 +0:ggn     = 1.948e-14 0:ggp     = 1.801e-14 0:inn     = 8.247e-15
 +0:inp     = 8.247e-15 0:io1     = 1.419e-14 0:io2     = 4.014e-15
 +0:ref     =   0.      0:vb      = 3.246e-14 0:vdd     = 6.459e-14
 +0:vss     = 9.439e-14 1:bd      = 3.434e-14 1:bump    = 1.345e-14
 +1:idn     = 1.029e-14 1:idp     = 1.029e-14 1:io1a    = 2.127e-14
 +1:io2a    = 1.109e-14 1:sdn     = 8.119e-15 1:sdp     = 8.119e-15

 

 ****  voltage sources

 subckt                                                                    
 element  0:vr       0:vinp     0:vinn     0:vbias    0:vd       0:vs      
  volts      2.0000     2.0000     2.0000     2.7010     3.3000     0.     
  current    0.      -2.606e-12 -2.606e-12    0.      -5.225e-09  5.225e-09
  power      0.       5.212e-12  5.212e-12    0.       1.724e-08    0.     

 subckt   xgm        xgm       
 element  1:v0       1:v1      
  volts      0.         0.     
  current -3.469e-18    0.     
  power      0.         0.     

     total voltage source power dissipation=  1.725e-08       watts



 **** voltage-controlled voltage sources


 subckt             
 element  0:e1      
  volts      2.0000 
  current  9.370e-13





 **** mosfets


 subckt   xgm        xgm        xgm        xgm        xgm        xgm       
 element  1:mb       1:mb1      1:mb2      1:mo1      1:mo2      1:mo3a    
 model    0:pch.1    0:nch.2    0:nch.2    0:nch.1    0:nch.1    0:pch.7   
 region       Cutoff     Cutoff     Cutoff     Cutoff     Cutoff     Cutoff
  id      -2.923e-09  9.141e-10  9.156e-10  1.146e-09  1.145e-09 -1.148e-09
  ibs      5.971e-22 -2.976e-15 -1.465e-21 -2.143e-21 -2.142e-21  2.661e-22
  ibd      3.723e-16 -1.071e-14 -3.589e-15 -8.159e-14 -7.726e-14  7.991e-17
  vgs       -0.5990     0.2901     0.3084     0.3084     0.3084    -0.6452 
  vds       -1.7108     1.5709   1.826e-02    2.0096     2.0000    -0.6452 
  vbs        0.      -1.826e-02    0.         0.         0.         0.     
  vth       -0.7576     0.5649     0.5648     0.5361     0.5361    -0.8140 
  vdsat   -5.103e-02  4.196e-02  4.196e-02  4.143e-02  4.143e-02 -4.964e-02
  vod        0.1586    -0.2747    -0.2564    -0.2277    -0.2277     0.1688 
  beta     1.949e-05  8.574e-04  1.087e-03  1.936e-04  1.936e-04  7.108e-06
  gam eff    0.4011     0.4675     0.4693     0.4466     0.4466     0.3359 
  gm       5.382e-08  2.611e-08  2.591e-08  3.168e-08  3.166e-08  1.895e-08
  gds      7.091e-11  1.283e-10  3.617e-08  9.564e-11  9.505e-11  4.113e-11
  gmb      1.376e-08  8.242e-09  8.250e-09  9.754e-09  9.747e-09  4.795e-09
  cdtot    3.647e-15  4.804e-15  7.405e-15  2.575e-15  2.576e-15  1.441e-15
  cgtot    3.246e-14  6.266e-15  7.730e-15  5.873e-15  5.873e-15  5.089e-15
  cstot    5.705e-15  6.046e-15  7.445e-15  3.345e-15  3.345e-15  1.800e-15
  cbtot    3.958e-14  1.376e-14  1.840e-14  1.009e-14  1.009e-14  7.854e-15
  cgs      5.582e-16  8.396e-16  1.046e-15  4.270e-16  4.270e-16  1.190e-16
  cgd      5.582e-16  8.396e-16  1.046e-15  4.270e-16  4.270e-16  1.190e-16



 subckt   xgm        xgm        xgm        xgm.x1     xgm.x1     xgm.x1    
 element  1:mo3      1:mo4a     1:mo4      2:ms       2:min      2:mn      
 model    0:pch.7    0:pch.7    0:pch.7    0:pch.2    0:pch.4    0:nch.1   
 region       Cutoff     Cutoff     Cutoff     Cutoff     Cutoff     Cutoff
  id      -1.148e-09 -1.148e-09 -1.148e-09 -1.003e-09 -1.005e-09  1.006e-09
  ibs      2.661e-22  2.661e-22  2.661e-22  2.090e-22  1.159e-16 -1.880e-21
  ibd      7.991e-17  7.991e-17  7.991e-17  2.059e-16  1.159e-16 -3.438e-15
  vgs       -0.6452    -0.6452    -0.6452    -0.5035    -0.7773     0.3084 
  vds       -0.6452    -0.6452    -0.6548    -0.5035    -0.7773     0.3084 
  vbs        0.         0.         0.         0.         0.9143     0.     
  vth       -0.8140    -0.8140    -0.8140    -0.7685    -0.9536     0.5383 
  vdsat   -4.964e-02 -4.964e-02 -4.964e-02 -4.858e-02 -4.956e-02  4.142e-02
  vod        0.1688     0.1688     0.1688     0.2650     0.1763    -0.2299 
  beta     7.108e-06  7.108e-06  7.108e-06  1.062e-04  1.086e-05  1.936e-04
  gam eff    0.3359     0.3359     0.3359     0.3948     0.3463     0.4466 
  gm       1.895e-08  1.895e-08  1.895e-08  2.520e-08  1.818e-08  2.789e-08
  gds      4.113e-11  4.113e-11  4.097e-11  2.236e-10  5.999e-11  8.862e-11
  gmb      4.795e-09  4.795e-09  4.794e-09  5.939e-09  3.118e-09  8.586e-09
  cdtot    1.441e-15  1.441e-15  1.437e-15  3.394e-15  1.573e-15  3.108e-15
  cgtot    5.089e-15  5.089e-15  5.089e-15  2.894e-15  5.610e-15  5.873e-15
  cstot    1.800e-15  1.800e-15  1.800e-15  4.078e-15  1.832e-15  3.345e-15
  cbtot    7.854e-15  7.854e-15  7.851e-15  8.865e-15  8.247e-15  1.062e-14
  cgs      1.190e-16  1.190e-16  1.190e-16  3.751e-16  1.922e-16  4.270e-16
  cgd      1.190e-16  1.190e-16  1.190e-16  3.751e-16  1.922e-16  4.270e-16



 subckt   xgm.x2     xgm.x2     xgm.x2    
 element  3:ms       3:min      3:mn      
 model    0:pch.2    0:pch.4    0:nch.1   
 region       Cutoff     Cutoff     Cutoff
  id      -1.003e-09 -1.005e-09  1.006e-09
  ibs      2.090e-22  1.159e-16 -1.880e-21
  ibd      2.059e-16  1.159e-16 -3.438e-15
