 ****** HSPICE -- B-2008.09 32-BIT (Aug 26 2008) winnt ******                   
  Copyright (C) 2008 Synopsys, Inc. All Rights Reserved.                        
  Unpublished-rights reserved under US copyright laws.
  This program is protected by law and is subject to the 
  terms and conditions of the license agreement from Synopsys.
  Use of this program is your acceptance to be bound by the 
  license agreement. HSPICE is the trademark of Synopsys, Inc.
  Input File: c:\users\timer\documents\github\remotehspice\resamp\subt_ramp_swch
 Init: read install configuration file: C:\synopsys\Hspice_B-2008.09\meta.cfg
 Init: hspice initialization file: C:\synopsys\Hspice_B-2008.09\hspice.ini




 .option post acout=0 accurate=1 dcon=1 converge=1 gmindc=1.0000e-12 captab=1 unwrap=1
 + ingold=1

 mc0 cp cp vdd vdd pch w = 1.5u l = 1u m = 1
 mc1 cn cp vdd vdd pch w = 1.5u l = 1u m = 4
 mc2 cn cn vss vss nch w = 3.5u l = 5u m = 1
 iin cp vss 1u


 .subckt bias vdd vss c1 c2 cp cn
 md1 c1  cp  vdd vdd pch w = 1.5u l = 1u m = 1
 md2 c1  c1  vss vss nch w = 5u   l = 3u m = 3
 md3 c2  c1  vss vss nch w = 5u   l = 3u m = 1
 md4 c2  c2  vdd vdd pch w = 5u   l = 3u m = 2
 .ends

 .subckt subtractor vdd vss vb1 vb2 vx vy vz out
 mb d2  vb1 vdd vdd pch w = 5u l = 3u m = 3
 m1 d3  vx  d2  d2  pch w = 5u l = 3u m = 1
 m2 out vy  d2  d2  pch w = 5u l = 3u m = 1
 m3 vg  vg  vz  vz  pch w = 5u l = 3u m = 1
 m4 vss vg  out out pch w = 5u l = 3u m = 1
 m7 d6  d3  vss vss nch w = 5u l = 3u m = 8
 m8 d7  d3  vss vss nch w = 5u l = 3u m = 8
 m5 d3  vb2 d6  vss nch w = 5u l = 3u m = 8
 m6 vg  vb2 d7  vss nch w = 5u l = 3u m = 8
 .ends

 .subckt rp vdd vss vip vi out c2
 mb b   c2  vdd vdd pch w = 5u l = 3u m = 3
 m1 op  vin b   b   pch w = 5u l = 3u m = 1
 m2 o1  vip b   b   pch w = 5u l = 3u m = 1
 m3 op  op  vss vss nch w = 5u l = 3u m = 1
 m4 o1  op  vss vss nch w = 5u l = 3u m = 1

 map out c2  vdd vdd pch w = 5u l = 3u m = 4
 man out o1  vss vss nch w = 5u l = 3u m = 2
 ro  out vinn 1000k
 ri  vi  vinn 10k

 .ends

 *.subckt buf vdd vss vin out c1 c2 vz
 *m4  o1  op  vdd vdd pch w = 5u l = 3u m = 1
 *m3  op  op  vdd vdd pch w = 5u l = 3u m = 1
 *m2  o1  vin b   vss nch w = 5u l = 3u m = 2
 *m1  op  out b   vss nch w = 5u l = 3u m = 2
 *mb  b   c1  vss vss nch w = 5u l = 3u m = 4
 *map out o1  vdd vdd pch w = 5u l = 3u m = 4
 *man out c2  vss vss nch w = 5u l = 3u m = 2
 *ro out vz 10k
 *.ends

 .subckt buf vdd vss vin out c1 c2 vz
 mb b   c2  vdd vdd pch w = 5u l = 3u m = 3
 m1 op  out b   b   pch w = 5u l = 3u m = 4
 m2 o1  vin b   b   pch w = 5u l = 3u m = 4
 m3 op  op  vss vss nch w = 5u l = 3u m = 1
 m4 o1  op  vss vss nch w = 5u l = 3u m = 1
 map out c2  vdd vdd pch w = 5u l = 3u m = 4
 man out o1  vss vss nch w = 5u l = 3u m = 1
 ro out vz 10k
 .ends

 *.subckt buf vdd vss vin out c1
 *mr vss vin out out pch w = 1u l = 20u m = 1
 *mp out out vdd vdd pch w = 1u l = 20u m = 1
 *.ends

 xbs vdd vss c1 c2 cp cn bias
 xsub0 vdd vss c2 c1 in cn vz sout subtractor
 xbuf vdd vss sout bout c1 cp vz buf
 xrp vdd vss vz bout out c2 rp
 *xbuf_ref vdd vss vz rp_ref c1 buf

 vd vdd vss dc = 3.3
 vs vss gnd dc = 0

 vin in vss dc = 0.797 ac = 1
 vb  vz vss dc = 1

 xbuf_test vdd vss bin_t bout_t c1 c2 vz buf
 vt in bin_t dc = 0


 .op
 .dc vin 0 3.3 0.001
 .probe i(xrp.ri) v(xrp.vinn)

 .end


 **warning**  the accurate option increases  the cpu time but the results
                are more accurate.
 ***accurate option sets default value of the options: 
 lvltim= 4         dvdt= 3       relvar= 200.00m absvar= 200.00m
     ft= 200.00m relmos=  10.00m
 (used for FFT control ) fft_accurate= 1
1****** HSPICE -- B-2008.09 32-BIT (Aug 26 2008) winnt ******                   
 ******  
 ***subtractor + switch + resamp

  ******  circuit name directory
 circuit number to circuit name directory
   number circuitname                     definition         multiplier
        0 main circuit
        1 xbs.                            bias               1.00 
        2 xsub0.                          subtractor         1.00 
        3 xbuf.                           buf                1.00 
        4 xrp.                            rp                 1.00 
        5 xbuf_test.                      buf                1.00 
 

 

 **warning** the following singular supplies were terminated to 1 meg resistor 
   supply       node1            node2
  vs                      0:vss              defined in subckt 0                     0:0                defined in subckt 0               
      
  Opening plot unit= 79
 file=c:\users\timer\documents\github\remotehspice\resamp\subt_ramp_swch.pa0   

  *** initial damped pseudo transient completed. ***
  *** final try started ***
1****** HSPICE -- B-2008.09 32-BIT (Aug 26 2008) winnt ******                   
 ******  
 ***subtractor + switch + resamp

  ******  operating point information tnom=  25.000 temp=  25.000 *****
 ***** operating point status is all       simulation time is     0.     
    node    =voltage      node    =voltage      node    =voltage

 +0:bin_t   =   0.7970  0:bout    =   0.9980  0:bout_t  =   0.7994 
 +0:c1      =   0.5284  0:c2      =   2.5517  0:cn      =   0.7967 
 +0:cp      =   2.3955  0:in      =   0.7970  0:out     =   1.9006 
 +0:sout    =   0.9974  0:vdd     =   3.3000  0:vss     =   0.     
 +0:vz      =   1.0000  2:d2      =   1.5745  2:d3      =   0.4278 
 +2:d6      = 7.923e-02 2:d7      = 7.865e-02 2:vg      =   0.2212 
 +3:b       =   1.8175  3:o1      =   0.7555  3:op      =   0.6430 
 +4:b       =   0.8331  4:o1      = 1.121e-07 4:op      =   0.5602 
 +4:vin     =   0.      4:vinn    =   1.0069  5:b       =   1.4910 
 +5:o1      =   0.9108  5:op      =   0.5210 


 maximum nodal capacitance=   1.916E-12         on node     0:vss             

    nodal  capacitance table 

    node    =    cap      node    =    cap      node    =    cap

 +0:bin_t   = 6.287e-14 0:bout    = 1.890e-13 0:bout_t  = 8.979e-14
 +0:c1      = 3.839e-13 0:c2      = 3.127e-13 0:cn      = 1.012e-13
 +0:cp      = 3.718e-13 0:in      = 2.784e-14 0:out     = 3.565e-14
 +0:sout    = 2.250e-13 0:vdd     = 1.379e-12 0:vss     = 1.916e-12
 +0:vz      = 8.575e-14 2:d2      = 1.308e-13 2:d3      = 3.593e-13
 +2:d6      = 1.165e-13 2:d7      = 1.165e-13 2:vg      = 1.188e-13
 +3:b       = 6.330e-13 3:o1      = 8.410e-14 3:op      = 1.271e-13
 +4:b       = 1.466e-13 4:o1      = 7.627e-14 4:op      = 7.669e-14
 +4:vin     = 4.271e-14 4:vinn    =   0.      5:b       = 3.120e-13
 +5:o1      = 8.772e-14 5:op      = 6.934e-14

 

 ****  voltage sources

 subckt                                                         
 element  0:vd       0:vs       0:vin      0:vb       0:vt      
  volts      3.3000     0.         0.7970     1.0000     0.     
  current -2.301e-05 -2.367e-16    0.      -2.061e-05    0.     
  power    7.594e-05    0.         0.       2.061e-05    0.     

     total voltage source power dissipation=  9.655e-05       watts



 ***** current sources

 subckt             
 element  0:iin     
  volts      2.3955 
  current  1.000e-06
  power   -2.396e-06


     total current source power dissipation=-2.396e-06       watts

 **** resistors

 subckt   xbuf       xrp        xrp        xbuf_test 
 element  3:ro       4:ro       4:ri       5:ro      
  r value  1.000e+04  1.000e+06  1.000e+04  1.000e+04
  v drop  -1.999e-03    0.8937  -8.937e-03   -0.2006 
  current -1.999e-07  8.937e-07 -8.937e-07 -2.006e-05
  power    3.996e-10  7.987e-07  7.987e-09  4.025e-06



 **** mosfets


 subckt                                    xbs        xbs        xbs       
 element  0:mc0      0:mc1      0:mc2      1:md1      1:md2      1:md3     
 model    0:pch.2    0:pch.2    0:nch.1    0:pch.2    0:nch.1    0:nch.1   
 region     Saturati   Saturati   Saturati   Saturati     Cutoff     Cutoff
  id      -1.000e-06 -4.612e-06  4.612e-06 -1.177e-06  1.177e-06  4.306e-07
  ibs      2.118e-19  9.769e-19 -7.736e-18  2.494e-19 -1.883e-18 -6.888e-19
  ibd      1.610e-16  3.871e-11 -5.247e-15  2.459e-11 -2.116e-14 -2.129e-10
  vgs       -0.9045    -0.9045     0.7967    -0.9045     0.5284     0.5284 
  vds       -0.9045    -2.5033     0.7967    -2.7716     0.5284     2.5517 
  vbs        0.         0.         0.         0.         0.         0.     
  vth       -0.7709    -0.7603     0.5355    -0.7585     0.5422     0.5400 
  vdsat     -0.1795    -0.1881     0.2588    -0.1895   6.945e-02  7.028e-02
  vod       -0.1336    -0.1441     0.2612    -0.1459  -1.382e-02 -1.162e-02
  beta     7.484e-05  2.998e-04  1.363e-04  7.497e-05  1.028e-03  3.427e-04
  gam eff    0.3947     0.3947     0.4573     0.3947     0.4619     0.4619 
  gm       1.056e-05  4.685e-05  3.155e-05  1.188e-05  2.269e-05  8.179e-06
  gds      1.076e-07  3.645e-07  4.928e-08  9.095e-08  4.918e-08  3.965e-08
  gmb      2.295e-06  1.016e-05  9.246e-06  2.577e-06  6.825e-06  2.462e-06
  cdtot    2.444e-15  7.463e-15  4.630e-15  1.807e-15  1.991e-14  5.506e-15
  cgtot    5.271e-15  2.109e-14  6.111e-14  5.271e-15  5.433e-14  1.811e-14
  cstot    8.097e-15  3.239e-14  7.412e-14  8.097e-15  2.234e-14  7.445e-15
  cbtot    6.878e-15  2.520e-14  3.130e-14  6.241e-15  8.402e-14  2.688e-14
  cgs      4.109e-15  1.644e-14  5.240e-14  4.109e-15  3.138e-15  1.046e-15
  cgd      2.837e-16  1.135e-15  7.365e-16  2.837e-16  3.138e-15  1.046e-15



 subckt   xbs        xsub0      xsub0      xsub0      xsub0      xsub0     
 element  1:md4      2:mb       2:m1       2:m2       2:m3       2:m4      
 model    0:pch.1    0:pch.1    0:pch.1    0:pch.1    0:pch.1    0:pch.1   
 region       Cutoff     Cutoff   Saturati   Saturati   Saturati   Saturati
  id      -4.308e-07 -6.817e-07 -3.456e-07 -3.361e-07 -3.454e-07 -3.361e-07
  ibs      8.653e-20  1.369e-19  6.942e-20  6.751e-20  6.936e-20  6.751e-20
  ibd      9.518e-16  5.244e-14  5.082e-16  4.759e-16  4.759e-16  4.775e-16
  vgs       -0.7483    -0.7483    -0.7775    -0.7778    -0.7788    -0.7761 
  vds       -0.7483    -1.7255    -1.1467    -0.5771    -0.7788    -0.9974 
  vbs        0.         0.         0.         0.         0.         0.     
  vth       -0.7532    -0.7505    -0.7521    -0.7536    -0.7531    -0.7525 
  vdsat   -8.813e-02 -8.933e-02   -0.1032    -0.1025    -0.1033    -0.1022 
  vod      4.855e-03  2.211e-03 -2.538e-02 -2.413e-02 -2.568e-02 -2.364e-02
  beta     2.137e-04  3.207e-04  1.066e-04  1.066e-04  1.066e-04  1.066e-04
  gam eff    0.4071     0.4071     0.4071     0.4071     0.4071     0.4071 
  gm       6.869e-06  1.081e-05  5.155e-06  5.028e-06  5.147e-06  5.035e-06
  gds      2.621e-08  3.488e-08  1.806e-08  2.131e-08  1.987e-08  1.819e-08
  gmb      1.657e-06  2.607e-06  1.231e-06  1.201e-06  1.229e-06  1.203e-06
  cdtot    1.392e-14  1.714e-14  6.349e-15  7.292e-15  6.907e-15  6.557e-15
  cgtot    3.087e-14  4.630e-14  2.784e-14  2.796e-14  2.840e-14  2.723e-14
  cstot    1.792e-14  2.688e-14  2.846e-14  2.866e-14  2.935e-14  2.752e-14
  cbtot    5.531e-14  7.922e-14  2.779e-14  2.874e-14  2.838e-14  2.796e-14
  cgs      1.848e-15  2.772e-15  1.618e-14  1.634e-14  1.687e-14  1.544e-14
  cgd      1.848e-15  2.772e-15  9.242e-16  9.242e-16  9.242e-16  9.242e-16



 subckt   xsub0      xsub0      xsub0      xsub0      xbuf       xbuf      
 element  2:m7       2:m8       2:m5       2:m6       3:mb       3:m1      
 model    0:nch.1    0:nch.1    0:nch.1    0:nch.1    0:pch.1    0:pch.1   
 region       Cutoff     Cutoff     Cutoff     Cutoff   Saturati   Saturati
  id       3.456e-07  3.454e-07  3.456e-07  3.454e-07 -5.012e-06 -2.502e-06
  ibs     -5.529e-19 -5.525e-19 -5.386e-14 -5.380e-14  1.006e-18  5.025e-19
  ibd     -5.386e-14 -5.380e-14 -5.644e-14 -5.643e-14  1.691e-14  2.148e-15
  vgs        0.4278     0.4278     0.4492     0.4498    -0.9045    -0.8195 
  vds      7.923e-02  7.865e-02    0.3486     0.1426    -1.4825    -1.1745 
  vbs        0.         0.      -7.923e-02 -7.865e-02    0.         0.     
  vth        0.5427     0.5427     0.5658     0.5659    -0.7512    -0.7520 
  vdsat    4.710e-02  4.710e-02  4.724e-02  4.728e-02   -0.1933    -0.1287 
  vod       -0.1149    -0.1149    -0.1166    -0.1161    -0.1533  -6.750e-02
  beta     2.746e-03  2.746e-03  2.739e-03  2.739e-03  3.151e-04  4.246e-04
  gam eff    0.4619     0.4619     0.4598     0.4598     0.4071     0.4071 
  gm       7.982e-06  7.975e-06  8.076e-06  8.060e-06  4.873e-05  3.305e-05
  gds      4.757e-07  4.876e-07  1.997e-08  7.121e-08  1.783e-07  1.185e-07
  gmb      2.435e-06  2.433e-06  2.367e-06  2.362e-06  1.127e-05  7.788e-06
  cdtot    5.825e-14  5.825e-14  5.401e-14  5.627e-14  1.786e-14  2.525e-14
  cgtot    1.495e-13  1.495e-13  1.449e-13  1.449e-13  1.447e-13  1.617e-13
  cstot    5.956e-14  5.956e-14  5.825e-14  5.825e-14  1.814e-13  1.928e-13
  cbtot    2.338e-13  2.338e-13  2.237e-13  2.259e-13  8.569e-14  1.140e-13
  cgs      8.368e-15  8.368e-15  8.368e-15  8.368e-15  1.239e-13  1.266e-13
  cgd      8.368e-15  8.368e-15  8.368e-15  8.368e-15  2.772e-15  3.697e-15



 subckt   xbuf       xbuf       xbuf       xbuf       xbuf       xrp       
 element  3:m2       3:m3       3:m4       3:map      3:man      4:mb      
 model    0:pch.1    0:nch.1    0:nch.1    0:pch.1    0:nch.1    0:pch.1   
 region     Saturati   Saturati   Saturati   Saturati   Saturati     Cutoff
  id      -2.509e-06  2.502e-06  2.509e-06 -6.868e-06  7.961e-06 -7.074e-07
  ibs      5.040e-19 -4.002e-18 -4.013e-18  1.379e-18 -1.272e-17  1.421e-19
  ibd      1.931e-15 -7.055e-15 -7.055e-15  7.728e-12 -7.072e-15  2.363e-12
  vgs       -0.8201     0.6430     0.6430    -0.9045     0.7555    -0.7483 
  vds       -1.0620     0.6430     0.7555    -2.3020     0.9980    -2.4669 
  vbs        0.         0.         0.         0.         0.         0.     
  vth       -0.7523     0.5421     0.5420    -0.7490     0.5417    -0.7485 
  vdsat     -0.1290     0.1329     0.1330    -0.1952     0.2186  -9.025e-02
  vod     -6.782e-02    0.1009     0.1010    -0.1555     0.2138   2.057e-04
  beta     4.246e-04  3.406e-04  3.406e-04  4.203e-04  3.376e-04  3.209e-04
  gam eff    0.4071     0.4619     0.4619     0.4071     0.4619     0.4071 
  gm       3.311e-05  3.217e-05  3.223e-05  6.624e-05  6.416e-05  1.117e-05
  gds      1.219e-07  6.717e-08  6.477e-08  2.187e-07  1.305e-07  3.458e-08
  gmb      7.801e-06  9.559e-06  9.579e-06  1.531e-05  1.889e-05  2.693e-06
  cdtot    2.586e-14  6.519e-15  6.416e-15  2.101e-14  6.226e-15  1.543e-14
  cgtot    1.622e-13  4.769e-14  4.769e-14  1.930e-13  5.182e-14  4.630e-14
  cstot    1.936e-13  5.809e-14  5.809e-14  2.418e-13  6.515e-14  2.688e-14
  cbtot    1.147e-13  3.050e-14  3.040e-14  1.114e-13  3.047e-14  7.751e-14
  cgs      1.272e-13  3.894e-14  3.894e-14  1.653e-13  4.433e-14  2.772e-15
  cgd      3.697e-15  1.046e-15  1.046e-15  3.697e-15  1.046e-15  2.772e-15



 subckt   xrp        xrp        xrp        xrp        xrp        xrp       
 element  4:m1       4:m2       4:m3       4:m4       4:map      4:man     
 model    0:pch.1    0:pch.1    0:nch.1    0:nch.1    0:pch.1    0:nch.1   
 region     Saturati     Cutoff   Saturati     Linear     Cutoff     Cutoff
  id      -7.074e-07 -2.785e-17  7.074e-07  1.669e-12 -8.937e-07  6.432e-13
  ibs      1.421e-19  1.674e-25 -1.132e-18 -2.666e-24  1.795e-19 -7.110e-24
  ibd      4.759e-16  4.759e-16 -7.055e-15 -3.077e-20  5.393e-15 -1.412e-14
  vgs       -0.8331     0.1669     0.5602     0.5602    -0.7483   1.121e-07
  vds       -0.2729    -0.8331     0.5602   1.121e-07   -1.3994     1.9006 
  vbs        0.         0.         0.         0.         0.         0.     
  vth       -0.7545    -0.7529     0.5422     0.5428    -0.7514     0.5407 
  vdsat     -0.1363  -4.707e-02  8.314e-02  8.284e-02 -8.893e-02  4.252e-02
  vod     -7.868e-02    0.9198   1.804e-02  1.744e-02  3.094e-03   -0.5407 
  beta     1.059e-04  1.076e-04  3.422e-04  3.421e-04  4.276e-04  6.870e-04
  gam eff    0.4071     0.4071     0.4619     0.4619     0.4071     0.4619 
  gm       8.973e-06  7.719e-16  1.247e-05  2.087e-11  1.420e-05  1.892e-11
  gds      8.555e-08  2.543e-18  2.641e-08  1.489e-05  4.731e-08  3.966e-14
  gmb      2.107e-06  3.043e-16  3.738e-06  6.369e-12  3.424e-06  6.713e-12
  cdtot    8.033e-15  6.814e-15  6.602e-15  2.514e-14  2.417e-14  1.148e-14
  cgtot    4.271e-14  2.803e-14  2.812e-14  3.393e-14  6.173e-14  4.432e-14
  cstot    5.179e-14  8.959e-15  2.467e-14  2.627e-14  3.584e-14  1.489e-14
  cbtot    3.036e-14  4.010e-14  2.883e-14  2.994e-14  1.070e-13  6.232e-14
  cgs      3.447e-14  9.242e-16  1.391e-14  1.118e-14  3.697e-15  2.092e-15
  cgd      9.242e-16  9.242e-16  1.046e-15  1.118e-14  3.697e-15  2.092e-15



 subckt   xbuf_test  xbuf_test  xbuf_test  xbuf_test  xbuf_test  xbuf_test 
 element  5:mb       5:m1       5:m2       5:m3       5:m4       5:map     
 model    0:pch.1    0:pch.1    0:pch.1    0:nch.1    0:nch.1    0:pch.1   
 region       Cutoff     Cutoff     Cutoff     Cutoff     Cutoff     Cutoff
  id      -6.846e-07 -3.396e-07 -3.451e-07  3.396e-07  3.451e-07 -9.448e-07
  ibs      1.375e-19  6.821e-20  6.931e-20 -5.432e-19 -5.520e-19  1.898e-19
  ibd      9.314e-14  1.905e-15  1.904e-15 -7.055e-15 -7.061e-15  3.558e-12
  vgs       -0.7483    -0.6916    -0.6940     0.5210     0.5210    -0.7483 
  vds       -1.8090    -0.9700    -0.5802     0.5210     0.9108    -2.5006 
  vbs        0.         0.         0.         0.         0.         0.     
  vth       -0.7503    -0.7526    -0.7536     0.5422     0.5418    -0.7484 
  vdsat   -8.943e-02 -6.793e-02 -6.829e-02  6.675e-02  6.690e-02 -9.029e-02
  vod      1.986e-03  6.092e-02  5.960e-02 -2.126e-02 -2.083e-02  1.143e-04
  beta     3.208e-04  4.289e-04  4.287e-04  3.427e-04  3.427e-04  4.279e-04
  gam eff    0.4071     0.4071     0.4071     0.4619     0.4619     0.4071 
  gm       1.085e-05  5.869e-06  5.956e-06  6.662e-06  6.753e-06  1.492e-05
  gds      3.479e-08  2.065e-08  2.368e-08  1.453e-08  1.387e-08  4.612e-08
  gmb      2.617e-06  1.439e-06  1.459e-06  2.005e-06  2.033e-06  3.595e-06
  cdtot    1.691e-14  2.639e-14  2.914e-14  6.644e-15  6.290e-15  2.048e-14
  cgtot    4.630e-14  6.292e-14  6.287e-14  1.815e-14  1.815e-14  6.173e-14
  cstot    2.688e-14  3.584e-14  3.584e-14  7.445e-15  7.445e-15  3.584e-14
  cbtot    7.900e-14  1.104e-13  1.131e-13  2.806e-14  2.770e-14  1.033e-13
  cgs      2.772e-15  3.697e-15  3.697e-15  1.046e-15  1.046e-15  3.697e-15
  cgd      2.772e-15  3.697e-15  3.697e-15  1.046e-15  1.046e-15  3.697e-15



 subckt   xbuf_test 
 element  5:man     
 model    0:nch.1   
 region     Saturati
  id       2.101e-05
  ibs     -3.353e-17
  ibd     -7.055e-15
  vgs        0.9108 
  vds        0.7994 
  vbs        0.     
  vth        0.5420 
  vdsat      0.3434 
  vod        0.3689 
  beta     3.329e-04
  gam eff    0.4619 
  gm       1.035e-04
  gds      2.953e-07
  gmb      3.020e-05
  cdtot    6.379e-15
  cgtot    5.229e-14
  cstot    6.594e-14
  cbtot    3.051e-14
  cgs      4.508e-14
  cgd      1.046e-15




          ***** job concluded
1****** HSPICE -- B-2008.09 32-BIT (Aug 26 2008) winnt ******                   
 ******  
 ***subtractor + switch + resamp

  ******  job statistics summary tnom=  25.000 temp=  25.000 *****

  ******  HSPICE Threads Information  ******
  Command Line Threads Count:                      0
  Available CPU Count:                             4
  Actual Model Evaluation(Load) Threads Count:     1
  Actual Solver Threads Count:                     1


  ******  Circuit Statistics  ******
  # nodes       =     104  # elements   =      48
  # resistors   =       5  # capacitors =       0  # inductors   =       0
  # mutual_inds =       0  # vccs       =       0  # vcvs        =       0
  # cccs        =       0  # ccvs       =       0  # volt_srcs   =       5
  # curr_srcs   =       1  # diodes     =       0  # bjts        =       0
  # jfets       =       0  # mosfets    =      37  # U elements  =       0
