 ****** HSPICE -- B-2008.09 32-BIT (Aug 26 2008) winnt ******                   
  Copyright (C) 2008 Synopsys, Inc. All Rights Reserved.                        
  Unpublished-rights reserved under US copyright laws.
  This program is protected by law and is subject to the 
  terms and conditions of the license agreement from Synopsys.
  Use of this program is your acceptance to be bound by the 
  license agreement. HSPICE is the trademark of Synopsys, Inc.
  Input File: c:\users\timer\documents\github\remotehspice\resamp\subt_ramp_swch
 Init: read install configuration file: C:\synopsys\Hspice_B-2008.09\meta.cfg
 Init: hspice initialization file: C:\synopsys\Hspice_B-2008.09\hspice.ini




 .option post acout=0 accurate=1 dcon=1 converge=1 gmindc=1.0000e-12 captab=1 unwrap=1
 + ingold=1

 mc0 cp cp vdd vdd pch w = 1.5u l = 1u m = 1
 mc1 cn cp vdd vdd pch w = 1.5u l = 1u m = 4
 mc2 cn cn vss vss nch w = 3.5u l = 5u m = 1
 iin cp vss 1u


 .subckt bias vdd vss c1 c2 cp cn
 md1 c1  cp  vdd vdd pch w = 1.5u l = 1u m = 1
 md2 c1  c1  vss vss nch w = 5u   l = 3u m = 3
 md3 c2  c1  vss vss nch w = 5u   l = 3u m = 1
 md4 c2  c2  vdd vdd pch w = 5u   l = 3u m = 2
 .ends

 .subckt subtractor vdd vss c1 c2 vx vy vz out
 mb b   c2  vdd vdd pch w = 5u l = 3u m = 3
 m1 d3  vx  b   b   pch w = 5u l = 6u m = 1
 m2 out vy  b   b   pch w = 5u l = 6u m = 1
 m3 vg  vg  vz  vz  pch w = 5u l = 6u m = 1
 m4 vss vg  out out pch w = 5u l = 6u m = 1
 m7 d6  d3  vss vss nch w = 5u l = 3u m = 8
 m8 d7  d3  vss vss nch w = 5u l = 3u m = 8
 m5 d3  c1  d6  vss nch w = 5u l = 3u m = 8
 m6 vg  c1  d7  vss nch w = 5u l = 3u m = 8
 .ends

 .subckt rp vdd vss vip vi out c2 en en2
 mb b   c2  vdd vdd pch w = 5u l = 3u m = 3
 m1 m   vin b   b   pch w = 5u l = 3u m = 4
 m2 o1  vi  b   b   pch w = 5u l = 3u m = 4
 m3 m   m   vss vss nch w = 5u l = 3u m = 1
 m4 o1  m   vss vss nch w = 5u l = 3u m = 1
 map out c2  vdd vdd pch w = 5u l = 1u m = 4
 man out o1  vss vss nch w = 5u l = 1u m = 3
 ro  vin  out 1000k
 ri2 sw1   vip 100k
 ri3 sw2  vip 10k
 cc  out c   350f
 rc o1  c   50k
 xs1 vdd vss en sw1 vin switch
 xs2 vdd vss en2 sw2 vin switch
 .ends

 .subckt switch vdd vss en in out
 mip eo  en  vdd vdd pch w = 2.3u l = 0.35u
 min eo  en  vss vss nch w = 1u l = 0.35u
 msp in  eo  out vdd pch w = 2.3u l = 0.35u m = 2
 msn in  en  out vss nch w = 1u l = 0.35u m = 2
 .ends
 .subckt switch2 vdd vss en in out
 mip en  eo  vdd vdd pch w = 2.3u l = 0.35u
 min en  eo  vss vss nch w = 1u l = 0.35u
 msp in  eo  out vdd pch w = 2.3u l = 0.35u m = 2
 msn in  en  out vss nch w = 1u l = 0.35u m = 2
 .ends


 xbs vdd vss c1 c2 cp cn bias
 xsub0 vdd vss c1 c2 in cn vz sout subtractor
 xrp vdd vss vz sout out c2 en en2 rp
 *xs2 vdd vss en2 out sout switch

 vd vdd vss dc = 3.3
 vs vss gnd dc = 0

 ven en vss dc = 3.3 *pulse(0 3.3 1us 1us 1us 988us 2ms)
 ven2 en2 vss dc = 3.3
 vin in vss dc = 0 ac = 1
 vb  vz vss dc = 1.1

 .op
 .dc vin 0 2.3 0.001
 .ac dec 1000 10 1g
 .probe i(xrp.ri) v(xrp.vinn)

 .end


 **warning**  the accurate option increases  the cpu time but the results
                are more accurate.
 ***accurate option sets default value of the options: 
 lvltim= 4         dvdt= 3       relvar= 200.00m absvar= 200.00m
     ft= 200.00m relmos=  10.00m
 (used for FFT control ) fft_accurate= 1
1****** HSPICE -- B-2008.09 32-BIT (Aug 26 2008) winnt ******                   
 ******  
 ***subtractor + switch + resamp

  ******  circuit name directory
 circuit number to circuit name directory
   number circuitname                     definition         multiplier
        0 main circuit
        1 xbs.                            bias               1.00 
        2 xsub0.                          subtractor         1.00 
        3 xrp.                            rp                 1.00 
        4 xrp.xs1.                        switch             1.00 
        5 xrp.xs2.                        switch             1.00 
 

 **warning** could not find branch element     3:ri              
      branch - output ignored
 **warning**  attempt to reference undefined node     3:vinn            
  in the definition of v(vinn,0)
   branch - output ignored

 **warning** print/plot=out0         of analysis=ac  
 contains unused outputs
 this entire output statement is ignored

 

 **warning** the following singular supplies were terminated to 1 meg resistor 
   supply       node1            node2
  vs                      0:vss              defined in subckt 0                     0:0                defined in subckt 0               
      
  Opening plot unit= 79
 file=c:\users\timer\documents\github\remotehspice\resamp\subt_ramp_swch.pa0   

  *** initial damped pseudo transient completed. ***
  *** final try started ***
1****** HSPICE -- B-2008.09 32-BIT (Aug 26 2008) winnt ******                   
 ******  
 ***subtractor + switch + resamp

  ******  operating point information tnom=  25.000 temp=  25.000 *****
 ***** operating point status is all       simulation time is     0.     
    node    =voltage      node    =voltage      node    =voltage

 +0:c1      =   0.5284  0:c2      =   2.5517  0:cn      =   0.7967 
 +0:cp      =   2.3955  0:en      =   3.3000  0:en2     =   3.3000 
 +0:in      =   0.      0:out     = 1.371e-03 0:sout    =   0.3881 
 +0:vdd     =   3.3000  0:vss     =   0.      0:vz      =   1.1000 
 +2:b       =   0.8884  2:d3      =   0.4628  2:d6      = 5.512e-02
 +2:d7      = 5.457e-02 2:vg      =   0.2131  3:b       =   1.7779 
 +3:c       =   1.7765  3:m       =   0.5193  3:o1      =   1.7765 
 +3:sw1     =   1.0893  3:sw2     =   1.0902  3:vin     =   1.0892 
 +4:eo      = 1.039e-08 5:eo      = 1.039e-08


 maximum nodal capacitance=   1.528E-12         on node     0:vss             

    nodal  capacitance table 

    node    =    cap      node    =    cap      node    =    cap

 +0:c1      = 3.839e-13 0:c2      = 1.671e-13 0:cn      = 1.146e-13
 +0:cp      = 3.407e-14 0:en      = 7.959e-15 0:en2     = 7.959e-15
 +0:in      = 9.477e-14 0:out     = 4.491e-13 0:sout    = 3.464e-13
 +0:vdd     = 5.145e-13 0:vss     = 1.528e-12 0:vz      = 1.571e-13
 +2:b       = 2.369e-13 2:d3      = 3.569e-13 2:d6      = 1.173e-13
 +2:d7      = 1.173e-13 2:vg      = 1.967e-13 3:b       = 5.656e-13
 +3:c       = 3.500e-13 3:m       = 6.779e-14 3:o1      = 3.408e-13
 +3:sw1     = 1.123e-14 3:sw2     = 1.123e-14 3:vin     = 8.561e-14
 +4:eo      = 8.261e-15 5:eo      = 8.261e-15

 

 ****  voltage sources

 subckt                                                                    
 element  0:vd       0:vs       0:ven      0:ven2     0:vin      0:vb      
  volts      3.3000     0.         3.3000     3.3000     0.         1.1000 
  current -1.145e-05  1.007e-16    0.         0.         0.      -1.791e-06
  power    3.780e-05    0.         0.         0.         0.       1.970e-06

     total voltage source power dissipation=  3.977e-05       watts



 ***** current sources

 subckt             
 element  0:iin     
  volts      2.3955 
  current  1.000e-06
  power   -2.396e-06


     total current source power dissipation=-2.396e-06       watts

 **** resistors

 subckt   xrp        xrp        xrp        xrp       
 element  3:ro       3:ri2      3:ri3      3:rc      
  r value  1.000e+06  1.000e+05  1.000e+04  5.000e+04
  v drop     1.0878  -1.073e-02 -9.805e-03    0.     
  current  1.088e-06 -1.073e-07 -9.805e-07    0.     
  power    1.183e-06  1.151e-09  9.614e-09    0.     



 **** mosfets


 subckt                                    xbs        xbs        xbs       
 element  0:mc0      0:mc1      0:mc2      1:md1      1:md2      1:md3     
 model    0:pch.2    0:pch.2    0:nch.1    0:pch.2    0:nch.1    0:nch.1   
 region     Saturati   Saturati   Saturati   Saturati     Cutoff     Cutoff
  id      -1.000e-06 -4.612e-06  4.612e-06 -1.177e-06  1.177e-06  4.306e-07
  ibs      2.118e-19  9.769e-19 -7.736e-18  2.494e-19 -1.883e-18 -6.888e-19
  ibd      1.610e-16  3.871e-11 -5.247e-15  2.459e-11 -2.116e-14 -2.129e-10
  vgs       -0.9045    -0.9045     0.7967    -0.9045     0.5284     0.5284 
  vds       -0.9045    -2.5033     0.7967    -2.7716     0.5284     2.5517 
  vbs        0.         0.         0.         0.         0.         0.     
  vth       -0.7709    -0.7603     0.5355    -0.7585     0.5422     0.5400 
  vdsat     -0.1795    -0.1881     0.2588    -0.1895   6.945e-02  7.028e-02
  vod       -0.1336    -0.1441     0.2612    -0.1459  -1.382e-02 -1.162e-02
  beta     7.484e-05  2.998e-04  1.363e-04  7.497e-05  1.028e-03  3.427e-04
  gam eff    0.3947     0.3947     0.4573     0.3947     0.4619     0.4619 
  gm       1.056e-05  4.685e-05  3.155e-05  1.188e-05  2.269e-05  8.179e-06
  gds      1.076e-07  3.645e-07  4.928e-08  9.095e-08  4.918e-08  3.965e-08
  gmb      2.295e-06  1.016e-05  9.246e-06  2.577e-06  6.825e-06  2.462e-06
  cdtot    2.444e-15  7.463e-15  4.630e-15  1.807e-15  1.991e-14  5.506e-15
  cgtot    5.271e-15  2.109e-14  6.111e-14  5.271e-15  5.433e-14  1.811e-14
  cstot    8.097e-15  3.239e-14  7.412e-14  8.097e-15  2.234e-14  7.445e-15
  cbtot    6.878e-15  2.520e-14  3.130e-14  6.241e-15  8.402e-14  2.688e-14
  cgs      4.109e-15  1.644e-14  5.240e-14  4.109e-15  3.138e-15  1.046e-15
  cgd      2.837e-16  1.135e-15  7.365e-16  2.837e-16  3.138e-15  1.046e-15



 subckt   xbs        xsub0      xsub0      xsub0      xsub0      xsub0     
 element  1:md4      2:mb       2:m1       2:m2       2:m3       2:m4      
 model    0:pch.1    0:pch.1    0:pch.1    0:pch.1    0:pch.1    0:pch.1   
 region       Cutoff     Cutoff   Saturati     Cutoff   Saturati     Cutoff
  id      -4.308e-07 -7.055e-07 -7.055e-07 -2.612e-14 -7.035e-07 -2.506e-13
  ibs      8.653e-20  1.417e-19  1.417e-19  1.057e-25  1.413e-19  1.283e-25
  ibd      9.518e-16  1.923e-12  4.759e-16  4.759e-16  4.759e-16  4.759e-16
  vgs       -0.7483    -0.7483    -0.8884  -9.172e-02   -0.8869    -0.1750 
  vds       -0.7483    -2.4116    -0.4256    -0.5003    -0.8869    -0.3881 
  vbs        0.         0.         0.         0.         0.         0.     
  vth       -0.7532    -0.7487    -0.7516    -0.7515    -0.7509    -0.7516 
  vdsat   -8.813e-02 -9.018e-02   -0.1784  -4.646e-02   -0.1777  -4.646e-02
  vod      4.855e-03  3.553e-04   -0.1369     0.6597    -0.1360     0.5767 
  beta     2.137e-04  3.209e-04  5.392e-05  5.517e-05  5.394e-05  5.517e-05
  gam eff    0.4071     0.4071     0.4103     0.4103     0.4103     0.4103 
  gm       6.869e-06  1.115e-05  7.238e-06  7.121e-13  7.250e-06  6.815e-12
  gds      2.621e-08  3.457e-08  2.893e-08  1.416e-15  1.691e-08  1.464e-14
  gmb      1.657e-06  2.686e-06  1.712e-06  2.457e-13  1.715e-06  2.211e-12
  cdtot    1.392e-14  1.553e-14  7.632e-15  7.458e-15  6.727e-15  7.724e-15
  cgtot    3.087e-14  4.630e-14  9.477e-14  4.143e-14  9.462e-14  3.896e-14
  cstot    1.792e-14  2.688e-14  1.118e-13  8.959e-15  1.116e-13  8.959e-15
  cbtot    5.531e-14  7.762e-14  4.644e-14  5.415e-14  4.553e-14  5.195e-14
  cgs      1.848e-15  2.772e-15  8.132e-14  9.242e-16  8.114e-14  9.242e-16
  cgd      1.848e-15  2.772e-15  9.242e-16  9.242e-16  9.242e-16  9.242e-16



 subckt   xsub0      xsub0      xsub0      xsub0      xrp        xrp       
 element  2:m7       2:m8       2:m5       2:m6       3:mb       3:m1      
 model    0:nch.1    0:nch.1    0:nch.1    0:nch.1    0:pch.1    0:pch.1   
 region       Cutoff     Cutoff     Cutoff     Cutoff     Cutoff     Cutoff
  id       7.055e-07  7.035e-07  7.055e-07  7.035e-07 -6.746e-07 -3.287e-07
  ibs     -1.129e-18 -1.125e-18 -4.983e-14 -4.969e-14  1.355e-19  6.603e-20
  ibd     -4.983e-14 -4.969e-14 -5.644e-14 -5.643e-14  1.073e-14  2.199e-15
  vgs        0.4628     0.4628     0.4733     0.4738    -0.7483    -0.6888 
  vds      5.512e-02  5.457e-02    0.4077     0.1586    -1.5221    -1.2586 
  vbs        0.         0.      -5.512e-02 -5.457e-02    0.         0.     
  vth        0.5428     0.5428     0.5587     0.5588    -0.7511    -0.7518 
  vdsat    5.172e-02  5.172e-02  5.103e-02  5.110e-02 -8.908e-02 -6.735e-02
  vod     -7.991e-02 -7.991e-02 -8.544e-02 -8.500e-02  2.762e-03  6.301e-02
  beta     2.745e-03  2.745e-03  2.740e-03  2.740e-03  3.207e-04  4.291e-04
  gam eff    0.4619     0.4619     0.4604     0.4604     0.4071     0.4071 
  gm       1.506e-05  1.501e-05  1.565e-05  1.559e-05  1.071e-05  5.694e-06
  gds      3.659e-06  3.754e-06  3.685e-08  1.150e-07  3.520e-08  1.911e-08
  gmb      4.576e-06  4.560e-06  4.617e-06  4.600e-06  2.583e-06  1.396e-06
  cdtot    5.863e-14  5.864e-14  5.367e-14  5.637e-14  1.773e-14  2.483e-14
  cgtot    1.478e-13  1.478e-13  1.449e-13  1.449e-13  4.630e-14  6.299e-14
  cstot    5.956e-14  5.956e-14  5.863e-14  5.864e-14  2.688e-14  3.584e-14
  cbtot    2.325e-13  2.325e-13  2.237e-13  2.264e-13  7.982e-14  1.089e-13
  cgs      8.368e-15  8.368e-15  8.368e-15  8.368e-15  2.772e-15  3.697e-15
  cgd      8.368e-15  8.368e-15  8.368e-15  8.368e-15  2.772e-15  3.697e-15



 subckt   xrp        xrp        xrp        xrp        xrp        xrp.xs1   
 element  3:m2       3:m3       3:m4       3:map      3:man      4:mip     
 model    0:pch.1    0:nch.1    0:nch.1    0:pch.2    0:nch.2    0:pch.3   
 region       Linear     Cutoff     Cutoff   Saturati     Linear     Cutoff
  id      -3.459e-07  3.287e-07  3.459e-07 -2.853e-06  3.941e-06 -1.067e-13
  ibs      6.947e-20 -5.259e-19 -5.533e-19  5.729e-19 -6.303e-18  7.039e-25
  ibd      1.038e-16 -7.055e-15 -2.783e-12  2.860e-10 -1.094e-15  2.723e-16
  vgs       -1.3898     0.5193     0.5193    -0.7483     1.7765     0.     
  vds     -1.441e-03    0.5193     1.7765    -3.2986   1.371e-03   -3.3000 
  vbs        0.         0.         0.         0.         0.         0.     
  vth       -0.7552     0.5422     0.5409    -0.7405     0.5649    -0.6277 
  vdsat     -0.6214   6.618e-02  6.665e-02 -9.421e-02    0.8899  -4.432e-02
  vod       -0.6346  -2.291e-02 -2.154e-02 -7.828e-03    1.2116     0.6277 
  beta     3.894e-04  3.427e-04  3.427e-04  1.143e-03  2.839e-03  3.024e-04
  gam eff    0.4071     0.4619     0.4619     0.3951     0.4693     0.4509 
  gm       4.927e-07  6.473e-06  6.757e-06  4.689e-05  2.329e-06  2.843e-12
  gds      2.400e-04  1.414e-08  1.423e-08  3.399e-07  2.904e-03  1.003e-13
  gmb      1.366e-07  1.949e-06  2.035e-06  1.049e-05  9.208e-07  8.824e-13
  cdtot    2.611e-13  6.646e-15  5.792e-15  1.876e-14  8.034e-14  2.389e-15
  cgtot    2.781e-13  1.816e-14  1.816e-14  2.416e-14  7.385e-14  1.869e-15
  cstot    2.737e-13  7.445e-15  7.445e-15  3.584e-14  8.408e-14  4.566e-15
  cbtot    1.295e-13  2.807e-14  2.721e-14  6.397e-14  5.771e-14  7.104e-15
  cgs      1.365e-13  1.046e-15  1.046e-15  3.697e-15  3.642e-14  4.300e-16
  cgd      1.363e-13  1.046e-15  1.046e-15  3.697e-15  3.639e-14  4.300e-16



 subckt   xrp.xs1    xrp.xs1    xrp.xs1    xrp.xs2    xrp.xs2    xrp.xs2   
 element  4:min      4:msp      4:msn      5:mip      5:min      5:msp     
 model    0:nch.6    0:pch.3    0:nch.6    0:pch.3    0:nch.6    0:pch.3   
 region       Linear     Linear     Linear     Cutoff     Linear     Linear
  id       6.707e-12  3.290e-09  1.040e-07 -1.067e-13  6.707e-12  3.030e-08
  ibs     -1.521e-23  4.658e-16 -4.466e-15  7.039e-25 -1.521e-23  4.658e-16
  ibd     -8.875e-22  4.658e-16 -4.466e-15  2.723e-16 -8.875e-22  4.658e-16
  vgs        3.3000    -1.0892     2.2108     0.         3.3000    -1.0892 
  vds      1.039e-08  1.132e-04  1.132e-04   -3.3000   1.039e-08  1.035e-03
  vbs        0.         2.2108    -1.0892     0.         0.         2.2108 
  vth        0.5694    -1.0511     0.8014    -0.6277     0.5694    -1.0510 
  vdsat      1.3801    -0.1071     0.8419  -4.432e-02    1.3801    -0.1078 
  vod        2.7306  -3.807e-02    1.4095     0.6277     2.7306  -3.820e-02
  beta     4.667e-04  5.199e-04  1.014e-03  3.024e-04  4.667e-04  5.199e-04
  gam eff    0.5187     0.4819     0.5240     0.4509     0.5187     0.4819 
  gm       9.507e-13  3.671e-08  4.473e-08  2.843e-12  9.507e-13  3.370e-07
  gds      6.683e-04  2.907e-05  9.411e-04  1.003e-13  6.683e-04  2.916e-05
  gmb      4.193e-13  3.892e-09  9.246e-09  8.824e-13  4.193e-13  3.573e-08
  cdtot    3.268e-15  5.421e-15  5.809e-15  2.389e-15  3.268e-15  5.421e-15
  cgtot    2.030e-15  2.605e-15  4.060e-15  1.869e-15  2.030e-15  2.605e-15
  cstot    3.350e-15  5.421e-15  5.889e-15  4.566e-15  3.350e-15  5.421e-15
  cbtot    4.031e-15  1.001e-14  6.493e-15  7.104e-15  4.031e-15  1.001e-14
  cgs      9.597e-16  8.601e-16  1.919e-15  4.300e-16  9.597e-16  8.601e-16
  cgd      9.597e-16  8.601e-16  1.919e-15  4.300e-16  9.597e-16  8.601e-16



 subckt   xrp.xs2   
 element  5:msn     
 model    0:nch.6   
 region       Linear
  id       9.502e-07
  ibs     -4.466e-15
  ibd     -4.466e-15
  vgs        2.2108 
  vds      1.035e-03
  vbs       -1.0892 
  vth        0.8014 
  vdsat      0.8419 
  vod        1.4095 
  beta     1.014e-03
  gam eff    0.5240 
  gm       4.091e-07
  gds      9.401e-04
  gmb      8.454e-08
  cdtot    5.808e-15
  cgtot    4.060e-15
  cstot    5.889e-15
  cbtot    6.493e-15
  cgs      1.920e-15
  cgd      1.919e-15




          ***** job concluded
1****** HSPICE -- B-2008.09 32-BIT (Aug 26 2008) winnt ******                   
 ******  
 ***subtractor + switch + resamp

  ******  job statistics summary tnom=  25.000 temp=  25.000 *****

  ******  HSPICE Threads Information  ******
  Command Line Threads Count:                      0
  Available CPU Count:                             4
  Actual Model Evaluation(Load) Threads Count:     1
  Actual Solver Threads Count:                     1


  ******  Circuit Statistics  ******
  # nodes       =      89  # elements   =      44
  # resistors   =       5  # capacitors =       1  # inductors   =       0
  # mutual_inds =       0  # vccs       =       0  # vcvs        =       0
  # cccs        =       0  # ccvs       =       0  # volt_srcs   =       6
  # curr_srcs   =       1  # diodes     =       0  # bjts        =       0
  # jfets       =       0  # mosfets    =      31  # U elements  =       0
  # T elements  =       0  # W elements =       0  # B elements  =       0
  # S elements  =       0  # P elements =       0  # va device   =       0


  ******  Runtime Statistics (seconds)  ******

  analysis           time    # points   tot. iter  conv.iter
  op point           0.04           1         218
  dc sweep           0.43        2301        4702
  ac analysis        0.37        8001        8001
  readin             0.13
  errchk             0.02
  setup              0.04
  output             0.00


           total memory used          830  kbytes
           total cpu time            1.09 seconds
           total elapsed time           1 seconds
           job started at     13:33:08 06/24/2016
           job ended   at     13:33:09 06/24/2016


 Init: hspice initialization file: C:\synopsys\Hspice_B-2008.09\hspice.ini
