 ****** HSPICE -- B-2008.09 32-BIT (Aug 26 2008) winnt ******                   
  Copyright (C) 2008 Synopsys, Inc. All Rights Reserved.                        
  Unpublished-rights reserved under US copyright laws.
  This program is protected by law and is subject to the 
  terms and conditions of the license agreement from Synopsys.
  Use of this program is your acceptance to be bound by the 
  license agreement. HSPICE is the trademark of Synopsys, Inc.
  Input File: c:\users\timer\documents\github\remotehspice\resamp\subt_ramp_swch
 Init: read install configuration file: C:\synopsys\Hspice_B-2008.09\meta.cfg
 Init: hspice initialization file: C:\synopsys\Hspice_B-2008.09\hspice.ini




 .option post acout=0 accurate=1 dcon=1 converge=1 gmindc=1.0000e-12 captab=1 unwrap=1
 + ingold=1

 mc0 cp cp vdd vdd pch w = 1.5u l = 1u m = 1
 mc1 cn cp vdd vdd pch w = 1.5u l = 1u m = 4
 mc2 cn cn vss vss nch w = 3.5u l = 5u m = 1
 iin cp vss 1u


 .subckt bias vdd vss c1 c2 cp cn
 md1 c1  cp  vdd vdd pch w = 1.5u l = 1u m = 1
 md2 c1  c1  vss vss nch w = 5u   l = 3u m = 3
 md3 c2  c1  vss vss nch w = 5u   l = 3u m = 1
 md4 c2  c2  vdd vdd pch w = 5u   l = 3u m = 2
 .ends

 .subckt subtractor vdd vss vb1 vb2 vx vy vz out
 mb d2  vb1 vdd vdd pch w = 5u l = 3u m = 3
 m1 d3  vx  d2  d2  pch w = 5u l = 3u m = 1
 m2 out vy  d2  d2  pch w = 5u l = 3u m = 1
 m3 vg  vg  vz  vz  pch w = 5u l = 3u m = 1
 m4 vss vg  out out pch w = 5u l = 3u m = 1
 m7 d6  d3  vss vss nch w = 5u l = 3u m = 8
 m8 d7  d3  vss vss nch w = 5u l = 3u m = 8
 m5 d3  vb2 d6  vss nch w = 5u l = 3u m = 8
 m6 vg  vb2 d7  vss nch w = 5u l = 3u m = 8
 .ends

 .subckt rp vdd vss vip vi out c2 en
 mb b   c2  vdd vdd pch w = 5u l = 3u m = 3
 m1 op  vin b   b   pch w = 5u l = 3u m = 4
 m2 o1  vi b   b   pch w = 5u l = 3u m = 4
 m3 op  op  vss vss nch w = 5u l = 3u m = 1
 m4 o1  op  vss vss nch w = 5u l = 3u m = 1
 map out c2  vdd vdd pch w = 5u l = 3u m = 4
 man out o1  vss vss nch w = 5u l = 3u m = 3
 ro  vin  out 1000k
 ri1 vin  vip 100k
 ri2 sw   vip 9k
 cc  out c   350f
 rc o1  c   50k
 xs1 vdd vss en sw vin switch
 .ends

 .subckt switch vdd vss en in out
 mip eo  en  vdd vdd pch w = 2.3u l = 0.35u
 min eo  en  vss vss nch w = 1u l = 0.35u
 msp in  eo  out vdd pch w = 2.3u l = 0.35u m = 2
 msn in  en  out vss nch w = 1u l = 0.35u m = 2
 .ends


 xbs vdd vss c1 c2 cp cn bias
 xsub0 vdd vss c2 c1 in cn vz sout subtractor
 xrp vdd vss vz sout out c2 en rp

 vd vdd vss dc = 3.3
 vs vss gnd dc = 0

 ven en vss dc = 3.3 pulse(0 3.3 1us 1us 1us 988us 2ms)
 vin in cn dc = 0 ac = 1
 vb  vz vss dc = 1

 .op
 .dc vin -1 2.3 0.001
 .ac dec 1000 10 1g
 .probe i(xrp.ri) v(xrp.vinn)

 .end


 **warning**  the accurate option increases  the cpu time but the results
                are more accurate.
 ***accurate option sets default value of the options: 
 lvltim= 4         dvdt= 3       relvar= 200.00m absvar= 200.00m
     ft= 200.00m relmos=  10.00m
 (used for FFT control ) fft_accurate= 1
1****** HSPICE -- B-2008.09 32-BIT (Aug 26 2008) winnt ******                   
 ******  
 ***subtractor + switch + resamp

  ******  circuit name directory
 circuit number to circuit name directory
   number circuitname                     definition         multiplier
        0 main circuit
        1 xbs.                            bias               1.00 
        2 xsub0.                          subtractor         1.00 
        3 xrp.                            rp                 1.00 
        4 xrp.xs1.                        switch             1.00 
 

 **warning** could not find branch element     3:ri              
      branch - output ignored
 **warning**  attempt to reference undefined node     3:vinn            
  in the definition of v(vinn,0)
   branch - output ignored

 **warning** print/plot=out0         of analysis=ac  
 contains unused outputs
 this entire output statement is ignored

 

 **warning** the following singular supplies were terminated to 1 meg resistor 
   supply       node1            node2
  vs                      0:vss              defined in subckt 0                     0:0                defined in subckt 0               
      
  Opening plot unit= 79
 file=c:\users\timer\documents\github\remotehspice\resamp\subt_ramp_swch.pa0   

  *** initial damped pseudo transient completed. ***
  *** final try started ***
1****** HSPICE -- B-2008.09 32-BIT (Aug 26 2008) winnt ******                   
 ******  
 ***subtractor + switch + resamp

  ******  operating point information tnom=  25.000 temp=  25.000 *****
 ***** operating point status is all       simulation time is     0.     
    node    =voltage      node    =voltage      node    =voltage

 +0:c1      =   0.5284  0:c2      =   2.5517  0:cn      =   0.7967 
 +0:cp      =   2.3955  0:en      =   3.3000  0:in      =   0.7967 
 +0:out     =   0.6845  0:sout    =   0.9971  0:vdd     =   3.3000 
 +0:vss     =   0.      0:vz      =   1.0000  2:d2      =   1.5743 
 +2:d3      =   0.4279  2:d6      = 7.916e-02 2:d7      = 7.858e-02
 +2:vg      =   0.2211  3:b       =   1.6880  3:c       =   0.5317 
 +3:o1      =   0.5317  3:op      =   0.5209  3:sw      =   0.9974 
 +3:vin     =   0.9971  4:eo      = 1.039e-08


 maximum nodal capacitance=   1.480E-12         on node     0:vss             

    nodal  capacitance table 

    node    =    cap      node    =    cap      node    =    cap

 +0:c1      = 3.839e-13 0:c2      = 2.046e-13 0:cn      = 1.011e-13
 +0:cp      = 3.407e-14 0:en      = 7.959e-15 0:in      = 2.790e-14
 +0:out     = 3.896e-13 0:sout    = 1.256e-13 0:vdd     = 5.330e-13
 +0:vss     = 1.480e-12 0:vz      = 5.782e-14 2:d2      = 1.308e-13
 +2:d3      = 3.593e-13 2:d6      = 1.165e-13 2:d7      = 1.165e-13
 +2:vg      = 1.188e-13 3:b       = 3.078e-13 3:c       = 3.500e-13
 +3:o1      = 8.626e-14 3:op      = 6.824e-14 3:sw      = 1.120e-14
 +3:vin     = 7.423e-14 4:eo      = 8.261e-15

 

 ****  voltage sources

 subckt                                                         
 element  0:vd       0:vs       0:ven      0:vin      0:vb      
  volts      3.3000     0.         3.3000     0.         1.0000 
  current -9.530e-06  4.999e-16    0.         0.      -6.587e-07
  power    3.145e-05    0.         0.         0.       6.587e-07

     total voltage source power dissipation=  3.211e-05       watts



 ***** current sources

 subckt             
 element  0:iin     
  volts      2.3955 
  current  1.000e-06
  power   -2.396e-06


     total current source power dissipation=-2.396e-06       watts

 **** resistors

 subckt   xrp        xrp        xrp        xrp       
 element  3:ro       3:ri1      3:ri2      3:rc      
  r value  1.000e+06  1.000e+05  9.000e+03  5.000e+04
  v drop     0.3127  -2.851e-03 -2.557e-03    0.     
  current  3.127e-07 -2.851e-08 -2.841e-07    0.     
  power    9.775e-08  8.129e-11  7.266e-10    0.     



 **** mosfets


 subckt                                    xbs        xbs        xbs       
 element  0:mc0      0:mc1      0:mc2      1:md1      1:md2      1:md3     
 model    0:pch.2    0:pch.2    0:nch.1    0:pch.2    0:nch.1    0:nch.1   
 region     Saturati   Saturati   Saturati   Saturati     Cutoff     Cutoff
  id      -1.000e-06 -4.612e-06  4.612e-06 -1.177e-06  1.177e-06  4.306e-07
  ibs      2.118e-19  9.769e-19 -7.736e-18  2.494e-19 -1.883e-18 -6.888e-19
  ibd      1.610e-16  3.871e-11 -5.247e-15  2.459e-11 -2.116e-14 -2.129e-10
  vgs       -0.9045    -0.9045     0.7967    -0.9045     0.5284     0.5284 
  vds       -0.9045    -2.5033     0.7967    -2.7716     0.5284     2.5517 
  vbs        0.         0.         0.         0.         0.         0.     
  vth       -0.7709    -0.7603     0.5355    -0.7585     0.5422     0.5400 
  vdsat     -0.1795    -0.1881     0.2588    -0.1895   6.945e-02  7.028e-02
  vod       -0.1336    -0.1441     0.2612    -0.1459  -1.382e-02 -1.162e-02
  beta     7.484e-05  2.998e-04  1.363e-04  7.497e-05  1.028e-03  3.427e-04
  gam eff    0.3947     0.3947     0.4573     0.3947     0.4619     0.4619 
  gm       1.056e-05  4.685e-05  3.155e-05  1.188e-05  2.269e-05  8.179e-06
  gds      1.076e-07  3.645e-07  4.928e-08  9.095e-08  4.918e-08  3.965e-08
  gmb      2.295e-06  1.016e-05  9.246e-06  2.577e-06  6.825e-06  2.462e-06
  cdtot    2.444e-15  7.463e-15  4.630e-15  1.807e-15  1.991e-14  5.506e-15
  cgtot    5.271e-15  2.109e-14  6.111e-14  5.271e-15  5.433e-14  1.811e-14
  cstot    8.097e-15  3.239e-14  7.412e-14  8.097e-15  2.234e-14  7.445e-15
  cbtot    6.878e-15  2.520e-14  3.130e-14  6.241e-15  8.402e-14  2.688e-14
  cgs      4.109e-15  1.644e-14  5.240e-14  4.109e-15  3.138e-15  1.046e-15
  cgd      2.837e-16  1.135e-15  7.365e-16  2.837e-16  3.138e-15  1.046e-15



 subckt   xbs        xsub0      xsub0      xsub0      xsub0      xsub0     
 element  1:md4      2:mb       2:m1       2:m2       2:m3       2:m4      
 model    0:pch.1    0:pch.1    0:pch.1    0:pch.1    0:pch.1    0:pch.1   
 region       Cutoff     Cutoff   Saturati   Saturati   Saturati   Saturati
  id      -4.308e-07 -6.817e-07 -3.464e-07 -3.354e-07 -3.461e-07 -3.354e-07
  ibs      8.653e-20  1.369e-19  6.957e-20  6.736e-20  6.951e-20  6.736e-20
  ibd      9.518e-16  5.249e-14  5.081e-16  4.759e-16  4.759e-16  4.775e-16
  vgs       -0.7483    -0.7483    -0.7776    -0.7776    -0.7789    -0.7760 
  vds       -0.7483    -1.7257    -1.1465    -0.5772    -0.7789    -0.9971 
  vbs        0.         0.         0.         0.         0.         0.     
  vth       -0.7532    -0.7505    -0.7521    -0.7536    -0.7531    -0.7525 
  vdsat   -8.813e-02 -8.933e-02   -0.1032    -0.1024    -0.1034    -0.1021 
  vod      4.855e-03  2.211e-03 -2.552e-02 -2.398e-02 -2.582e-02 -2.350e-02
  beta     2.137e-04  3.207e-04  1.066e-04  1.066e-04  1.066e-04  1.066e-04
  gam eff    0.4071     0.4071     0.4071     0.4071     0.4071     0.4071 
  gm       6.869e-06  1.081e-05  5.164e-06  5.019e-06  5.156e-06  5.026e-06
  gds      2.621e-08  3.488e-08  1.809e-08  2.127e-08  1.991e-08  1.816e-08
  gmb      1.657e-06  2.607e-06  1.233e-06  1.199e-06  1.231e-06  1.201e-06
  cdtot    1.392e-14  1.713e-14  6.350e-15  7.291e-15  6.907e-15  6.558e-15
  cgtot    3.087e-14  4.630e-14  2.790e-14  2.790e-14  2.846e-14  2.717e-14
  cstot    1.792e-14  2.688e-14  2.856e-14  2.856e-14  2.944e-14  2.741e-14
  cbtot    5.531e-14  7.922e-14  2.779e-14  2.873e-14  2.838e-14  2.795e-14
  cgs      1.848e-15  2.772e-15  1.626e-14  1.626e-14  1.695e-14  1.536e-14
  cgd      1.848e-15  2.772e-15  9.242e-16  9.242e-16  9.242e-16  9.242e-16



 subckt   xsub0      xsub0      xsub0      xsub0      xrp        xrp       
 element  2:m7       2:m8       2:m5       2:m6       3:mb       3:m1      
 model    0:nch.1    0:nch.1    0:nch.1    0:nch.1    0:pch.1    0:pch.1   
 region       Cutoff     Cutoff     Cutoff     Cutoff     Cutoff     Cutoff
  id       3.464e-07  3.461e-07  3.464e-07  3.461e-07 -6.778e-07 -3.388e-07
  ibs     -5.541e-19 -5.536e-19 -5.385e-14 -5.379e-14  1.361e-19  6.805e-20
  ibd     -5.385e-14 -5.379e-14 -5.644e-14 -5.643e-14  2.226e-14  1.983e-15
  vgs        0.4279     0.4279     0.4493     0.4498    -0.7483    -0.6908 
  vds      7.916e-02  7.858e-02    0.3487     0.1425    -1.6120    -1.1671 
  vbs        0.         0.      -7.916e-02 -7.858e-02    0.         0.     
  vth        0.5427     0.5427     0.5658     0.5659    -0.7508    -0.7520 
  vdsat    4.711e-02  4.711e-02  4.725e-02  4.729e-02 -8.919e-02 -6.785e-02
  vod       -0.1149    -0.1149    -0.1165    -0.1160   2.518e-03  6.120e-02
  beta     2.746e-03  2.746e-03  2.739e-03  2.739e-03  3.207e-04  4.290e-04
  gam eff    0.4619     0.4619     0.4598     0.4598     0.4071     0.4071 
  gm       7.998e-06  7.991e-06  8.091e-06  8.075e-06  1.076e-05  5.858e-06
  gds      4.783e-07  4.902e-07  2.000e-08  7.146e-08  3.504e-08  1.991e-08
  gmb      2.440e-06  2.438e-06  2.371e-06  2.367e-06  2.593e-06  1.436e-06
  cdtot    5.825e-14  5.826e-14  5.400e-14  5.627e-14  1.746e-14  2.529e-14
  cgtot    1.495e-13  1.495e-13  1.449e-13  1.449e-13  4.630e-14  6.294e-14
  cstot    5.956e-14  5.956e-14  5.825e-14  5.826e-14  2.688e-14  3.584e-14
  cbtot    2.338e-13  2.338e-13  2.237e-13  2.259e-13  7.955e-14  1.093e-13
  cgs      8.368e-15  8.368e-15  8.368e-15  8.368e-15  2.772e-15  3.697e-15
  cgd      8.368e-15  8.368e-15  8.368e-15  8.368e-15  2.772e-15  3.697e-15



 subckt   xrp        xrp        xrp        xrp        xrp        xrp.xs1   
 element  3:m2       3:m3       3:m4       3:map      3:man      4:mip     
 model    0:pch.1    0:nch.1    0:nch.1    0:pch.1    0:nch.1    0:pch.3   
 region       Cutoff     Cutoff     Cutoff   Saturati     Cutoff     Cutoff
  id      -3.390e-07  3.388e-07  3.390e-07 -9.501e-07  1.263e-06 -1.067e-13
  ibs      6.808e-20 -5.420e-19 -5.422e-19  1.908e-19 -2.020e-18  7.039e-25
  ibd      1.970e-15 -7.055e-15 -7.055e-15  5.260e-12 -2.116e-14  2.723e-16
  vgs       -0.6909     0.5209     0.5209    -0.7483     0.5317     0.     
  vds       -1.1563     0.5209     0.5317    -2.6155     0.6845    -3.3000 
  vbs        0.         0.         0.         0.         0.         0.     
  vth       -0.7521     0.5422     0.5422    -0.7481     0.5421    -0.6277 
  vdsat   -6.786e-02  6.671e-02  6.672e-02 -9.044e-02  7.078e-02 -4.432e-02
  vod      6.116e-02 -2.137e-02 -2.136e-02 -1.965e-04 -1.033e-02    0.6277 
  beta     4.290e-04  3.427e-04  3.427e-04  4.279e-04  1.028e-03  3.024e-04
  gam eff    0.4071     0.4619     0.4619     0.4071     0.4619     0.4509 
  gm       5.860e-06  6.648e-06  6.651e-06  1.499e-05  2.411e-05  2.843e-12
  gds      1.995e-08  1.450e-08  1.445e-08  4.616e-08  5.016e-08  1.003e-13
  gmb      1.436e-06  2.001e-06  2.002e-06  3.613e-06  7.250e-06  8.824e-13
  cdtot    2.535e-14  6.644e-15  6.632e-15  2.020e-14  1.944e-14  2.389e-15
  cgtot    6.294e-14  1.815e-14  1.815e-14  6.173e-14  5.428e-14  1.869e-15
  cstot    3.584e-14  7.445e-15  7.445e-15  3.584e-14  2.234e-14  4.566e-15
  cbtot    1.093e-13  2.806e-14  2.805e-14  1.030e-13  8.350e-14  7.104e-15
  cgs      3.697e-15  1.046e-15  1.046e-15  3.697e-15  3.138e-15  4.300e-16
  cgd      3.697e-15  1.046e-15  1.046e-15  3.697e-15  3.138e-15  4.300e-16



 subckt   xrp.xs1    xrp.xs1    xrp.xs1   
 element  4:min      4:msp      4:msn     
 model    0:nch.6    0:pch.3    0:nch.6   
 region       Linear     Cutoff     Linear
  id       6.707e-12  1.966e-09  2.822e-07
  ibs     -1.521e-23  4.658e-16 -4.466e-15
  ibd     -8.875e-22  4.658e-16 -4.466e-15
  vgs        3.3000    -0.9971     2.3029 
  vds      1.039e-08  2.939e-04  2.939e-04
  vbs        0.         2.3029    -0.9971 
  vth        0.5694    -1.0603     0.7849 
  vdsat      1.3801  -6.330e-02    0.8910 
  vod        2.7306   6.319e-02    1.5179 
  beta     4.667e-04  5.223e-04  1.008e-03
  gam eff    0.5187     0.4829     0.5236 
  gm       9.507e-13  3.533e-08  1.086e-07
  gds      6.683e-04  6.674e-06  9.846e-04
  gmb      4.193e-13  3.662e-09  2.352e-08
  cdtot    3.268e-15  5.355e-15  5.846e-15
  cgtot    2.030e-15  2.605e-15  4.060e-15
  cstot    3.350e-15  5.354e-15  5.929e-15
  cbtot    4.031e-15  9.873e-15  6.571e-15
  cgs      9.597e-16  8.601e-16  1.920e-15
  cgd      9.597e-16  8.601e-16  1.919e-15




          ***** job concluded
1****** HSPICE -- B-2008.09 32-BIT (Aug 26 2008) winnt ******                   
 ******  
 ***subtractor + switch + resamp

  ******  job statistics summary tnom=  25.000 temp=  25.000 *****

  ******  HSPICE Threads Information  ******
  Command Line Threads Count:                      0
  Available CPU Count:                             4
  Actual Model Evaluation(Load) Threads Count:     1
  Actual Solver Threads Count:                     1


  ******  Circuit Statistics  ******
  # nodes       =      78  # elements   =      39
  # resistors   =       5  # capacitors =       1  # inductors   =       0
  # mutual_inds =       0  # vccs       =       0  # vcvs        =       0
  # cccs        =       0  # ccvs       =       0  # volt_srcs   =       5
  # curr_srcs   =       1  # diodes     =       0  # bjts        =       0
  # jfets       =       0  # mosfets    =      27  # U elements  =       0
  # T elements  =       0  # W elements =       0  # B elements  =       0
  # S elements  =       0  # P elements =       0  # va device   =       0


  ******  Runtime Statistics (seconds)  ******

  analysis           time    # points   tot. iter  conv.iter
  op point           0.04           1         197
  dc sweep           0.51        3301        6700
  ac analysis        0.38        8001        8001
  readin             0.12
  errchk             0.02
  setup              0.02
  output             0.00


           total memory used          705  kbytes
           total cpu time            1.11 seconds
           total elapsed time           1 seconds
           job started at     21:01:46 06/21/2016
           job ended   at     21:01:47 06/21/2016


 Init: hspice initialization file: C:\synopsys\Hspice_B-2008.09\hspice.ini
