Using: /usr/bin/time -p /usr/cad/synopsys/hspice/cur/hspice/linux/hspice TrImp.sp
 ****** HSPICE -- B-2008.09-SP1 32-BIT (Nov 24 2008) linux ******               
  Copyright (C) 2008 Synopsys, Inc. All Rights Reserved.                        
  Unpublished-rights reserved under US copyright laws.
  This program is protected by law and is subject to the 
  terms and conditions of the license agreement from Synopsys.
  Use of this program is your acceptance to be bound by the 
  license agreement. HSPICE is the trademark of Synopsys, Inc.
  Input File: TrImp.sp                                                          
 lic:  
 lic: FLEXlm: v8.5b 
 lic: USER:   m103061608           HOSTNAME: ws34 
 lic: HOSTID: e41f1366b76c         PID:      15662 
 lic: Using FLEXlm license file: 
 lic: 26585@lsnctu 
 lic: Checkout 1 hspice 
 lic: License/Maintenance for hspice will expire on 14-may-2016/2015.06 
 lic: FLOATING license(s) on SERVER lsnctu 
 lic:   
 Init: read install configuration file: /usr/cad/synopsys/hspice/cur/hspice/meta.cfg
 Init: hspice initialization file: /usr/cad/synopsys/hspice/cur/hspice/hspice.ini
 .option runlvl
 .option post acout=0 accurate=1 dcon=1 converge=1 gmindc=1.0000e-12 captab=1 unwrap=1
 + ingold=1 reltol=1e-5

 ***param***
 .param
 +comon		= 0.802
 +bias		= 2.4
 +bias2		= 2.4
 +supplyp	= 3.3
 +supplyn	= 0
 +diff			= 0
 +wx         = 10u
 ***netlist***
 ***1st stage***
 mb	b	cz	 vdd vdd pch w = wx  l = 5u  m = 1
 m1	1	vinn b	 b	 pch w = 3u   l = 1u  m = 2
 m2	2	vinp b	 b	 pch w = 3u   l = 1u  m = 2
 m3	1	1	 vss vss nch w = 3u   l = 1u  m = 1
 m4	2	1	 vss vss nch w = 3u   l = 1u    m = 1


 ***2nd stage***
 *ma1 vop cz vdd vdd pch w = 4u l = 1u m = 1
 *ma2 vop 2  vss vss nch w = 5.4u l = 1u m = 2   *use 21u when in new model

 ma1 vop cz vdd vdd pch   w = 4u l = 0.4u m = 2
 ma2 vop 2  vss vss nch   w = 12u l = 0.4u m = 3

 ***compensation***
 *c1  2 vop 20f   *~ 60db
 cc 2 vop 100f   *100f=~60db for rl added; but should be 600f for ien added to get a flat band
 *rc 2  xx  50k
 ******

 ***current mirror***
 *.subckt cmb vdd vss cp cp2 cp3 cp4 cn     *cp = 2.4; cp2 = 1.25; cp3 = cn =  0.6; cp4 = 2.7
 *iin cp  vss dc = 1u
 *mc0 cp  cp  vdd vdd pch w = 5.1u l = 5u     m = 1
 *mc1 c0  cp  vdd vdd pch w = 2u   l = 5u     m = 1
 *mc5 c2  cp  vdd vdd pch w = 2u   l = 5u     m = 1
 *mc2 cp2 cp2 c0  c0  pch w = 1u   l = 5u     m = 1
 *mc6 c3  cp2 c2  c2  pch w = 1u   l = 5u     m = 1
 *mc3 cn  cp3 cp2 cp2 pch w = 5u   l = 0.5u   m = 2
 *mc7 cp3 cp3 c3  c3  pch w = 5u   l = 0.5u   m = 2
 *mc4 cn  cn  vss vss nch w = 1u   l = 3u     m = 1
 *mc8 cp3 cn  vss vss nch w = 1u   l = 3u     m = 1
 *
 *mca cp4 cp4 vdd vdd pch w = 5u   l = 0.5u   m = 6
 *mcb cp4 cn  vss vss nch w = 1u   l = 3u     m = 1
 *.ends
 *
 *xcmb vdd vss cz cp2 cp3 cx cn cmb

 .subckt cmb_beta4 vdd vss 1 4
 m1 1   1   vdd vdd pch w = 20u l = 5u m = 1
 m2 2   1   vdd vdd pch w = 20u l = 5u m = 1
 m3 3   3   1   1   pch w = 20u l = 1u m = 1
 m4 4   3   2   2   pch w = 20u l = 1u m = 1
 m5 3   4   rx  vss nch w = '3.5u * 4' l = 5u m = 1
 m6 4   4   vss vss nch w = '3.5u * 1' l = 5u m = 1
 msus1a s0  s1  vdd vdd pch w = 1u l = 5u m = 1
 msus1b s1  s1  s0  s0  pch w = 1u l = 5u m = 1
 msus2  s1  4   vss vss nch w = 3.5u l = 5u m = 1
 msus3  1   s1  4   vss nch w = 1u   l = 1u m = 1
 r1 rx vss 25k
 .ends
 xcmb vdd vss cz opb1 cmb_beta4

 ***source***
 vd		vdd 	gnd dc supplyp
 vs		vss 	gnd dc supplyn
 vb 		b0		gnd dc bias
 vb1		b1		gnd dc bias2





 ***test***
 mt	vgt	vgt	vss	vss	nch	w = 3u   l = 5u m = 1
 *mt	vdt	vgt	vst	vst	pch w = 2.8u l = 2u m = 1
 *mt	vdt	vgt	vst	vst	pch	w = 12u   l = 5u m = 1
 vtd	vdt	gnd dc = 2.9
 vtg	vgt	gnd dc = 0.65
 vts vst gnd dc = 3.3

 *
 *
 ****sweep***
 *
 ****input***
 .alter *trimp_ol_woload


 **warning**  the accurate option increases  the cpu time but the results
                are more accurate.
 ***accurate option sets default value of the options: 
 lvltim= 4         dvdt= 3       relvar= 200.00m absvar= 200.00m
     ft= 200.00m relmos=  10.00m
 (used for FFT control ) fft_accurate= 1
1****** HSPICE -- B-2008.09-SP1 32-BIT (Nov 24 2008) linux ******               
 ******  
 ***myop_2stage_aboveth

  ******  circuit name directory
 circuit number to circuit name directory
   number circuitname                     definition         multiplier
        0 main circuit
        1 xcmb.                           cmb_beta4          1.00 
 

 

 **warning** the following singular supplies were terminated to 1 meg resistor 
   supply       node1            node2
  vb                      0:b0               defined in subckt 0                     0:0                defined in subckt 0               
  vb1                     0:b1               defined in subckt 0                     0:0                defined in subckt 0               
  vtd                     0:vdt              defined in subckt 0                     0:0                defined in subckt 0               
  vts                     0:vst              defined in subckt 0                     0:0                defined in subckt 0               
      
  Opening plot unit= 15
 file=TrImp.pa0                                                                


          ***** job concluded
1****** HSPICE -- B-2008.09-SP1 32-BIT (Nov 24 2008) linux ******               
 ******  
 ***myop_2stage_aboveth

  ******  job statistics summary tnom=  25.000 temp=  25.000 *****

  ******  HSPICE Threads Information  ******
  Command Line Threads Count:                      0
  Available CPU Count:                             8
  Actual Model Evaluation(Load) Threads Count:     1
  Actual Solver Threads Count:                     1


  ******  Circuit Statistics  ******
  # nodes       =      57  # elements   =      31
  # resistors   =       5  # capacitors =       1  # inductors   =       0
  # mutual_inds =       0  # vccs       =       0  # vcvs        =       0
  # cccs        =       0  # ccvs       =       0  # volt_srcs   =       7
  # curr_srcs   =       0  # diodes     =       0  # bjts        =       0
  # jfets       =       0  # mosfets    =      18  # U elements  =       0
  # T elements  =       0  # W elements =       0  # B elements  =       0
  # S elements  =       0  # P elements =       0  # va device   =       0


  ******  Runtime Statistics (seconds)  ******

  analysis           time    # points   tot. iter  conv.iter
  op point           0.00           1           0
  readin             0.03
  errchk             0.01
  setup              0.00
  output             0.00


           total memory used          507  kbytes
           total cpu time            0.04 seconds
           total elapsed time        0.29 seconds
           job started at     16:43:47 03/26/2016
           job ended   at     16:43:47 03/26/2016


1****** HSPICE -- B-2008.09-SP1 32-BIT (Nov 24 2008) linux ******               
 ******  
  *trimp_ol_woload

  ******    alter processing listing tnom=  25.000 temp=  25.000 *****
 .lib 'test.l' opwoload
     .op

     *vinp vinp gnd dc = 'comon-diff' *ac = 1
     vopb vinp opb1 dc = 0

     vinn vinn gnd dc = 'comon+diff' ac = 1 *180

     .dc diff -0.1 0.1 0.0001

     .ac dec 1000 0.1 100g

     *.tf v(voa) vinp
     *.pz v(vop) vinn
     .probe dc i(m1) i(m2)	i(mt)

     .probe ac vp(vop)
     +gain1st=par('vdb(2)-vdb(vinp,vinn)')	par('i(m1)-i(m2)')	phase1st=par('vp(2)')
     +gainall=par('vdb(vop)-vdb(vinp,vinn)')		phaseall=par('vp(vop)')

     *.meas ac gain max par('vdb(vop)-vdb(vinp,vinn)')
     *.meas ac gain1st max par('vdb(2, 1)-vdb(vinp,vinn)')
     *.meas ac zerodb when par('vdb(vop)-vdb(vinp,vinn)') = 0
     *.meas ac phaseatdb	find par('vp(vop)') when par('vdb(vop)-vdb(vinp,vinn)') = 0

     *.noise v(vop) vinn 100
 .endl

 .alter *trimp_ol_wiload
 $ alter processing continues $


 **warning**  the accurate option increases  the cpu time but the results
                are more accurate.
 ***accurate option sets default value of the options: 
 lvltim= 4         dvdt= 3       relvar= 200.00m absvar= 200.00m
     ft= 200.00m relmos=  10.00m
 (used for FFT control ) fft_accurate= 1
1****** HSPICE -- B-2008.09-SP1 32-BIT (Nov 24 2008) linux ******               
 ******  
  *trimp_ol_woload

  ******  circuit name directory
 circuit number to circuit name directory
   number circuitname                     definition         multiplier
        0 main circuit
        1 xcmb.                           cmb_beta4          1.00 
 

 **warning** the following singular supplies were terminated to 1 meg resistor 
   supply       node1            node2
  vb                      0:b0               defined in subckt 0                     0:0                defined in subckt 0               
  vb1                     0:b1               defined in subckt 0                     0:0                defined in subckt 0               
  vtd                     0:vdt              defined in subckt 0                     0:0                defined in subckt 0               
  vts                     0:vst              defined in subckt 0                     0:0                defined in subckt 0               
      
  Opening plot unit= 15
 file=TrImp.pa1                                                                

  *** initial damped pseudo transient completed. ***
  *** final try started ***
1****** HSPICE -- B-2008.09-SP1 32-BIT (Nov 24 2008) linux ******               
 ******  
  *trimp_ol_woload

  ******  operating point information tnom=  25.000 temp=  25.000 *****
 ***** operating point status is all       simulation time is     0.     
    node    =voltage      node    =voltage      node    =voltage

 +0:1       =   0.5833  0:2       =   0.5648  0:b       =   1.5935 
 +0:b0      =   2.4000  0:b1      =   2.4000  0:cz      =   2.3894 
 +0:opb1    =   0.8023  0:vdd     =   3.3000  0:vdt     =   2.9000 
 +0:vgt     =   0.6500  0:vinn    =   0.8020  0:vinp    =   0.8023 
 +0:vop     =   2.0038  0:vss     =   0.      0:vst     =   3.3000 
 +1:2       =   2.3826  1:3       =   1.5952  1:rx      =   0.1197 
 +1:s0      =   2.8701  1:s1      =   1.0607 


 maximum nodal capacitance=   1.421E-12         on node     0:vdd             

    nodal  capacitance table 

    node    =    cap      node    =    cap      node    =    cap

 +0:1       = 2.655e-14 0:2       = 1.411e-13 0:b       = 9.611e-14
 +0:b0      =   0.      0:b1      =   0.      0:cz      = 9.625e-13
 +0:opb1    = 3.680e-13 0:vdd     = 1.421e-12 0:vdt     =   0.     
 +0:vgt     = 5.362e-14 0:vinn    = 1.283e-14 0:vinp    = 1.278e-14
 +0:vop     = 1.490e-13 0:vss     = 5.888e-13 0:vst     =   0.     
 +1:2       = 1.529e-13 1:3       = 1.289e-13 1:rx      = 2.580e-13
 +1:s0      = 5.012e-14 1:s1      = 5.212e-14

 

 ****  voltage sources

 subckt                                                                    
 element  0:vd       0:vs       0:vb       0:vb1      0:vtd      0:vtg     
  volts      3.3000     0.         2.4000     2.4000     2.9000     0.6500 
  current -4.107e-05  4.210e-05 -2.400e-06 -2.400e-06 -2.900e-06 -1.031e-06
  power    1.355e-04    0.       5.760e-06  5.760e-06  8.410e-06  6.699e-07

 subckt                                   
 element  0:vts      0:vopb     0:vinn    
  volts      3.3000     0.         0.8020 
  current -3.300e-06    0.         0.     
  power    1.089e-05    0.         0.     

     total voltage source power dissipation=  1.670e-04       watts



 **** resistors

 subckt   xcmb      
 element  1:r1      
  r value  2.500e+04
  v drop     0.1197 
  current  4.789e-06
  power    5.733e-07



 **** mosfets


 subckt                                                                    
 element  0:mb       0:m1       0:m2       0:m3       0:m4       0:ma1     
 model    0:pch.1    0:pch.2    0:pch.2    0:nch.2    0:nch.2    0:pch.3   
 region     Saturati   Saturati   Saturati   Saturati   Saturati   Saturati
  id      -2.342e-06 -1.172e-06 -1.170e-06  1.172e-06  1.170e-06 -2.435e-05
  ibs      4.642e-19  2.393e-19  2.388e-19 -2.017e-18 -2.013e-18  4.906e-18
  ibd      3.719e-14  6.124e-16  6.232e-16 -4.644e-15 -4.644e-15  3.529e-14
  vgs       -0.9106    -0.7915    -0.7912     0.5833     0.5833    -0.9106 
  vds       -1.7065    -1.0102    -1.0287     0.5833     0.5648    -1.2962 
  vbs        0.         0.         0.         0.         0.         0.     
  vth       -0.7441    -0.7600    -0.7598     0.5584     0.5584    -0.7034 
  vdsat     -0.2038    -0.1072    -0.1071   7.840e-02  7.838e-02   -0.2219 
  vod       -0.1665  -3.151e-02 -3.135e-02  2.493e-02  2.489e-02   -0.2072 
  beta     1.310e-04  3.298e-04  3.298e-04  6.259e-04  6.259e-04  9.554e-04
  gam eff    0.4169     0.3950     0.3950     0.4656     0.4656     0.4517 
  gm       2.165e-05  1.794e-05  1.792e-05  2.259e-05  2.255e-05  2.012e-04
  gds      4.628e-08  1.572e-07  1.563e-07  1.189e-07  1.195e-07  6.554e-06
  gmb      5.112e-06  3.983e-06  3.978e-06  6.565e-06  6.555e-06  4.263e-05
  cdtot    1.093e-14  8.330e-15  8.296e-15  4.169e-15  4.181e-15  1.009e-14
  cgtot    1.585e-13  1.283e-14  1.278e-14  7.026e-15  7.026e-15  1.154e-14
  cstot    1.926e-13  1.947e-14  1.940e-14  9.012e-15  9.012e-15  2.421e-14
  cbtot    7.516e-14  2.317e-14  2.313e-14  1.108e-14  1.109e-14  2.474e-14
  cgs      1.388e-13  7.484e-15  7.427e-15  3.850e-15  3.850e-15  8.913e-15
  cgd      1.839e-15  1.116e-15  1.116e-15  6.333e-16  6.333e-16  1.482e-15



 subckt                         xcmb       xcmb       xcmb       xcmb      
 element  0:ma2      0:mt       1:m1       1:m2       1:m3       1:m4      
 model    0:nch.3    0:nch.1    0:pch.10   0:pch.10   0:pch.11   0:pch.11  
 region     Saturati   Saturati   Saturati   Saturati   Saturati   Saturati
  id       2.434e-05  1.031e-06 -4.789e-06 -4.790e-06 -4.789e-06 -4.790e-06
  ibs     -3.623e-17 -1.774e-18  9.430e-19  9.432e-19  9.430e-19  9.432e-19
  ibd     -7.852e-09 -4.644e-15  1.826e-15  1.826e-15  1.826e-15  2.895e-13
  vgs        0.5648     0.6500    -0.9106    -0.9106    -0.7942    -0.7875 
  vds        2.0038     0.6500    -0.9106    -0.9174    -0.7942    -1.5804 
  vbs        0.         0.         0.         0.         0.         0.     
  vth        0.5601     0.5345    -0.7425    -0.7424    -0.7524    -0.7472 
  vdsat    6.368e-02    0.1435    -0.2058    -0.2058    -0.1134    -0.1125 
  vod      4.646e-03    0.1155    -0.1682    -0.1682  -4.177e-02 -4.030e-02
  beta     2.087e-02  1.168e-04  2.645e-04  2.645e-04  1.175e-03  1.177e-03
  gam eff    0.5662     0.4547     0.4205     0.4205     0.3953     0.3953 
  gm       5.222e-04  1.246e-05  4.403e-05  4.404e-05  7.223e-05  7.263e-05
  gds      7.078e-06  1.745e-08  1.152e-07  1.148e-07  6.858e-07  5.825e-07
  gmb      1.409e-04  3.683e-06  1.043e-05  1.043e-05  1.601e-05  1.611e-05
  cdtot    3.895e-14  4.128e-15  2.490e-14  2.486e-14  2.561e-14  2.178e-14
  cgtot    2.867e-14  4.949e-14  3.147e-13  3.147e-13  4.542e-14  4.236e-14
  cstot    5.103e-14  5.813e-14  3.847e-13  3.847e-13  6.847e-14  6.374e-14
  cbtot    8.877e-14  2.717e-14  1.507e-13  1.507e-13  6.826e-14  6.426e-14
  cgs      7.470e-15  4.070e-14  2.776e-13  2.776e-13  3.139e-14  2.765e-14
  cgd      7.470e-15  6.333e-16  3.669e-15  3.669e-15  3.669e-15  3.669e-15



 subckt   xcmb       xcmb       xcmb       xcmb       xcmb       xcmb      
 element  1:m5       1:m6       1:msus1a   1:msus1b   1:msus2    1:msus3   
 model    0:nch.1    0:nch.1    0:pch.4    0:pch.4    0:nch.1    0:nch.5   
 region     Saturati   Saturati     Linear   Saturati   Saturati     Cutoff
  id       4.789e-06  4.790e-06 -4.802e-06 -4.802e-06  4.802e-06  2.954e-13
  ibs     -1.773e-14 -8.034e-18  1.047e-18  1.047e-18 -8.054e-18 -2.233e-15
  ibd     -6.040e-13 -5.247e-15  1.159e-16  1.277e-16 -5.258e-15 -2.235e-15
  vgs        0.6826     0.8023    -2.2393    -1.8095     0.8023     0.2584 
  vds        1.4755     0.8023    -0.4299    -1.8095     1.0607     1.5871 
  vbs       -0.1197     0.         0.         0.         0.        -0.8023 
  vth        0.5758     0.5355    -0.7899    -0.7871     0.5353     0.7365 
  vdsat      0.1428     0.2634    -1.2947    -0.9280     0.2635   4.358e-02
  vod        0.1068     0.2667    -1.4494    -1.0224     0.2670    -0.4781 
  beta     5.751e-04  1.362e-04  9.418e-06  9.993e-06  1.362e-04  1.773e-04
  gam eff    0.4661     0.4573     0.3553     0.3553     0.4573     0.4311 
  gm       5.933e-05  3.216e-05  3.290e-06  8.451e-06  3.221e-05  9.155e-12
  gds      8.237e-08  5.044e-08  8.987e-06  6.181e-08  4.477e-08  4.027e-14
  gmb      1.698e-05  9.421e-06  1.015e-06  1.868e-06  9.438e-06  2.178e-12
  cdtot    1.554e-14  4.626e-15  1.877e-14  1.544e-15  4.486e-15  1.499e-15
  cgtot    2.176e-13  6.114e-14  2.554e-14  1.891e-14  6.114e-14  1.637e-15
  cstot    2.580e-13  7.416e-14  2.232e-14  2.115e-14  7.416e-14  1.709e-15
  cbtot    1.087e-13  3.130e-14  1.098e-14  1.020e-14  3.116e-14  3.962e-15
  cgs      1.843e-13  5.244e-14  1.318e-14  1.536e-14  5.244e-14  2.207e-16
  cgd      2.903e-15  7.365e-16  1.010e-14  1.922e-16  7.365e-16  2.207e-16




          ***** job concluded
1****** HSPICE -- B-2008.09-SP1 32-BIT (Nov 24 2008) linux ******               
 ******  
  *trimp_ol_woload

  ******  job statistics summary tnom=  25.000 temp=  25.000 *****

  ******  HSPICE Threads Information  ******
  Command Line Threads Count:                      0
  Available CPU Count:                             8
  Actual Model Evaluation(Load) Threads Count:     1
  Actual Solver Threads Count:                     1


  ******  Circuit Statistics  ******
  # nodes       =      60  # elements   =      36
  # resistors   =       5  # capacitors =       1  # inductors   =       0
  # mutual_inds =       0  # vccs       =       0  # vcvs        =       0
  # cccs        =       0  # ccvs       =       0  # volt_srcs   =      12
  # curr_srcs   =       0  # diodes     =       0  # bjts        =       0
  # jfets       =       0  # mosfets    =      18  # U elements  =       0
  # T elements  =       0  # W elements =       0  # B elements  =       0
  # S elements  =       0  # P elements =       0  # va device   =       0


  ******  Runtime Statistics (seconds)  ******

  analysis           time    # points   tot. iter  conv.iter
  op point           0.02           1         160
  dc sweep           0.58        2001        4159
  ac analysis        0.26       12001       12001
  readin             0.01
  errchk             0.02
  setup              0.00
  output             0.00


           total memory used          736  kbytes
           total cpu time            0.88 seconds
           total elapsed time        0.94 seconds
           job started at     16:43:47 03/26/2016
           job ended   at     16:43:48 03/26/2016


1****** HSPICE -- B-2008.09-SP1 32-BIT (Nov 24 2008) linux ******               
 ******  
  *trimp_ol_wiload

  ******    alter processing listing tnom=  25.000 temp=  25.000 *****
 .del lib 'test.l' opwoload
 .lib 'test.l' opwiload
     .op

     *vinp vinp gnd dc = 'comon' *ac = 1
     vopb vinp opb1 dc = 0

     vinn in gnd dc = 'comon+diff' ac = 1 180

     rin  in vinn 100k

     rl   vop  gnd 100k

     .ac dec 1000 0.1 100g  *sweep diff 0 2 0.5

     .dc diff -0.1 0.1 0.0001

     *.tf v(voa) vinp
     .pz v(vop) vinn

     .probe dc i(m1) i(m2)	i(mt)

     .probe ac vp(vop)
     +gain1st=par('vdb(2)-vdb(vinp,vinn)')	par('i(m1)-i(m2)')	phase1st=par('vp(2)')
     +gainall=par('vdb(vop)-vdb(vinp,vinn)')		phaseall=par('vp(vop)')


     .meas ac ph_0db find vp(vop) when v(vop) = 1          * r = ph

     .meas ac ph_start find vp(vop) at = 1    * r = 180 || 0

     .meas ac pm param = 'ph_0db - (ph_start - 180)'      *r = f

     *.noise v(vop) vinn 100
 .endl

 ****cloase loop feedback test***
 .alter *trimp_idcrtest
 $ alter processing continues $


 **warning**  the accurate option increases  the cpu time but the results
                are more accurate.
