 ****** HSPICE -- B-2008.09 32-BIT (Aug 26 2008) winnt ******                   
  Copyright (C) 2008 Synopsys, Inc. All Rights Reserved.                        
  Unpublished-rights reserved under US copyright laws.
  This program is protected by law and is subject to the 
  terms and conditions of the license agreement from Synopsys.
  Use of this program is your acceptance to be bound by the 
  license agreement. HSPICE is the trademark of Synopsys, Inc.
  Input File: c:\users\timer\documents\github\remotehspice\research\transimpedan
 Init: read install configuration file: C:\synopsys\Hspice_B-2008.09\meta.cfg
 Init: hspice initialization file: C:\synopsys\Hspice_B-2008.09\hspice.ini




 .option post acout=0 accurate=1 dcon=1 converge=1 gmindc=1.0000e-12 captab=1 unwrap=1
 + ingold=1 reltol=1e-5

 ***param***
 .param
 *+comon		= 0.7967
 +diff = 0
 +supplyp	= 3.3
 +supplyn	= 0
 ***netlist***
 ***1st stage***
 *.param wx = 1.5u
 mb	b	cz	 vdd vdd pch w = 1.5u  l = 1u  m = 2          * 2.211u
 m1	1	vinn b	 b	 pch w = 3u   l = 1u  m = 2
 m2	2	vinp b	 b	 pch w = 3u   l = 1u  m = 2
 m3	1	1	 vss vss nch w = 3u   l = 1u  m = 1
 m4	2	1	 vss vss nch w = 3u   l = 1u    m = 1


 ***2nd stage***
 *ma1 vop cz vdd vdd pch w = 4u l = 1u m = 1
 *ma2 vop 2  vss vss nch w = 5.4u l = 1u m = 2   *use 21u when in new model
 ma1 vop cz vdd vdd pch   w = 1.5u l = 1u m = 24
 ma2 vop 2  vss vss nch   w = 12u l = 0.4u m = 3

 ***compensation***
 *c1  vop gnd 1p   *~ 60db
 cc xx vop 150f
 rc 2  xx  20k
 ******

 ***current mirror***
 *.subckt cmb vdd vss cp cp2 cp3 cp4 cn     *cp = 2.4; cp2 = 1.25; cp3 = cn =  0.6; cp4 = 2.7
 *iin cp  vss dc = 1u
 *mc0 cp  cp  vdd vdd pch w = 5.1u l = 5u     m = 1
 *mc1 c0  cp  vdd vdd pch w = 2u   l = 5u     m = 1
 *mc5 c2  cp  vdd vdd pch w = 2u   l = 5u     m = 1
 *mc2 cp2 cp2 c0  c0  pch w = 1u   l = 5u     m = 1
 *mc6 c3  cp2 c2  c2  pch w = 1u   l = 5u     m = 1
 *mc3 cn  cp3 cp2 cp2 pch w = 5u   l = 0.5u   m = 2
 *mc7 cp3 cp3 c3  c3  pch w = 5u   l = 0.5u   m = 2
 *mc4 cn  cn  vss vss nch w = 1u   l = 3u     m = 1
 *mc8 cp3 cn  vss vss nch w = 1u   l = 3u     m = 1
 *
 *mca cp4 cp4 vdd vdd pch w = 5u   l = 0.5u   m = 6
 *mcb cp4 cn  vss vss nch w = 1u   l = 3u     m = 1
 *.ends
 *
 *xcmb vdd vss cz cp2 cp3 cx cn cmb

 .subckt cmb_bete5 vdd vss cp cn wp = 5u
 iin cp  vss dc = 1u
 mc0 cp  cp  vdd vdd pch w = 1.5u l = 1u m = 1
 mc1 cn  cp  vdd vdd pch w = 1.5u l = 1u m = 4
 mc2 cn  cn  vss vss nch w = 3.5u  l = 5u m = 1
 .ends
 xcmb   vdd vss cz opb1 cmb_bete5
 *vb opb0 opb1 dc = 0

 ***source***
 vd		vdd 	gnd dc supplyp
 vs		vss 	gnd dc supplyn
 *vb 		b0		gnd dc bias
 *vb1		b1		gnd dc bias2





 ***test***
 mt	vgt	vgt	vss	vss	nch	w = 3u   l = 5u m = 1
 *mt	vdt	vgt	vst	vst	pch w = 2.8u l = 2u m = 1
 *mt	vdt	vgt	vst	vst	pch	w = 12u   l = 5u m = 1
 vtd	vdt	gnd dc = 2.9
 vtg	vgt	gnd dc = 0.65
 vts vst gnd dc = 3.3

 *
 *
 ****sweep***
 *
 ****input***
 .alter *trimp_ol_woload


 **warning**  the accurate option increases  the cpu time but the results
                are more accurate.
 ***accurate option sets default value of the options: 
 lvltim= 4         dvdt= 3       relvar= 200.00m absvar= 200.00m
     ft= 200.00m relmos=  10.00m
 (used for FFT control ) fft_accurate= 1
1****** HSPICE -- B-2008.09 32-BIT (Aug 26 2008) winnt ******                   
 ******  
 ***trimp

  ******  circuit name directory
 circuit number to circuit name directory
   number circuitname                     definition         multiplier
        0 main circuit
        1 xcmb.                           cmb_bete5          1.00 
 

 

 **warning** the following singular supplies were terminated to 1 meg resistor 
   supply       node1            node2
  vtd                     0:vdt              defined in subckt 0                     0:0                defined in subckt 0               
  vts                     0:vst              defined in subckt 0                     0:0                defined in subckt 0               
      
  Opening plot unit= 79
 file=c:\users\timer\documents\github\remotehspice\research\transimpedancestage


          ***** job concluded
1****** HSPICE -- B-2008.09 32-BIT (Aug 26 2008) winnt ******                   
 ******  
 ***trimp

  ******  job statistics summary tnom=  25.000 temp=  25.000 *****

  ******  HSPICE Threads Information  ******
  Command Line Threads Count:                      0
  Available CPU Count:                             4
  Actual Model Evaluation(Load) Threads Count:     1
  Actual Solver Threads Count:                     1


  ******  Circuit Statistics  ******
  # nodes       =      37  # elements   =      21
  # resistors   =       3  # capacitors =       1  # inductors   =       0
  # mutual_inds =       0  # vccs       =       0  # vcvs        =       0
  # cccs        =       0  # ccvs       =       0  # volt_srcs   =       5
  # curr_srcs   =       1  # diodes     =       0  # bjts        =       0
  # jfets       =       0  # mosfets    =      11  # U elements  =       0
  # T elements  =       0  # W elements =       0  # B elements  =       0
  # S elements  =       0  # P elements =       0  # va device   =       0


  ******  Runtime Statistics (seconds)  ******

  analysis           time    # points   tot. iter  conv.iter
  op point           0.00           1           0
  readin             0.13
  errchk             0.02
  setup              0.01
  output             0.00


           total memory used          346  kbytes
           total cpu time            0.17 seconds
           total elapsed time           1 seconds
           job started at     17:11:36 04/11/2016
           job ended   at     17:11:36 04/11/2016


1****** HSPICE -- B-2008.09 32-BIT (Aug 26 2008) winnt ******                   
 ******  
  *trimp_ol_woload

  ******    alter processing listing tnom=  25.000 temp=  25.000 *****
 .lib 'test.l' opwoload

     .op
     *vinp vinp gnd dc = 'comon-diff' *ac = 1
     vopb vinp opb1 dc = 0
     vinn vinn opb1 dc = 'diff' ac = 1 *180
     .dc diff -0.1 0.1 0.0001
     .ac dec 1000 0.1 100g
     *.tf v(voa) vinp
     *.pz v(vop) vinn
     .probe dc i(m1) i(m2)	i(mt)
     .probe ac vp(vop)
     +gain1st=par('vdb(2)-vdb(vinp,vinn)')	par('i(m1)-i(m2)')	phase1st=par('vp(2)')
     +gainall=par('vdb(vop)-vdb(vinp,vinn)')		phaseall=par('vp(vop)')
     *.meas ac gain max par('vdb(vop)-vdb(vinp,vinn)')
     *.meas ac gain1st max par('vdb(2, 1)-vdb(vinp,vinn)')
     *.meas ac zerodb when par('vdb(vop)-vdb(vinp,vinn)') = 0
     *.meas ac phaseatdb	find par('vp(vop)') when par('vdb(vop)-vdb(vinp,vinn)') = 0

     *.noise v(vop) vinn 100
 .endl

 .alter *trimp_ol_wiload
 $ alter processing continues $


 **warning**  the accurate option increases  the cpu time but the results
                are more accurate.
 ***accurate option sets default value of the options: 
 lvltim= 4         dvdt= 3       relvar= 200.00m absvar= 200.00m
     ft= 200.00m relmos=  10.00m
 (used for FFT control ) fft_accurate= 1
1****** HSPICE -- B-2008.09 32-BIT (Aug 26 2008) winnt ******                   
 ******  
  *trimp_ol_woload

  ******  circuit name directory
 circuit number to circuit name directory
   number circuitname                     definition         multiplier
        0 main circuit
        1 xcmb.                           cmb_bete5          1.00 
 

 **warning** the following singular supplies were terminated to 1 meg resistor 
   supply       node1            node2
  vtd                     0:vdt              defined in subckt 0                     0:0                defined in subckt 0               
  vts                     0:vst              defined in subckt 0                     0:0                defined in subckt 0               
      
  Opening plot unit= 79
 file=c:\users\timer\documents\github\remotehspice\research\transimpedancestage

  *** initial damped pseudo transient completed. ***
  *** final try started ***
1****** HSPICE -- B-2008.09 32-BIT (Aug 26 2008) winnt ******                   
 ******  
  *trimp_ol_woload

  ******  operating point information tnom=  25.000 temp=  25.000 *****
 ***** operating point status is all       simulation time is     0.     
    node    =voltage      node    =voltage      node    =voltage

 +0:1       =   0.4784  0:2       =   0.4784  0:b       =   1.5809 
 +0:cz      =   2.2940  0:opb1    =   0.6943  0:vdd     =   3.3000 
 +0:vdt     =   2.9000  0:vgt     =   0.6500  0:vinn    =   0.6943 
 +0:vinp    =   0.6943  0:vop     =   1.2460  0:vss     =   0.     
 +0:vst     =   3.3000  0:xx      =   0.4784 


 maximum nodal capacitance=   4.741E-13         on node     0:vdd             

    nodal  capacitance table 

    node    =    cap      node    =    cap      node    =    cap

 +0:1       = 2.595e-14 0:2       = 4.339e-14 0:b       = 9.234e-14
 +0:cz      = 1.663e-13 0:opb1    = 7.339e-14 0:vdd     = 4.741e-13
 +0:vdt     =   0.      0:vgt     = 5.629e-14 0:vinn    = 1.199e-14
 +0:vinp    = 1.199e-14 0:vop     = 2.397e-13 0:vss     = 3.640e-13
 +0:vst     =   0.      0:xx      = 1.500e-13

 

 ****  voltage sources

 subckt                                                                    
 element  0:vd       0:vs       0:vtd      0:vtg      0:vts      0:vopb    
  volts      3.3000     0.         2.9000     0.6500     3.3000     0.     
  current -3.413e-05  3.694e-05 -2.900e-06 -2.809e-06 -3.300e-06    0.     
  power    1.126e-04    0.       8.410e-06  1.826e-06  1.089e-05    0.     

 subckt             
 element  0:vinn    
  volts      0.     
  current    0.     
  power      0.     

     total voltage source power dissipation=  1.337e-04       watts



 ***** current sources

 subckt   xcmb      
 element  1:iin     
  volts      2.2940 
  current  1.000e-06
  power   -2.294e-06


     total current source power dissipation=-2.294e-06       watts

 **** resistors

 subckt             
 element  0:rc      
  r value  2.000e+04
  v drop     0.     
  current    0.     
  power      0.     



 **** mosfets


 subckt                                                                    
 element  0:mb       0:m1       0:m2       0:m3       0:m4       0:ma1     
 model    0:pch.2    0:pch.2    0:pch.2    0:nch.2    0:nch.2    0:pch.2   
 region     Saturati   Saturati   Saturati   Saturati   Saturati   Saturati
  id      -2.138e-06 -1.069e-06 -1.069e-06  1.069e-06  1.069e-06 -2.639e-05
  ibs      4.529e-19  2.182e-19  2.182e-19 -1.840e-18 -1.840e-18  5.591e-18
  ibd      2.284e-13  7.287e-16  7.287e-16 -4.644e-15 -4.644e-15  2.770e-11
  vgs       -1.0060    -0.8866    -0.8866     0.4784     0.4784    -1.0060 
  vds       -1.7191    -1.1025    -1.1025     0.4784     0.4784    -2.0540 
  vbs        0.         0.         0.         0.         0.         0.     
  vth       -0.8655    -0.8593    -0.8593     0.4586     0.4586    -0.8633 
  vdsat     -0.1852    -0.1048    -0.1048   7.596e-02  7.596e-02   -0.1870 
  vod       -0.1405  -2.725e-02 -2.725e-02  1.983e-02  1.983e-02   -0.1428 
  beta     1.458e-04  3.207e-04  3.207e-04  6.348e-04  6.348e-04  1.750e-03
  gam eff    0.3947     0.3950     0.3950     0.4656     0.4656     0.3947 
  gm       2.200e-05  1.656e-05  1.656e-05  2.100e-05  2.100e-05  2.694e-04
  gds      1.854e-07  1.418e-07  1.418e-07  1.160e-07  1.160e-07  2.181e-06
  gmb      4.783e-06  3.684e-06  3.684e-06  6.100e-06  6.100e-06  5.854e-05
  cdtot    4.531e-15  8.870e-15  8.870e-15  3.879e-15  3.879e-15  5.162e-14
  cgtot    1.056e-14  1.199e-14  1.199e-14  6.599e-15  6.599e-15  1.267e-13
  cstot    1.682e-14  1.921e-14  1.921e-14  7.877e-15  7.877e-15  2.018e-13
  cbtot    1.400e-14  2.469e-14  2.469e-14  1.035e-14  1.035e-14  1.652e-13
  cgs      8.239e-15  6.466e-15  6.466e-15  3.305e-15  3.305e-15  9.887e-14
  cgd      5.673e-16  1.116e-15  1.116e-15  6.333e-16  6.333e-16  6.808e-15



 subckt                         xcmb       xcmb       xcmb      
 element  0:ma2      0:mt       1:mc0      1:mc1      1:mc2     
 model    0:nch.3    0:nch.1    0:pch.2    0:pch.2    0:nch.1   
 region     Saturati   Saturati   Saturati   Saturati   Saturati
  id       2.639e-05  2.809e-06 -1.000e-06 -4.598e-06  4.598e-06
  ibs     -3.929e-17 -4.834e-18  2.118e-19  9.738e-19 -7.712e-18
  ibd     -5.387e-12 -4.644e-15  1.634e-16  5.561e-11 -5.247e-15
  vgs        0.4784     0.6500    -1.0060    -1.0060     0.6943 
  vds        1.2460     0.6500    -1.0060    -2.6057     0.6943 
  vbs        0.         0.         0.         0.         0.     
  vth        0.4656     0.4345    -0.8702    -0.8596     0.4356 
  vdsat    6.664e-02    0.2207    -0.1814    -0.1900     0.2567 
  vod      1.277e-02    0.2155    -0.1358    -0.1464     0.2587 
  beta     2.111e-02  1.176e-04  7.284e-05  2.918e-04  1.383e-04
  gam eff    0.5662     0.4547     0.3947     0.3947     0.4573 
  gm       5.641e-04  2.267e-05  1.047e-05  4.628e-05  3.177e-05
  gds      7.940e-06  3.735e-08  1.030e-07  3.588e-07  5.536e-08
  gmb      1.535e-04  6.619e-06  2.277e-06  1.005e-05  9.283e-06
  cdtot    3.807e-14  3.778e-15  2.598e-15  7.994e-15  4.298e-15
  cgtot    3.064e-14  5.251e-14  5.280e-15  2.112e-14  6.110e-14
  cstot    5.023e-14  6.287e-14  8.408e-15  3.363e-14  7.363e-14
  cbtot    8.371e-14  2.659e-14  7.331e-15  2.692e-14  3.051e-14
  cgs      1.008e-14  4.466e-14  4.120e-15  1.648e-14  5.238e-14
  cgd      7.470e-15  6.333e-16  2.837e-16  1.135e-15  7.365e-16




          ***** job concluded
1****** HSPICE -- B-2008.09 32-BIT (Aug 26 2008) winnt ******                   
 ******  
  *trimp_ol_woload

  ******  job statistics summary tnom=  25.000 temp=  25.000 *****

  ******  HSPICE Threads Information  ******
  Command Line Threads Count:                      0
  Available CPU Count:                             4
  Actual Model Evaluation(Load) Threads Count:     1
  Actual Solver Threads Count:                     1


  ******  Circuit Statistics  ******
  # nodes       =      40  # elements   =      26
  # resistors   =       3  # capacitors =       1  # inductors   =       0
  # mutual_inds =       0  # vccs       =       0  # vcvs        =       0
  # cccs        =       0  # ccvs       =       0  # volt_srcs   =      10
  # curr_srcs   =       1  # diodes     =       0  # bjts        =       0
  # jfets       =       0  # mosfets    =      11  # U elements  =       0
  # T elements  =       0  # W elements =       0  # B elements  =       0
  # S elements  =       0  # P elements =       0  # va device   =       0


  ******  Runtime Statistics (seconds)  ******

  analysis           time    # points   tot. iter  conv.iter
  op point           0.02           1         105
  dc sweep           0.49        2001        4153
  ac analysis        0.36       12001       12001
  readin             0.10
  errchk             0.01
  setup              0.01
  output             0.00


           total memory used          577  kbytes
           total cpu time            1.02 seconds
           total elapsed time           1 seconds
           job started at     17:11:36 04/11/2016
           job ended   at     17:11:37 04/11/2016


1****** HSPICE -- B-2008.09 32-BIT (Aug 26 2008) winnt ******                   
 ******  
  *trimp_ol_wiload

  ******    alter processing listing tnom=  25.000 temp=  25.000 *****
 .del lib 'test.l' opwoload
 .lib 'test.l' opwiload

     .op
     *vinp vinp gnd dc = 'comon' *ac = 1
     vopb vinp opb1 dc = 0
     vinn vinn opb1 dc = 'diff' ac = 1 180
     *rin  in vinn 100k
     rl   vop  gnd 100k
     .ac dec 1000 0.1 100g  *sweep diff 0 2 0.5
     .dc diff -0.1 0.1 0.0001
     *.tf v(voa) vinp
     .pz v(vop) vinn
     .probe dc i(m1) i(m2)	i(mt)
     .probe ac vp(vop)
     +gain1st=par('vdb(2)-vdb(vinp,vinn)')	par('i(m1)-i(m2)')	phase1st=par('vp(2)')
     +gainall=par('vdb(vop)-vdb(vinp,vinn)')		phaseall=par('vp(vop)')

     .meas ac ph_0db find vp(vop) when v(vop) = 1          * r = ph
     .meas ac ph_start find vp(vop) at = 1    * r = 180 || 0
     .meas ac pm param = 'ph_0db - (ph_start - 180)'      *r = f
     *.noise v(vop) vinn 100
 .endl

 ****cloase loop feedback test***
 .alter *trimp_idcrtest
 $ alter processing continues $


 **warning**  the accurate option increases  the cpu time but the results
                are more accurate.
 ***accurate option sets default value of the options: 
 lvltim= 4         dvdt= 3       relvar= 200.00m absvar= 200.00m
     ft= 200.00m relmos=  10.00m
 (used for FFT control ) fft_accurate= 1
1****** HSPICE -- B-2008.09 32-BIT (Aug 26 2008) winnt ******                   
 ******  
  *trimp_ol_wiload

  ******  circuit name directory
 circuit number to circuit name directory
   number circuitname                     definition         multiplier
        0 main circuit
        1 xcmb.                           cmb_bete5          1.00 
 

 **warning** the following singular supplies were terminated to 1 meg resistor 
   supply       node1            node2
  vtd                     0:vdt              defined in subckt 0                     0:0                defined in subckt 0               
  vts                     0:vst              defined in subckt 0                     0:0                defined in subckt 0               
      
  Opening plot unit= 79
 file=c:\users\timer\documents\github\remotehspice\research\transimpedancestage

  *** initial damped pseudo transient completed. ***
  *** final try started ***
1****** HSPICE -- B-2008.09 32-BIT (Aug 26 2008) winnt ******                   
 ******  
  *trimp_ol_wiload

  ******  operating point information tnom=  25.000 temp=  25.000 *****
 ***** operating point status is all       simulation time is     0.     
    node    =voltage      node    =voltage      node    =voltage

 +0:1       =   0.4784  0:2       =   0.4784  0:b       =   1.5809 
 +0:cz      =   2.2940  0:opb1    =   0.6943  0:vdd     =   3.3000 
 +0:vdt     =   2.9000  0:vgt     =   0.6500  0:vinn    =   0.6943 
 +0:vinp    =   0.6943  0:vop     =   0.6139  0:vss     =   0.     
 +0:vst     =   3.3000  0:xx      =   0.4784 


 maximum nodal capacitance=   4.700E-13         on node     0:vdd             

    nodal  capacitance table 

    node    =    cap      node    =    cap      node    =    cap

 +0:1       = 2.595e-14 0:2       = 4.339e-14 0:b       = 9.234e-14
 +0:cz      = 1.663e-13 0:opb1    = 7.339e-14 0:vdd     = 4.700e-13
 +0:vdt     =   0.      0:vgt     = 5.629e-14 0:vinn    = 1.199e-14
 +0:vinp    = 1.199e-14 0:vop     = 2.386e-13 0:vss     = 3.670e-13
 +0:vst     =   0.      0:xx      = 1.500e-13

 

 ****  voltage sources

 subckt                                                                    
 element  0:vd       0:vs       0:vtd      0:vtg      0:vts      0:vopb    
  volts      3.3000     0.         2.9000     0.6500     3.3000     0.     
  current -3.549e-05  3.216e-05 -2.900e-06 -2.809e-06 -3.300e-06    0.     
  power    1.171e-04    0.       8.410e-06  1.826e-06  1.089e-05    0.     

 subckt             
 element  0:vinn    
  volts      0.     
  current    0.     
  power      0.     

     total voltage source power dissipation=  1.383e-04       watts



 ***** current sources

 subckt   xcmb      
 element  1:iin     
  volts      2.2940 
  current  1.000e-06
  power   -2.294e-06


     total current source power dissipation=-2.294e-06       watts

 **** resistors

 subckt                        
 element  0:rc       0:rl      
  r value  2.000e+04  1.000e+05
  v drop     0.         0.6139 
  current    0.       6.139e-06
  power      0.       3.769e-06



 **** mosfets


 subckt                                                                    
 element  0:mb       0:m1       0:m2       0:m3       0:m4       0:ma1     
 model    0:pch.2    0:pch.2    0:pch.2    0:nch.2    0:nch.2    0:pch.2   
 region     Saturati   Saturati   Saturati   Saturati   Saturati   Saturati
  id      -2.138e-06 -1.069e-06 -1.069e-06  1.069e-06  1.069e-06 -2.776e-05
