Using: /usr/bin/time -p /usr/cad/synopsys/hspice/cur/hspice/linux/hspice TrImp.sp
 ****** HSPICE -- B-2008.09-SP1 32-BIT (Nov 24 2008) linux ******               
  Copyright (C) 2008 Synopsys, Inc. All Rights Reserved.                        
  Unpublished-rights reserved under US copyright laws.
  This program is protected by law and is subject to the 
  terms and conditions of the license agreement from Synopsys.
  Use of this program is your acceptance to be bound by the 
  license agreement. HSPICE is the trademark of Synopsys, Inc.
  Input File: TrImp.sp                                                          
 lic:  
 lic: FLEXlm: v8.5b 
 lic: USER:   m103061608           HOSTNAME: ws42 
 lic: HOSTID: e41f13bfda98         PID:      23935 
 lic: Using FLEXlm license file: 
 lic: 26585@lsnctu 
 lic: Checkout 1 hspice 
 lic: License/Maintenance for hspice will expire on 14-may-2016/2015.06 
 lic: FLOATING license(s) on SERVER lsnctu 
 lic:   
 Init: read install configuration file: /usr/cad/synopsys/hspice/cur/hspice/meta.cfg
 Init: hspice initialization file: /usr/cad/synopsys/hspice/cur/hspice/hspice.ini
 .option runlvl
 .option post acout=0 accurate=1 dcon=1 converge=1 gmindc=1.0000e-12 captab=1 unwrap=1
 + ingold=1

 ***param***
 .param
 +comon		= 1.7
 +bias		= 2.4
 +bias2		= 2.4
 +supplyp	= 3.3
 +supplyn	= 0
 +diff			= 0
 ***netlist***
 ***1st stage***
 mb	b	cz	 vdd vdd pch w = 5u  l = 5u  m = 1
 m1	1	vinp b	 b	 pch w = 3u   l = 5u  m = 2
 m2	2	vinn b	 b	 pch w = 3u   l = 5u  m = 2
 m3	1	1	 vss vss nch w = 3u   l = 5u  m = 1
 m4	2	1	 vss vss nch w = 3u l = 5u    m = 1


 ***2nd stage***
 ma1 vop cz vdd vdd pch w = 8.2u l = 1u m = 1
 ma2 vop 2  vss vss nch w = 3u l = 0.4u m = 1
 ***compensation***
 *c1  2 vop 20f   *~ 60db
 c1  2 vop 100f   *~60db for rl added
 ******

 ***current mirror***
 iic cp vss dc = 200n
 mc0 cp cp vdd vdd pch w = 16u l = 1u m = 2
 mc1 c0 cp vdd vdd pch w = 5u l = 0.4u m = 2
 mc2 cn cn c0  c0  pch w = 1u l = 0.4u m = 1
 mc3 cn cn vss vss nch w = 5.1u l = 0.4u m = 3
 mcx  cz cz vdd vdd pch w = 1u l = 1u m = 1
 mcz  cz cn vss vss nch w = 10u l = 1u m = 3

 ***source***
 vd		vdd 	gnd dc supplyp
 vs		vss 	gnd dc supplyn
 vb 		b0		gnd dc bias
 vb1		b1		gnd dc bias2





 ***test***
 mt	vgt	vgt	vss	vss	nch	w = 3u   l = 5u m = 1
 *mt	vdt	vgt	vst	vst	pch w = 2.8u l = 2u m = 1
 *mt	vdt	vgt	vst	vst	pch	w = 12u   l = 5u m = 1
 vtd	vdt	gnd dc = 2.9
 vtg	vgt	gnd dc = 0.65
 vts vst gnd dc = 3.3

 .op


 ***sweep***

 ***input***
 .alter trimp_ol_woload


 **warning**  the accurate option increases  the cpu time but the results
                are more accurate.
 ***accurate option sets default value of the options: 
 lvltim= 4         dvdt= 3       relvar= 200.00m absvar= 200.00m
     ft= 200.00m relmos=  10.00m
 (used for FFT control ) fft_accurate= 1
 

 

 **warning** the following singular supplies were terminated to 1 meg resistor 
   supply       node1            node2
  vb                      0:b0               defined in subckt 0                     0:0                defined in subckt 0               
  vb1                     0:b1               defined in subckt 0                     0:0                defined in subckt 0               
  vtd                     0:vdt              defined in subckt 0                     0:0                defined in subckt 0               
  vts                     0:vst              defined in subckt 0                     0:0                defined in subckt 0               
      
  *** initial damped pseudo transient completed. ***
  *** final try started ***
1****** HSPICE -- B-2008.09-SP1 32-BIT (Nov 24 2008) linux ******               
 ******  
 ***myop_2stage_aboveth

  ******  operating point information tnom=  25.000 temp=  25.000 *****
 ***** operating point status is all       simulation time is     0.     
    node    =voltage      node    =voltage      node    =voltage

 +0:1       =   0.6945  0:2       =   0.6945  0:b       =   0.9370 
 +0:b0      =   2.4000  0:b1      =   2.4000  0:c0      =   1.4099 
 +0:cn      =   0.5399  0:cp      =   2.5979  0:cz      =   2.3018 
 +0:vdd     =   3.3000  0:vdt     =   2.9000  0:vgt     =   0.6500 
 +0:vinn    =   0.      0:vinp    =   0.      0:vop     =   3.1945 
 +0:vss     =   0.      0:vst     =   3.3000 


 maximum nodal capacitance=   4.422E-13         on node     0:vdd             

    nodal  capacitance table 

    node    =    cap      node    =    cap      node    =    cap

 +0:1       = 9.468e-14 0:2       = 1.192e-13 0:b       = 2.926e-13
 +0:b0      =   0.      0:b1      =   0.      0:c0      = 1.937e-14
 +0:cn      = 8.200e-14 0:cp      = 9.241e-14 0:cz      = 1.453e-13
 +0:vdd     = 4.422e-13 0:vdt     =   0.      0:vgt     = 2.993e-14
 +0:vinn    = 8.059e-14 0:vinp    = 8.059e-14 0:vop     = 1.264e-13
 +0:vss     = 4.143e-13 0:vst     =   0.     

 

 ****  voltage sources

 subckt                                                                    
 element  0:vd       0:vs       0:vb       0:vb1      0:vtd      0:vtg     
  volts      3.3000     0.         2.4000     2.4000     2.9000     0.6500 
  current -6.114e-06  6.329e-06 -2.400e-06 -2.400e-06 -2.900e-06 -2.146e-07
  power    2.018e-05    0.       5.760e-06  5.760e-06  8.410e-06  1.395e-07

 subckt             
 element  0:vts     
  volts      3.3000 
  current -3.300e-06
  power    1.089e-05

     total voltage source power dissipation=  5.114e-05       watts



 ***** current sources

 subckt             
 element  0:iic     
  volts      2.5979 
  current  2.000e-07
  power   -5.196e-07


     total current source power dissipation=-5.196e-07       watts


 **** mosfets


 subckt                                                                    
 element  0:mb       0:m1       0:m2       0:m3       0:m4       0:ma1     
 model    0:pch.1    0:pch.1    0:pch.1    0:nch.1    0:nch.1    0:pch.2   
 region     Saturati   Saturati   Saturati   Saturati   Saturati     Linear
  id      -8.865e-07 -4.433e-07 -4.433e-07  4.433e-07  4.433e-07 -4.277e-06
  ibs      1.781e-19  9.058e-20  9.058e-20 -7.658e-19 -7.658e-19  8.501e-19
  ibd      7.903e-13  5.810e-16  5.810e-16 -4.572e-15 -4.572e-15  7.460e-16
  vgs       -0.9982    -0.9370    -0.9370     0.6945     0.6945    -0.9982 
  vds       -2.3630    -0.2425    -0.2425     0.6945     0.6945    -0.1055 
  vbs        0.         0.         0.         0.         0.         0.     
  vth       -0.8489    -0.8605    -0.8605     0.6342     0.6342    -0.8598 
  vdsat     -0.1890    -0.1338    -0.1338     0.1068     0.1068    -0.1857 
  vod       -0.1493  -7.642e-02 -7.642e-02  6.029e-02  6.029e-02   -0.1384 
  beta     5.840e-05  6.809e-05  6.809e-05  1.057e-04  1.057e-04  4.162e-04
  gam eff    0.4095     0.3997     0.3997     0.4543     0.4543     0.3961 
  gm       8.666e-06  5.527e-06  5.527e-06  6.658e-06  6.658e-06  3.433e-05
  gds      1.823e-08  5.864e-08  5.864e-08  8.845e-09  8.845e-09  2.462e-05
  gmb      2.037e-06  1.311e-06  1.311e-06  1.979e-06  1.979e-06  7.593e-06
  cdtot    5.669e-15  1.119e-14  1.119e-14  4.434e-15  4.434e-15  2.277e-14
  cgtot    7.487e-14  8.059e-14  8.059e-14  3.953e-14  3.953e-14  3.007e-14
  cstot    9.060e-14  9.215e-14  9.215e-14  4.344e-14  4.344e-14  4.087e-14
  cbtot    3.804e-14  5.134e-14  5.134e-14  2.580e-14  2.580e-14  3.435e-14
  cgs      6.427e-14  6.380e-14  6.380e-14  2.942e-14  2.942e-14  2.178e-14
  cgd      1.004e-15  1.204e-15  1.204e-15  6.831e-16  6.831e-16  6.368e-15



 subckt                                                                    
 element  0:ma2      0:mc0      0:mc1      0:mc2      0:mc3      0:mcx     
 model    0:nch.3    0:pch.2    0:pch.3    0:pch.6    0:nch.3    0:pch.5   
 region     Saturati     Cutoff     Cutoff   Saturati     Cutoff   Saturati
  id       4.172e-06 -2.000e-07 -2.738e-07 -2.738e-07  2.738e-07 -4.770e-07
  ibs     -7.203e-18  3.946e-20  5.502e-20  6.033e-20 -4.377e-19  1.051e-19
  ibd     -1.047e-07  2.921e-15  6.056e-13  1.109e-16 -2.131e-14  1.118e-16
  vgs        0.6945    -0.7021    -0.7021    -0.8700     0.5399    -0.9982 
  vds        3.1945    -0.7021    -1.8901    -0.8700     0.5399    -0.9982 
  vbs        0.         0.         0.         0.         0.         0.     
  vth        0.6492    -0.8540    -0.7970    -0.8496     0.6695    -0.8779 
  vdsat    8.276e-02 -5.294e-02 -5.320e-02 -9.904e-02  4.405e-02   -0.1687 
  vod      4.531e-02    0.1520   9.492e-02 -2.034e-02   -0.1295    -0.1203 
  beta     1.335e-03  1.688e-03  1.063e-03  8.679e-05  7.132e-03  4.105e-05
  gam eff    0.5342     0.3965     0.4430     0.4041     0.5428     0.3861 
  gm       7.510e-05  4.250e-06  5.944e-06  4.147e-06  7.063e-06  5.249e-06
  gds      1.164e-06  3.653e-08  1.456e-07  9.768e-08  1.023e-07  4.731e-08
  gmb      2.012e-05  9.724e-07  1.314e-06  8.855e-07  2.065e-06  1.140e-06
  cdtot    3.658e-15  4.628e-14  1.211e-14  1.955e-15  2.202e-14  1.898e-15
  cgtot    3.580e-15  3.869e-14  7.444e-15  8.864e-16  1.345e-14  3.436e-15
  cstot    6.748e-15  5.887e-14  1.950e-14  2.679e-15  2.475e-14  5.527e-15
  cbtot    8.744e-15  1.181e-13  3.102e-14  4.577e-15  4.630e-14  5.310e-15
  cgs      1.907e-15  6.438e-15  2.009e-15  2.709e-16  3.479e-15  2.532e-15
  cgd      6.831e-16  6.438e-15  2.009e-15  1.993e-16  3.479e-15  1.993e-16



 subckt                        
 element  0:mcz      0:mt      
 model    0:nch.2    0:nch.1   
 region       Cutoff   Saturati
  id       4.767e-07  2.146e-07
  ibs     -7.178e-19 -3.708e-19
  ibd     -2.832e-10 -4.572e-15
  vgs        0.5399     0.6500 
  vds        2.3018     0.6500 
  vbs        0.         0.     
  vth        0.6628     0.6343 
  vdsat    4.420e-02  8.258e-02
  vod       -0.1228   1.574e-02
  beta     5.965e-03  1.059e-04
  gam eff    0.4707     0.4543 
  gm       1.189e-05  3.754e-06
  gds      6.143e-08  5.074e-09
  gmb      3.586e-06  1.122e-06
  cdtot    3.507e-14  4.462e-15
  cgtot    4.369e-14  2.547e-14
  cstot    4.685e-14  1.953e-14
  cbtot    9.835e-14  2.458e-14
  cgs      6.815e-15  1.149e-14
  cgd      6.815e-15  6.831e-16




          ***** job concluded
1****** HSPICE -- B-2008.09-SP1 32-BIT (Nov 24 2008) linux ******               
 ******  
 ***myop_2stage_aboveth

  ******  job statistics summary tnom=  25.000 temp=  25.000 *****

  ******  HSPICE Threads Information  ******
  Command Line Threads Count:                      0
  Available CPU Count:                             8
  Actual Model Evaluation(Load) Threads Count:     1
  Actual Solver Threads Count:                     1


  ******  Circuit Statistics  ******
  # nodes       =      46  # elements   =      27
  # resistors   =       4  # capacitors =       1  # inductors   =       0
  # mutual_inds =       0  # vccs       =       0  # vcvs        =       0
  # cccs        =       0  # ccvs       =       0  # volt_srcs   =       7
  # curr_srcs   =       1  # diodes     =       0  # bjts        =       0
  # jfets       =       0  # mosfets    =      14  # U elements  =       0
  # T elements  =       0  # W elements =       0  # B elements  =       0
  # S elements  =       0  # P elements =       0  # va device   =       0


  ******  Runtime Statistics (seconds)  ******

  analysis           time    # points   tot. iter  conv.iter
  op point           0.00           1          78
  readin             0.04
  errchk             0.01
  setup              0.00
  output             0.00


           total memory used          357  kbytes
           total cpu time            0.05 seconds
           total elapsed time        0.20 seconds
           job started at     15:47:00 01/27/2016
           job ended   at     15:47:00 01/27/2016


1****** HSPICE -- B-2008.09-SP1 32-BIT (Nov 24 2008) linux ******               
 ******  
  trimp_ol_woload

  ******    alter processing listing tnom=  25.000 temp=  25.000 *****
 vinp vinp gnd dc = 'comon-diff' *ac = 1
 vinn vinn gnd dc = 'comon+diff' ac = 1 *180
 .dc diff -0.5 0.5 0.01
 .ac dec 1000 0.1 1g
 *.tf v(voa) vinp
 .pz v(vop) vinn
 .probe dc i(m1) i(m2)	i(mt)
 .probe ac vp(vop)
 +gain1st=par('vdb(2)-vdb(vinp,vinn)')	par('i(m1)-i(m2)')	phase1st=par('vp(2)')
 +gainall=par('vdb(vop)-vdb(vinp,vinn)')		phaseall=par('vp(vop)')
 .meas ac gain max par('vdb(vop)-vdb(vinp,vinn)')
 .meas ac gain1st max par('vdb(2, 1)-vdb(vinp,vinn)')
 .meas ac zerodb when par('vdb(vop)-vdb(vinp,vinn)') = 0
 .meas ac phaseatdb	find par('vp(vop)') when par('vdb(vop)-vdb(vinp,vinn)') = 0

 .noise v(vop) vinn 100

 ***open loop wi loading test***
 .alter trimp_ol_wiload
 $ alter processing continues $


 **warning**  the accurate option increases  the cpu time but the results
                are more accurate.
 ***accurate option sets default value of the options: 
 lvltim= 4         dvdt= 3       relvar= 200.00m absvar= 200.00m
     ft= 200.00m relmos=  10.00m
 (used for FFT control ) fft_accurate= 1
 

 **warning** the following singular supplies were terminated to 1 meg resistor 
   supply       node1            node2
  vb                      0:b0               defined in subckt 0                     0:0                defined in subckt 0               
  vb1                     0:b1               defined in subckt 0                     0:0                defined in subckt 0               
  vtd                     0:vdt              defined in subckt 0                     0:0                defined in subckt 0               
  vts                     0:vst              defined in subckt 0                     0:0                defined in subckt 0               
      
  *** initial damped pseudo transient completed. ***
  *** final try started ***
1****** HSPICE -- B-2008.09-SP1 32-BIT (Nov 24 2008) linux ******               
 ******  
  trimp_ol_woload

  ******  operating point information tnom=  25.000 temp=  25.000 *****
 ***** operating point status is all       simulation time is     0.     
    node    =voltage      node    =voltage      node    =voltage

 +0:1       =   0.6919  0:2       =   0.6919  0:b       =   2.6288 
 +0:b0      =   2.4000  0:b1      =   2.4000  0:c0      =   1.4099 
 +0:cn      =   0.5399  0:cp      =   2.5979  0:cz      =   2.3018 
 +0:vdd     =   3.3000  0:vdt     =   2.9000  0:vgt     =   0.6500 
 +0:vinn    =   1.7000  0:vinp    =   1.7000  0:vop     =   3.2019 
 +0:vss     =   0.      0:vst     =   3.3000 


 maximum nodal capacitance=   4.444E-13         on node     0:vdd             

    nodal  capacitance table 

    node    =    cap      node    =    cap      node    =    cap

 +0:1       = 9.004e-14 0:2       = 1.155e-13 0:b       = 2.794e-13
 +0:b0      =   0.      0:b1      =   0.      0:c0      = 1.937e-14
 +0:cn      = 8.200e-14 0:cp      = 9.241e-14 0:cz      = 1.465e-13
 +0:vdd     = 4.444e-13 0:vdt     =   0.      0:vgt     = 2.993e-14
 +0:vinn    = 7.806e-14 0:vinp    = 7.806e-14 0:vop     = 1.292e-13
 +0:vss     = 4.123e-13 0:vst     =   0.     

 

 ****  voltage sources

 subckt                                                                    
 element  0:vd       0:vs       0:vb       0:vb1      0:vtd      0:vtg     
  volts      3.3000     0.         2.4000     2.4000     2.9000     0.6500 
  current -5.890e-06  6.105e-06 -2.400e-06 -2.400e-06 -2.900e-06 -2.146e-07
  power    1.944e-05    0.       5.760e-06  5.760e-06  8.410e-06  1.395e-07

 subckt                                   
 element  0:vts      0:vinp     0:vinn    
  volts      3.3000     1.7000     1.7000 
  current -3.300e-06    0.         0.     
  power    1.089e-05    0.         0.     

     total voltage source power dissipation=  5.040e-05       watts



 ***** current sources

 subckt             
 element  0:iic     
  volts      2.5979 
  current  2.000e-07
  power   -5.196e-07


     total current source power dissipation=-5.196e-07       watts


 **** mosfets


 subckt                                                                    
 element  0:mb       0:m1       0:m2       0:m3       0:m4       0:ma1     
 model    0:pch.1    0:pch.1    0:pch.1    0:nch.1    0:nch.1    0:pch.2   
 region     Saturati   Saturati   Saturati   Saturati   Saturati     Linear
  id      -8.517e-07 -4.259e-07 -4.259e-07  4.259e-07  4.259e-07 -4.088e-06
  ibs      1.711e-19  8.702e-20  8.702e-20 -7.357e-19 -7.357e-19  8.125e-19
  ibd      4.705e-16  5.910e-14  5.910e-14 -4.572e-15 -4.572e-15  7.418e-16
  vgs       -0.9982    -0.9288    -0.9288     0.6919     0.6919    -0.9982 
  vds       -0.6712    -1.9370    -1.9370     0.6919     0.6919  -9.809e-02
  vbs        0.         0.         0.         0.         0.         0.     
  vth       -0.8518    -0.8574    -0.8574     0.6342     0.6342    -0.8599 
  vdsat     -0.1867    -0.1305    -0.1305     0.1052     0.1052    -0.1856 
  vod       -0.1464  -7.143e-02 -7.143e-02  5.764e-02  5.764e-02   -0.1383 
  beta     5.837e-05  6.819e-05  6.819e-05  1.057e-04  1.057e-04  4.162e-04
  gam eff    0.4095     0.3997     0.3997     0.4543     0.4543     0.3961 
  gm       8.410e-06  5.420e-06  5.420e-06  6.461e-06  6.461e-06  3.215e-05
  gds      2.667e-08  1.230e-08  1.230e-08  8.588e-09  8.588e-09  2.676e-05
  gmb      1.977e-06  1.288e-06  1.288e-06  1.921e-06  1.921e-06  7.123e-06
  cdtot    7.729e-15  7.613e-15  7.613e-15  4.435e-15  4.435e-15  2.550e-14
  cgtot    7.487e-14  7.806e-14  7.806e-14  3.900e-14  3.900e-14  3.124e-14
  cstot    9.060e-14  8.820e-14  8.820e-14  4.254e-14  4.254e-14  4.096e-14
  cbtot    4.010e-14  4.762e-14  4.762e-14  2.576e-14  2.576e-14  3.443e-14
  cgs      6.427e-14  6.069e-14  6.069e-14  2.874e-14  2.874e-14  2.162e-14
  cgd      1.004e-15  1.204e-15  1.204e-15  6.831e-16  6.831e-16  7.957e-15



 subckt                                                                    
 element  0:ma2      0:mc0      0:mc1      0:mc2      0:mc3      0:mcx     
 model    0:nch.3    0:pch.2    0:pch.3    0:pch.6    0:nch.3    0:pch.5   
 region     Saturati     Cutoff     Cutoff   Saturati     Cutoff   Saturati
  id       3.985e-06 -2.000e-07 -2.738e-07 -2.738e-07  2.738e-07 -4.770e-07
  ibs     -6.881e-18  3.946e-20  5.502e-20  6.033e-20 -4.377e-19  1.051e-19
  ibd     -1.021e-07  2.921e-15  6.056e-13  1.109e-16 -2.131e-14  1.118e-16
  vgs        0.6919    -0.7021    -0.7021    -0.8700     0.5399    -0.9982 
  vds        3.2019    -0.7021    -1.8901    -0.8700     0.5399    -0.9982 
  vbs        0.         0.         0.         0.         0.         0.     
  vth        0.6492    -0.8540    -0.7970    -0.8496     0.6695    -0.8779 
  vdsat    8.142e-02 -5.294e-02 -5.320e-02 -9.904e-02  4.405e-02   -0.1687 
  vod      4.271e-02    0.1520   9.492e-02 -2.034e-02   -0.1295    -0.1203 
  beta     1.335e-03  1.688e-03  1.063e-03  8.679e-05  7.132e-03  4.105e-05
  gam eff    0.5342     0.3965     0.4430     0.4041     0.5428     0.3861 
  gm       7.247e-05  4.250e-06  5.944e-06  4.147e-06  7.063e-06  5.249e-06
  gds      1.125e-06  3.653e-08  1.456e-07  9.768e-08  1.023e-07  4.731e-08
  gmb      1.943e-05  9.724e-07  1.314e-06  8.855e-07  2.065e-06  1.140e-06
  cdtot    3.657e-15  4.628e-14  1.211e-14  1.955e-15  2.202e-14  1.898e-15
  cgtot    3.496e-15  3.869e-14  7.444e-15  8.864e-16  1.345e-14  3.436e-15
  cstot    6.602e-15  5.887e-14  1.950e-14  2.679e-15  2.475e-14  5.527e-15
  cbtot    8.734e-15  1.181e-13  3.102e-14  4.577e-15  4.630e-14  5.310e-15
  cgs      1.799e-15  6.438e-15  2.009e-15  2.709e-16  3.479e-15  2.532e-15
  cgd      6.831e-16  6.438e-15  2.009e-15  1.993e-16  3.479e-15  1.993e-16



 subckt                        
 element  0:mcz      0:mt      
 model    0:nch.2    0:nch.1   
 region       Cutoff   Saturati
  id       4.767e-07  2.146e-07
  ibs     -7.178e-19 -3.708e-19
  ibd     -2.832e-10 -4.572e-15
  vgs        0.5399     0.6500 
  vds        2.3018     0.6500 
  vbs        0.         0.     
  vth        0.6628     0.6343 
  vdsat    4.420e-02  8.258e-02
  vod       -0.1228   1.574e-02
  beta     5.965e-03  1.059e-04
  gam eff    0.4707     0.4543 
