Using: /usr/bin/time -p /usr/cad/synopsys/hspice/cur/hspice/linux/hspice TrImp.sp
 ****** HSPICE -- B-2008.09-SP1 32-BIT (Nov 24 2008) linux ******               
  Copyright (C) 2008 Synopsys, Inc. All Rights Reserved.                        
  Unpublished-rights reserved under US copyright laws.
  This program is protected by law and is subject to the 
  terms and conditions of the license agreement from Synopsys.
  Use of this program is your acceptance to be bound by the 
  license agreement. HSPICE is the trademark of Synopsys, Inc.
  Input File: TrImp.sp                                                          
 lic:  
 lic: FLEXlm: v8.5b 
 lic: USER:   m103061608           HOSTNAME: ws43 
 lic: HOSTID: 5cf3fcb5e0d8         PID:      18173 
 lic: Using FLEXlm license file: 
 lic: 26585@lsnctu 
 lic: Checkout 1 hspice 
 lic: License/Maintenance for hspice will expire on 14-may-2016/2015.06 
 lic: FLOATING license(s) on SERVER lsnctu 
 lic:   
 Init: read install configuration file: /usr/cad/synopsys/hspice/cur/hspice/meta.cfg
 Init: hspice initialization file: /usr/cad/synopsys/hspice/cur/hspice/hspice.ini
 .option runlvl
 .option post acout=0 accurate=1 dcon=1 converge=1 gmindc=1.0000e-12 captab=1 unwrap=1
 + ingold=1

 ***param***
 .param
 +comon		= 1.7
 +bias		= 2.4
 +bias2		= 2.4
 +supplyp	= 3.3
 +supplyn	= 0
 +diff			= 0
 ***netlist***
 ***1st stage***
 mb	b	cz	 vdd vdd pch w = 5u  l = 5u  m = 1
 m1	1	vinp b	 b	 pch w = 3u   l = 5u  m = 2
 m2	2	vinn b	 b	 pch w = 3u   l = 5u  m = 2
 m3	1	1	 vss vss nch w = 3u   l = 5u  m = 1
 m4	2	1	 vss vss nch w = 3u l = 5u    m = 1


 ***2nd stage***
 ma1 vop cz vdd vdd pch w = 8.2u l = 1u m = 1
 ma2 vop 2  vss vss nch w = 3u l = 0.4u m = 1
 ***compensation***
 *c1  2 vop 20f   *~ 60db
 c1  2 vop 100f   *~60db for rl added
 ******

 ***current mirror***
 iic cp vss dc = 200n
 mc0 cp cp vdd vdd pch w = 16u l = 1u m = 2
 mc1 c0 cp vdd vdd pch w = 5u l = 0.4u m = 2
 mc2 cn cn c0  c0  pch w = 1u l = 0.4u m = 1
 mc3 cn cn vss vss nch w = 5.1u l = 0.4u m = 3
 mcx  cz cz vdd vdd pch w = 1u l = 1u m = 1
 mcz  cz cn vss vss nch w = 10u l = 1u m = 3

 ***source***
 vd		vdd 	gnd dc supplyp
 vs		vss 	gnd dc supplyn
 vb 		b0		gnd dc bias
 vb1		b1		gnd dc bias2





 ***test***
 mt	vgt	vgt	vss	vss	nch	w = 3u   l = 5u m = 1
 *mt	vdt	vgt	vst	vst	pch w = 2.8u l = 2u m = 1
 *mt	vdt	vgt	vst	vst	pch	w = 12u   l = 5u m = 1
 vtd	vdt	gnd dc = 2.9
 vtg	vgt	gnd dc = 0.65
 vts vst gnd dc = 3.3

 .op


 ***sweep***

 ***input***
 .alter trimp_ol_woload


 **warning**  the accurate option increases  the cpu time but the results
                are more accurate.
 ***accurate option sets default value of the options: 
 lvltim= 4         dvdt= 3       relvar= 200.00m absvar= 200.00m
     ft= 200.00m relmos=  10.00m
 (used for FFT control ) fft_accurate= 1
 

 

 **warning** the following singular supplies were terminated to 1 meg resistor 
   supply       node1            node2
  vb                      0:b0               defined in subckt 0                     0:0                defined in subckt 0               
  vb1                     0:b1               defined in subckt 0                     0:0                defined in subckt 0               
  vtd                     0:vdt              defined in subckt 0                     0:0                defined in subckt 0               
  vts                     0:vst              defined in subckt 0                     0:0                defined in subckt 0               
      
  *** initial damped pseudo transient completed. ***
  *** final try started ***
1****** HSPICE -- B-2008.09-SP1 32-BIT (Nov 24 2008) linux ******               
 ******  
 ***myop_2stage_aboveth

  ******  operating point information tnom=  25.000 temp=  25.000 *****
 ***** operating point status is all       simulation time is     0.     
    node    =voltage      node    =voltage      node    =voltage

 +0:1       =   0.6015  0:2       =   0.6015  0:b       =   0.8445 
 +0:b0      =   2.4000  0:b1      =   2.4000  0:c0      =   1.2281 
 +0:cn      =   0.4510  0:cp      =   2.6993  0:cz      =   2.3918 
 +0:vdd     =   3.3000  0:vdt     =   2.9000  0:vgt     =   0.6500 
 +0:vinn    =   0.      0:vinp    =   0.      0:vop     =   3.1594 
 +0:vss     =   0.      0:vst     =   3.3000 


 maximum nodal capacitance=   4.522E-13         on node     0:vss             

    nodal  capacitance table 

    node    =    cap      node    =    cap      node    =    cap

 +0:1       = 1.020e-13 0:2       = 1.181e-13 0:b       = 3.113e-13
 +0:b0      =   0.      0:b1      =   0.      0:c0      = 1.797e-14
 +0:cn      = 7.946e-14 0:cp      = 8.862e-14 0:cz      = 1.445e-13
 +0:vdd     = 4.303e-13 0:vdt     =   0.      0:vgt     = 5.362e-14
 +0:vinn    = 8.864e-14 0:vinp    = 8.864e-14 0:vop     = 1.167e-13
 +0:vss     = 4.522e-13 0:vst     =   0.     

 

 ****  voltage sources

 subckt                                                                    
 element  0:vd       0:vs       0:vb       0:vb1      0:vtd      0:vtg     
  volts      3.3000     0.         2.4000     2.4000     2.9000     0.6500 
  current -8.369e-06  9.399e-06 -2.400e-06 -2.400e-06 -2.900e-06 -1.031e-06
  power    2.762e-05    0.       5.760e-06  5.760e-06  8.410e-06  6.699e-07

 subckt             
 element  0:vts     
  volts      3.3000 
  current -3.300e-06
  power    1.089e-05

     total voltage source power dissipation=  5.911e-05       watts



 ***** current sources

 subckt             
 element  0:iic     
  volts      2.6993 
  current  2.000e-07
  power   -5.399e-07


     total current source power dissipation=-5.399e-07       watts


 **** mosfets


 subckt                                                                    
 element  0:mb       0:m1       0:m2       0:m3       0:m4       0:ma1     
 model    0:pch.1    0:pch.1    0:pch.1    0:nch.1    0:nch.1    0:pch.2   
 region     Saturati   Saturati   Saturati   Saturati   Saturati     Linear
  id      -1.075e-06 -5.376e-07 -5.376e-07  5.376e-07  5.376e-07 -6.085e-06
  ibs      2.159e-19  1.098e-19  1.098e-19 -9.254e-19 -9.254e-19  1.209e-18
  ibd      1.367e-12  5.918e-16  5.918e-16 -4.644e-15 -4.644e-15  7.607e-16
  vgs       -0.9082    -0.8445    -0.8445     0.6015     0.6015    -0.9082 
  vds       -2.4555    -0.2430    -0.2430     0.6015     0.6015    -0.1406 
  vbs        0.         0.         0.         0.         0.         0.     
  vth       -0.7486    -0.7602    -0.7602     0.5345     0.5345    -0.7591 
  vdsat     -0.1971    -0.1386    -0.1386     0.1106     0.1106    -0.1941 
  vod       -0.1596  -8.429e-02 -8.429e-02  6.699e-02  6.699e-02   -0.1491 
  beta     6.426e-05  7.564e-05  7.564e-05  1.171e-04  1.171e-04  4.670e-04
  gam eff    0.4097     0.4002     0.4002     0.4547     0.4547     0.3952 
  gm       1.017e-05  6.594e-06  6.594e-06  7.938e-06  7.938e-06  5.077e-05
  gds      2.139e-08  7.512e-08  7.512e-08  1.103e-08  1.103e-08  1.992e-05
  gmb      2.387e-06  1.560e-06  1.560e-06  2.358e-06  2.358e-06  1.118e-05
  cdtot    5.150e-15  1.034e-14  1.034e-14  4.158e-15  4.158e-15  1.335e-14
  cgtot    8.030e-14  8.864e-14  8.864e-14  4.376e-14  4.376e-14  2.673e-14
  cstot    9.632e-14  1.009e-13  1.009e-13  4.838e-14  4.838e-14  4.064e-14
  cbtot    3.860e-14  5.214e-14  5.214e-14  2.673e-14  2.673e-14  3.198e-14
  cgs      6.929e-14  7.133e-14  7.133e-14  3.336e-14  3.336e-14  2.246e-14
  cgd      9.242e-16  1.116e-15  1.116e-15  6.333e-16  6.333e-16  1.510e-15



 subckt                                                                    
 element  0:ma2      0:mc0      0:mc1      0:mc2      0:mc3      0:mcx     
 model    0:nch.3    0:pch.2    0:pch.3    0:pch.6    0:nch.3    0:pch.5   
 region     Saturati     Cutoff     Cutoff   Saturati     Cutoff   Saturati
  id       5.934e-06 -2.000e-07 -3.856e-07 -3.856e-07  3.856e-07 -6.232e-07
  ibs     -1.021e-17  3.946e-20  7.745e-20  8.444e-20 -6.154e-19  1.365e-19
  ibd     -1.504e-07  2.932e-15  2.527e-12  1.159e-16 -2.153e-14  1.160e-16
  vgs        0.6015    -0.6007    -0.6007    -0.7771     0.4510    -0.9082 
  vds        3.1594    -0.6007    -2.0719    -0.7771     0.4510    -0.9082 
  vbs        0.         0.         0.         0.         0.         0.     
  vth        0.5472    -0.7542    -0.6799    -0.7453     0.5699    -0.7777 
  vdsat    8.618e-02 -5.250e-02 -5.387e-02   -0.1032   4.416e-02   -0.1766 
  vod      5.430e-02    0.1534   7.924e-02 -3.181e-02   -0.1189    -0.1305 
  beta     1.628e-03  1.891e-03  1.252e-03  1.063e-04  8.618e-03  4.823e-05
  gam eff    0.5474     0.3953     0.4553     0.4082     0.5577     0.3889 
  gm       1.043e-04  4.356e-06  8.478e-06  5.705e-06  1.010e-05  6.636e-06
  gds      1.812e-06  3.944e-08  2.394e-07  1.672e-07  1.665e-07  6.281e-08
  gmb      2.732e-05  9.940e-07  1.857e-06  1.204e-06  2.903e-06  1.438e-06
  cdtot    3.389e-15  4.341e-14  1.084e-14  1.894e-15  2.054e-14  1.834e-15
  cgtot    3.600e-15  3.819e-14  7.021e-15  9.940e-16  1.269e-14  3.695e-15
  cstot    6.628e-15  5.371e-14  1.792e-14  2.737e-15  2.275e-14  5.705e-15
  cbtot    8.182e-15  1.118e-13  2.839e-14  4.395e-15  4.318e-14  5.203e-15
  cgs      2.048e-15  5.874e-15  1.848e-15  4.182e-16  3.200e-15  2.774e-15
  cgd      6.333e-16  5.874e-15  1.848e-15  1.922e-16  3.200e-15  1.922e-16



 subckt                        
 element  0:mcz      0:mt      
 model    0:nch.2    0:nch.1   
 region       Cutoff   Saturati
  id       6.226e-07  1.031e-06
  ibs     -9.372e-19 -1.774e-18
  ibd     -5.675e-10 -4.644e-15
  vgs        0.4510     0.6500 
  vds        2.3918     0.6500 
  vbs        0.         0.     
  vth        0.5636     0.5345 
  vdsat    4.471e-02    0.1435 
  vod       -0.1126     0.1155 
  beta     6.708e-03  1.168e-04
  gam eff    0.4720     0.4547 
  gm       1.564e-05  1.246e-05
  gds      8.596e-08  1.745e-08
  gmb      4.707e-06  3.683e-06
  cdtot    3.189e-14  4.128e-15
  cgtot    4.334e-14  4.949e-14
  cstot    4.284e-14  5.813e-14
  cbtot    9.314e-14  2.717e-14
  cgs      6.232e-15  4.070e-14
  cgd      6.232e-15  6.333e-16




          ***** job concluded
1****** HSPICE -- B-2008.09-SP1 32-BIT (Nov 24 2008) linux ******               
 ******  
 ***myop_2stage_aboveth

  ******  job statistics summary tnom=  25.000 temp=  25.000 *****

  ******  HSPICE Threads Information  ******
  Command Line Threads Count:                      0
  Available CPU Count:                             8
  Actual Model Evaluation(Load) Threads Count:     1
  Actual Solver Threads Count:                     1


  ******  Circuit Statistics  ******
  # nodes       =      46  # elements   =      27
  # resistors   =       4  # capacitors =       1  # inductors   =       0
  # mutual_inds =       0  # vccs       =       0  # vcvs        =       0
  # cccs        =       0  # ccvs       =       0  # volt_srcs   =       7
  # curr_srcs   =       1  # diodes     =       0  # bjts        =       0
  # jfets       =       0  # mosfets    =      14  # U elements  =       0
  # T elements  =       0  # W elements =       0  # B elements  =       0
  # S elements  =       0  # P elements =       0  # va device   =       0


  ******  Runtime Statistics (seconds)  ******

  analysis           time    # points   tot. iter  conv.iter
  op point           0.00           1          88
  readin             0.04
  errchk             0.01
  setup              0.00
  output             0.00


           total memory used          357  kbytes
           total cpu time            0.05 seconds
           total elapsed time        0.20 seconds
           job started at     14:57:31 01/27/2016
           job ended   at     14:57:31 01/27/2016


1****** HSPICE -- B-2008.09-SP1 32-BIT (Nov 24 2008) linux ******               
 ******  
  trimp_ol_woload

  ******    alter processing listing tnom=  25.000 temp=  25.000 *****
 vinp vinp gnd dc = 'comon-diff' *ac = 1
 vinn vinn gnd dc = 'comon+diff' ac = 1 *180
 .dc diff -0.5 0.5 0.01
 .ac dec 1000 0.1 1g
 *.tf v(voa) vinp
 .pz v(vop) vinn
 .probe dc i(m1) i(m2)	i(mt)
 .probe ac vp(vop)
 +gain1st=par('vdb(2)-vdb(vinp,vinn)')	par('i(m1)-i(m2)')	phase1st=par('vp(2)')
 +gainall=par('vdb(vop)-vdb(vinp,vinn)')		phaseall=par('vp(vop)')
 .meas ac gain max par('vdb(vop)-vdb(vinp,vinn)')
 .meas ac gain1st max par('vdb(2, 1)-vdb(vinp,vinn)')
 .meas ac zerodb when par('vdb(vop)-vdb(vinp,vinn)') = 0
 .meas ac phaseatdb	find par('vp(vop)') when par('vdb(vop)-vdb(vinp,vinn)') = 0

 .noise v(vop) vinn 100

 ***open loop wi loading test***
 .alter trimp_ol_wiload
 $ alter processing continues $


 **warning**  the accurate option increases  the cpu time but the results
                are more accurate.
 ***accurate option sets default value of the options: 
 lvltim= 4         dvdt= 3       relvar= 200.00m absvar= 200.00m
     ft= 200.00m relmos=  10.00m
 (used for FFT control ) fft_accurate= 1
 

 **warning** the following singular supplies were terminated to 1 meg resistor 
   supply       node1            node2
  vb                      0:b0               defined in subckt 0                     0:0                defined in subckt 0               
  vb1                     0:b1               defined in subckt 0                     0:0                defined in subckt 0               
  vtd                     0:vdt              defined in subckt 0                     0:0                defined in subckt 0               
  vts                     0:vst              defined in subckt 0                     0:0                defined in subckt 0               
      
  *** initial damped pseudo transient completed. ***
  *** final try started ***
1****** HSPICE -- B-2008.09-SP1 32-BIT (Nov 24 2008) linux ******               
 ******  
  trimp_ol_woload

  ******  operating point information tnom=  25.000 temp=  25.000 *****
 ***** operating point status is all       simulation time is     0.     
    node    =voltage      node    =voltage      node    =voltage

 +0:1       =   0.5989  0:2       =   0.5989  0:b       =   2.5363 
 +0:b0      =   2.4000  0:b1      =   2.4000  0:c0      =   1.2281 
 +0:cn      =   0.4510  0:cp      =   2.6993  0:cz      =   2.3918 
 +0:vdd     =   3.3000  0:vdt     =   2.9000  0:vgt     =   0.6500 
 +0:vinn    =   1.7000  0:vinp    =   1.7000  0:vop     =   3.1707 
 +0:vss     =   0.      0:vst     =   3.3000 


 maximum nodal capacitance=   4.504E-13         on node     0:vss             

    nodal  capacitance table 

    node    =    cap      node    =    cap      node    =    cap

 +0:1       = 9.774e-14 0:2       = 1.147e-13 0:b       = 2.990e-13
 +0:b0      =   0.      0:b1      =   0.      0:c0      = 1.797e-14
 +0:cn      = 7.946e-14 0:cp      = 8.862e-14 0:cz      = 1.451e-13
 +0:vdd     = 4.321e-13 0:vdt     =   0.      0:vgt     = 5.362e-14
 +0:vinn    = 8.632e-14 0:vinp    = 8.632e-14 0:vop     = 1.180e-13
 +0:vss     = 4.504e-13 0:vst     =   0.     

 

 ****  voltage sources

 subckt                                                                    
 element  0:vd       0:vs       0:vb       0:vb1      0:vtd      0:vtg     
  volts      3.3000     0.         2.4000     2.4000     2.9000     0.6500 
  current -8.083e-06  9.114e-06 -2.400e-06 -2.400e-06 -2.900e-06 -1.031e-06
  power    2.667e-05    0.       5.760e-06  5.760e-06  8.410e-06  6.699e-07

 subckt                                   
 element  0:vts      0:vinp     0:vinn    
  volts      3.3000     1.7000     1.7000 
  current -3.300e-06    0.         0.     
  power    1.089e-05    0.         0.     

     total voltage source power dissipation=  5.816e-05       watts



 ***** current sources

 subckt             
 element  0:iic     
  volts      2.6993 
  current  2.000e-07
  power   -5.399e-07


     total current source power dissipation=-5.399e-07       watts


 **** mosfets


 subckt                                                                    
 element  0:mb       0:m1       0:m2       0:m3       0:m4       0:ma1     
 model    0:pch.1    0:pch.1    0:pch.1    0:nch.1    0:nch.1    0:pch.2   
 region     Saturati   Saturati   Saturati   Saturati   Saturati     Linear
  id      -1.035e-06 -5.174e-07 -5.174e-07  5.174e-07  5.174e-07 -5.840e-06
  ibs      2.078e-19  1.056e-19  1.056e-19 -8.907e-19 -8.907e-19  1.160e-18
  ibd      4.759e-16  7.044e-14  7.044e-14 -4.644e-15 -4.644e-15  7.589e-16
  vgs       -0.9082    -0.8363    -0.8363     0.5989     0.5989    -0.9082 
  vds       -0.7637    -1.9374    -1.9374     0.5989     0.5989    -0.1293 
  vbs        0.         0.         0.         0.         0.         0.     
  vth       -0.7515    -0.7570    -0.7570     0.5345     0.5345    -0.7592 
  vdsat     -0.1947    -0.1352    -0.1352     0.1090     0.1090    -0.1941 
  vod       -0.1568  -7.934e-02 -7.934e-02  6.441e-02  6.441e-02   -0.1490 
  beta     6.423e-05  7.575e-05  7.575e-05  1.171e-04  1.171e-04  4.670e-04
  gam eff    0.4097     0.4002     0.4002     0.4547     0.4547     0.3952 
  gm       9.891e-06  6.486e-06  6.486e-06  7.718e-06  7.718e-06  4.730e-05
  gds      2.993e-08  1.473e-08  1.473e-08  1.072e-08  1.072e-08  2.334e-05
  gmb      2.322e-06  1.537e-06  1.537e-06  2.293e-06  2.293e-06  1.044e-05
  cdtot    6.934e-15  7.041e-15  7.041e-15  4.159e-15  4.159e-15  1.462e-14
  cgtot    8.030e-14  8.632e-14  8.632e-14  4.327e-14  4.327e-14  2.736e-14
  cstot    9.632e-14  9.731e-14  9.731e-14  4.755e-14  4.755e-14  4.061e-14
  cbtot    4.038e-14  4.871e-14  4.871e-14  2.669e-14  2.669e-14  3.205e-14
  cgs      6.929e-14  6.848e-14  6.848e-14  3.273e-14  3.273e-14  2.251e-14
  cgd      9.242e-16  1.116e-15  1.116e-15  6.333e-16  6.333e-16  2.226e-15



 subckt                                                                    
 element  0:ma2      0:mc0      0:mc1      0:mc2      0:mc3      0:mcx     
 model    0:nch.3    0:pch.2    0:pch.3    0:pch.6    0:nch.3    0:pch.5   
 region     Saturati     Cutoff     Cutoff   Saturati     Cutoff   Saturati
  id       5.691e-06 -2.000e-07 -3.856e-07 -3.856e-07  3.856e-07 -6.232e-07
  ibs     -9.787e-18  3.946e-20  7.745e-20  8.444e-20 -6.154e-19  1.365e-19
  ibd     -1.488e-07  2.932e-15  2.527e-12  1.159e-16 -2.153e-14  1.160e-16
  vgs        0.5989    -0.6007    -0.6007    -0.7771     0.4510    -0.9082 
  vds        3.1707    -0.6007    -2.0719    -0.7771     0.4510    -0.9082 
  vbs        0.         0.         0.         0.         0.         0.     
  vth        0.5471    -0.7542    -0.6799    -0.7453     0.5699    -0.7777 
  vdsat    8.482e-02 -5.250e-02 -5.387e-02   -0.1032   4.416e-02   -0.1766 
  vod      5.181e-02    0.1534   7.924e-02 -3.181e-02   -0.1189    -0.1305 
  beta     1.628e-03  1.891e-03  1.252e-03  1.063e-04  8.618e-03  4.823e-05
  gam eff    0.5474     0.3953     0.4553     0.4082     0.5577     0.3889 
  gm       1.011e-04  4.356e-06  8.478e-06  5.705e-06  1.010e-05  6.636e-06
  gds      1.762e-06  3.944e-08  2.394e-07  1.672e-07  1.665e-07  6.281e-08
  gmb      2.649e-05  9.940e-07  1.857e-06  1.204e-06  2.903e-06  1.438e-06
  cdtot    3.388e-15  4.341e-14  1.084e-14  1.894e-15  2.054e-14  1.834e-15
  cgtot    3.529e-15  3.819e-14  7.021e-15  9.940e-16  1.269e-14  3.695e-15
  cstot    6.505e-15  5.371e-14  1.792e-14  2.737e-15  2.275e-14  5.705e-15
  cbtot    8.173e-15  1.118e-13  2.839e-14  4.395e-15  4.318e-14  5.203e-15
  cgs      1.957e-15  5.874e-15  1.848e-15  4.182e-16  3.200e-15  2.774e-15
  cgd      6.333e-16  5.874e-15  1.848e-15  1.922e-16  3.200e-15  1.922e-16



 subckt                        
 element  0:mcz      0:mt      
 model    0:nch.2    0:nch.1   
 region       Cutoff   Saturati
  id       6.226e-07  1.031e-06
  ibs     -9.372e-19 -1.774e-18
  ibd     -5.675e-10 -4.644e-15
  vgs        0.4510     0.6500 
  vds        2.3918     0.6500 
  vbs        0.         0.     
  vth        0.5636     0.5345 
  vdsat    4.471e-02    0.1435 
  vod       -0.1126     0.1155 
  beta     6.708e-03  1.168e-04
  gam eff    0.4720     0.4547 
