Using: /usr/bin/time -p /usr/cad/synopsys/hspice/cur/hspice/linux/hspice input.sp
 ****** HSPICE -- B-2008.09-SP1 32-BIT (Nov 24 2008) linux ******               
  Copyright (C) 2008 Synopsys, Inc. All Rights Reserved.                        
  Unpublished-rights reserved under US copyright laws.
  This program is protected by law and is subject to the 
  terms and conditions of the license agreement from Synopsys.
  Use of this program is your acceptance to be bound by the 
  license agreement. HSPICE is the trademark of Synopsys, Inc.
  Input File: input.sp                                                          
 lic:  
 lic: FLEXlm: v8.5b 
 lic: USER:   m103061608           HOSTNAME: ws43 
 lic: HOSTID: 5cf3fcb5e0d8         PID:      27752 
 lic: Using FLEXlm license file: 
 lic: 26585@lsnctu 
 lic: Checkout 1 hspice 
 lic: License/Maintenance for hspice will expire on 14-may-2016/2015.06 
 lic: FLOATING license(s) on SERVER lsnctu 
 lic:   
 Init: read install configuration file: /usr/cad/synopsys/hspice/cur/hspice/meta.cfg
 Init: hspice initialization file: /usr/cad/synopsys/hspice/cur/hspice/hspice.ini
 .option runlvl
 .options abstol=1e-7 reltol=1e-7
 + post=1 captab=1 accurate=1 ingold=1
 ***netlist***

 .param wp = 20u

 mp  out vgp vdd vdd pch w = 2u l = 1u m = 1
 mcg out vgn nwd vss nch w = 3u  l = 0.4u m = 1

 vd vdd gnd dc = 3.3
 vs vss gnd dc = 0
 vpg vgp gnd dc = 2.42       * 1.178u

 vng vgn gnd dc = 1.8

 vn vnw gnd dc = 0.52v ac = 0.01
 mnw nwd vnw vss vss nch w = 6.6u l = 0.4u m = 1

 ***output stage***
 eo out gnd opamp ref out
 vr ref gnd dc = 2v





 .op

 .dc vpg 3.3 2 0.01
 .probe dc par('1/lx8(mp)') par('-i(mp)') par('v(vdp)-v(vgp)') i(mt) i(mp) i(mn)
 + gmn=lx7(mn) rdsn=lx8(mn) gmrdn=par('lx7(mn)*lx8(mn)')
 .print dc i(mp) rdsn=lx8(mp)
 .print dc i(mcg) gmn=lx7(mcg) rdsn=lx8(mcg) gmrdn=par('lx7(mcg)/lx8(mcg)')
 *.meas dc rdsval find par('1/lx8(mp)') when v(vgp)=2.5
 *.meas dc ival find par('-i(mp)') when v(vgp)=2.5
 .ac dec 1000 10 10k
 .noise i(eo) vn
 .end


 **warning**  the accurate option increases  the cpu time but the results
                are more accurate.
 ***accurate option sets default value of the options: 
 lvltim= 4         dvdt= 3       relvar= 200.00m absvar= 200.00m
     ft= 200.00m relmos=  10.00m
 (used for FFT control ) fft_accurate= 1
 

 **warning** could not find branch element     0:mt              
      branch - output ignored
 **warning** could not find branch element     0:mn              
      branch - output ignored
 **warning** could not find branch element     0:mn              
      branch - output ignored
 **warning** could not find branch element     0:mn              
      branch - output ignored
 **warning**  attempt to reference undefined node     0:vdp             
  in the definition of v(vdp,0)
   branch - output ignored

 
      
 ******  
 *inputstage

  ******  dc transfer curves tnom=  25.000 temp=  25.000 *****
x

        volt    current         rdsn    
                    mp                  
    3.30000    -2.601e-12    2.076e-16  
    3.29000    -2.602e-12    2.757e-16  
    3.28000    -2.602e-12    3.662e-16  
    3.27000    -2.603e-12    4.863e-16  
    3.26000    -2.603e-12    6.459e-16  
    3.25000    -2.604e-12    8.578e-16  
    3.24000    -2.606e-12    1.139e-15  
    3.23000    -2.607e-12    1.513e-15  
    3.22000    -2.610e-12    2.009e-15  
    3.21000    -2.613e-12    2.668e-15  
    3.20000    -2.617e-12    3.544e-15  
    3.19000    -2.622e-12    4.706e-15  
    3.18000    -2.630e-12    6.248e-15  
    3.17000    -2.639e-12    8.297e-15  
    3.16000    -2.652e-12    1.102e-14  
    3.15000    -2.669e-12    1.463e-14  
    3.14000    -2.691e-12    1.942e-14  
    3.13000    -2.721e-12    2.578e-14  
    3.12000    -2.761e-12    3.422e-14  
    3.11000    -2.814e-12    4.541e-14  
    3.10000    -2.883e-12    6.027e-14  
    3.09000    -2.976e-12    7.997e-14  
    3.08000    -3.099e-12    1.061e-13  
    3.07000    -3.262e-12    1.407e-13  
    3.06000    -3.479e-12    1.867e-13  
    3.05000    -3.766e-12    2.475e-13  
    3.04000    -4.146e-12    3.281e-13  
    3.03000    -4.651e-12    4.348e-13  
    3.02000    -5.319e-12    5.760e-13  
    3.01000    -6.204e-12    7.627e-13  
    3.00000    -7.375e-12    1.010e-12  
    2.99000    -8.924e-12    1.335e-12  
    2.98000    -1.097e-11    1.766e-12  
    2.97000    -1.368e-11    2.333e-12  
    2.96000    -1.726e-11    3.080e-12  
    2.95000    -2.197e-11    4.063e-12  
    2.94000    -2.819e-11    5.353e-12  
    2.93000    -3.637e-11    7.046e-12  
    2.92000    -4.713e-11    9.262e-12  
    2.91000    -6.126e-11    1.216e-11  
    2.90000    -7.977e-11    1.593e-11  
    2.89000    -1.040e-10    2.084e-11  
    2.88000    -1.356e-10    2.720e-11  
    2.87000    -1.769e-10    3.543e-11  
    2.86000    -2.304e-10    4.602e-11  
    2.85000    -2.998e-10    5.962e-11  
    2.84000    -3.895e-10    7.699e-11  
    2.83000    -5.050e-10    9.909e-11  
    2.82000    -6.532e-10    1.271e-10  
    2.81000    -8.425e-10    1.623e-10  
    2.80000    -1.083e-09    2.065e-10  
    2.79000    -1.389e-09    2.616e-10  
    2.78000    -1.774e-09    3.299e-10  
    2.77000    -2.258e-09    4.141e-10  
    2.76000    -2.862e-09    5.174e-10  
    2.75000    -3.613e-09    6.434e-10  
    2.74000    -4.543e-09    7.966e-10  
    2.73000    -5.688e-09    9.818e-10  
    2.72000    -7.094e-09    1.205e-09  
    2.71000    -8.810e-09    1.473e-09  
    2.70000    -1.090e-08    1.795e-09  
    2.69000    -1.343e-08    2.179e-09  
    2.68000    -1.650e-08    2.638e-09  
    2.67000    -2.019e-08    3.185e-09  
    2.66000    -2.464e-08    3.836e-09  
    2.65000    -2.998e-08    4.610e-09  
    2.64000    -3.638e-08    5.529e-09  
    2.63000    -4.402e-08    6.618e-09  
    2.62000    -5.315e-08    7.905e-09  
    2.61000    -6.402e-08    9.420e-09  
    2.60000    -7.693e-08    1.120e-08  
    2.59000    -9.222e-08    1.327e-08  
    2.58000    -1.103e-07    1.568e-08  
    2.57000    -1.315e-07    1.847e-08  
    2.56000    -1.564e-07    2.166e-08  
    2.55000    -1.855e-07    2.529e-08  
    2.54000    -2.192e-07    2.940e-08  
    2.53000    -2.582e-07    3.400e-08  
    2.52000    -3.029e-07    3.912e-08  
    2.51000    -3.539e-07    4.477e-08  
    2.50000    -4.118e-07    5.094e-08  
    2.49000    -4.771e-07    5.765e-08  
    2.48000    -5.503e-07    6.488e-08  
    2.47000    -6.318e-07    7.261e-08  
    2.46000    -7.221e-07    8.084e-08  
    2.45000    -8.214e-07    8.953e-08  
    2.44000    -9.300e-07    9.867e-08  
    2.43000    -1.048e-06    1.082e-07  
    2.42000    -1.176e-06    1.182e-07  
    2.41000    -1.314e-06    1.286e-07  
    2.40000    -1.463e-06    1.393e-07  
    2.39000    -1.621e-06    1.503e-07  
    2.38000    -1.789e-06    1.617e-07  
    2.37000    -1.968e-06    1.735e-07  
    2.36000    -2.156e-06    1.855e-07  
    2.35000    -2.355e-06    1.979e-07  
    2.34000    -2.564e-06    2.106e-07  
    2.33000    -2.782e-06    2.236e-07  
    2.32000    -3.011e-06    2.369e-07  
    2.31000    -3.249e-06    2.505e-07  
    2.30000    -3.497e-06    2.644e-07  
    2.29000    -3.754e-06    2.787e-07  
    2.28000    -4.021e-06    2.933e-07  
    2.27000    -4.297e-06    3.082e-07  
    2.26000    -4.582e-06    3.234e-07  
    2.25000    -4.877e-06    3.391e-07  
    2.24000    -5.180e-06    3.550e-07  
    2.23000    -5.493e-06    3.714e-07  
    2.22000    -5.814e-06    3.881e-07  
    2.21000    -6.144e-06    4.052e-07  
    2.20000    -6.482e-06    4.228e-07  
    2.19000    -6.830e-06    4.407e-07  
    2.18000    -7.185e-06    4.590e-07  
    2.17000    -7.549e-06    4.778e-07  
    2.16000    -7.922e-06    4.970e-07  
    2.15000    -8.302e-06    5.166e-07  
    2.14000    -8.691e-06    5.367e-07  
    2.13000    -9.088e-06    5.573e-07  
    2.12000    -9.493e-06    5.783e-07  
    2.11000    -9.905e-06    5.999e-07  
    2.10000    -1.033e-05    6.219e-07  
    2.09000    -1.075e-05    6.445e-07  
    2.08000    -1.119e-05    6.675e-07  
    2.07000    -1.163e-05    6.911e-07  
    2.06000    -1.209e-05    7.153e-07  
    2.05000    -1.254e-05    7.400e-07  
    2.04000    -1.301e-05    7.653e-07  
    2.03000    -1.348e-05    7.912e-07  
    2.02000    -1.396e-05    8.176e-07  
    2.01000    -1.445e-05    8.447e-07  
    2.00000    -1.495e-05    8.724e-07  
y
x

        volt    current          gmn         rdsn         gmrdn   
                    mcg                                           
    3.30000     1.178e-06    2.804e-05    4.937e-07     56.7920   
    3.29000     1.178e-06    2.804e-05    4.937e-07     56.7920   
    3.28000     1.178e-06    2.804e-05    4.937e-07     56.7920   
    3.27000     1.178e-06    2.804e-05    4.937e-07     56.7920   
    3.26000     1.178e-06    2.804e-05    4.937e-07     56.7920   
    3.25000     1.178e-06    2.804e-05    4.937e-07     56.7920   
    3.24000     1.178e-06    2.804e-05    4.937e-07     56.7920   
    3.23000     1.178e-06    2.804e-05    4.937e-07     56.7920   
    3.22000     1.178e-06    2.804e-05    4.937e-07     56.7920   
    3.21000     1.178e-06    2.804e-05    4.937e-07     56.7920   
    3.20000     1.178e-06    2.804e-05    4.937e-07     56.7920   
    3.19000     1.178e-06    2.804e-05    4.937e-07     56.7920   
    3.18000     1.178e-06    2.804e-05    4.937e-07     56.7920   
    3.17000     1.178e-06    2.804e-05    4.937e-07     56.7920   
    3.16000     1.178e-06    2.804e-05    4.937e-07     56.7920   
    3.15000     1.178e-06    2.804e-05    4.937e-07     56.7920   
    3.14000     1.178e-06    2.804e-05    4.937e-07     56.7920   
    3.13000     1.178e-06    2.804e-05    4.937e-07     56.7920   
    3.12000     1.178e-06    2.804e-05    4.937e-07     56.7920   
    3.11000     1.178e-06    2.804e-05    4.937e-07     56.7920   
    3.10000     1.178e-06    2.804e-05    4.937e-07     56.7920   
    3.09000     1.178e-06    2.804e-05    4.937e-07     56.7920   
    3.08000     1.178e-06    2.804e-05    4.937e-07     56.7920   
    3.07000     1.178e-06    2.804e-05    4.937e-07     56.7920   
    3.06000     1.178e-06    2.804e-05    4.937e-07     56.7920   
    3.05000     1.178e-06    2.804e-05    4.937e-07     56.7920   
    3.04000     1.178e-06    2.804e-05    4.937e-07     56.7920   
    3.03000     1.178e-06    2.804e-05    4.937e-07     56.7920   
    3.02000     1.178e-06    2.804e-05    4.937e-07     56.7920   
    3.01000     1.178e-06    2.804e-05    4.937e-07     56.7920   
    3.00000     1.178e-06    2.804e-05    4.937e-07     56.7920   
    2.99000     1.178e-06    2.804e-05    4.937e-07     56.7920   
    2.98000     1.178e-06    2.804e-05    4.937e-07     56.7920   
    2.97000     1.178e-06    2.804e-05    4.937e-07     56.7920   
    2.96000     1.178e-06    2.804e-05    4.937e-07     56.7920   
    2.95000     1.178e-06    2.804e-05    4.937e-07     56.7920   
    2.94000     1.178e-06    2.804e-05    4.937e-07     56.7920   
    2.93000     1.178e-06    2.804e-05    4.937e-07     56.7920   
    2.92000     1.178e-06    2.804e-05    4.937e-07     56.7920   
    2.91000     1.178e-06    2.804e-05    4.937e-07     56.7920   
    2.90000     1.178e-06    2.804e-05    4.937e-07     56.7920   
    2.89000     1.178e-06    2.804e-05    4.937e-07     56.7920   
    2.88000     1.178e-06    2.804e-05    4.937e-07     56.7920   
    2.87000     1.178e-06    2.804e-05    4.937e-07     56.7920   
    2.86000     1.178e-06    2.804e-05    4.937e-07     56.7920   
    2.85000     1.178e-06    2.804e-05    4.937e-07     56.7920   
    2.84000     1.178e-06    2.804e-05    4.937e-07     56.7920   
    2.83000     1.178e-06    2.804e-05    4.937e-07     56.7920   
    2.82000     1.178e-06    2.804e-05    4.937e-07     56.7920   
    2.81000     1.178e-06    2.804e-05    4.937e-07     56.7920   
    2.80000     1.178e-06    2.804e-05    4.937e-07     56.7920   
    2.79000     1.178e-06    2.804e-05    4.937e-07     56.7920   
    2.78000     1.178e-06    2.804e-05    4.937e-07     56.7920   
    2.77000     1.178e-06    2.804e-05    4.937e-07     56.7920   
    2.76000     1.178e-06    2.804e-05    4.937e-07     56.7920   
    2.75000     1.178e-06    2.804e-05    4.937e-07     56.7920   
    2.74000     1.178e-06    2.804e-05    4.937e-07     56.7920   
    2.73000     1.178e-06    2.804e-05    4.937e-07     56.7920   
    2.72000     1.178e-06    2.804e-05    4.937e-07     56.7920   
    2.71000     1.178e-06    2.804e-05    4.937e-07     56.7920   
    2.70000     1.178e-06    2.804e-05    4.937e-07     56.7920   
    2.69000     1.178e-06    2.804e-05    4.937e-07     56.7920   
    2.68000     1.178e-06    2.804e-05    4.937e-07     56.7920   
    2.67000     1.178e-06    2.804e-05    4.937e-07     56.7920   
    2.66000     1.178e-06    2.804e-05    4.937e-07     56.7920   
    2.65000     1.178e-06    2.804e-05    4.937e-07     56.7920   
    2.64000     1.178e-06    2.804e-05    4.937e-07     56.7920   
    2.63000     1.178e-06    2.804e-05    4.937e-07     56.7920   
    2.62000     1.178e-06    2.804e-05    4.937e-07     56.7920   
    2.61000     1.178e-06    2.804e-05    4.937e-07     56.7920   
    2.60000     1.178e-06    2.804e-05    4.937e-07     56.7920   
    2.59000     1.178e-06    2.804e-05    4.937e-07     56.7920   
    2.58000     1.178e-06    2.804e-05    4.937e-07     56.7920   
    2.57000     1.178e-06    2.804e-05    4.937e-07     56.7920   
    2.56000     1.178e-06    2.804e-05    4.937e-07     56.7920   
    2.55000     1.178e-06    2.804e-05    4.937e-07     56.7920   
    2.54000     1.178e-06    2.804e-05    4.937e-07     56.7920   
    2.53000     1.178e-06    2.804e-05    4.937e-07     56.7920   
    2.52000     1.178e-06    2.804e-05    4.937e-07     56.7920   
    2.51000     1.178e-06    2.804e-05    4.937e-07     56.7920   
    2.50000     1.178e-06    2.804e-05    4.937e-07     56.7920   
    2.49000     1.178e-06    2.804e-05    4.937e-07     56.7920   
    2.48000     1.178e-06    2.804e-05    4.937e-07     56.7920   
    2.47000     1.178e-06    2.804e-05    4.937e-07     56.7920   
    2.46000     1.178e-06    2.804e-05    4.937e-07     56.7920   
    2.45000     1.178e-06    2.804e-05    4.937e-07     56.7920   
    2.44000     1.178e-06    2.804e-05    4.937e-07     56.7920   
    2.43000     1.178e-06    2.804e-05    4.937e-07     56.7920   
    2.42000     1.178e-06    2.804e-05    4.937e-07     56.7920   
    2.41000     1.178e-06    2.804e-05    4.937e-07     56.7920   
    2.40000     1.178e-06    2.804e-05    4.937e-07     56.7920   
    2.39000     1.178e-06    2.804e-05    4.937e-07     56.7920   
    2.38000     1.178e-06    2.804e-05    4.937e-07     56.7920   
    2.37000     1.178e-06    2.804e-05    4.937e-07     56.7920   
    2.36000     1.178e-06    2.804e-05    4.937e-07     56.7920   
    2.35000     1.178e-06    2.804e-05    4.937e-07     56.7920   
    2.34000     1.178e-06    2.804e-05    4.937e-07     56.7920   
    2.33000     1.178e-06    2.804e-05    4.937e-07     56.7920   
    2.32000     1.178e-06    2.804e-05    4.937e-07     56.7920   
    2.31000     1.178e-06    2.804e-05    4.937e-07     56.7920   
    2.30000     1.178e-06    2.804e-05    4.937e-07     56.7920   
    2.29000     1.178e-06    2.804e-05    4.937e-07     56.7920   
    2.28000     1.178e-06    2.804e-05    4.937e-07     56.7920   
    2.27000     1.178e-06    2.804e-05    4.937e-07     56.7920   
    2.26000     1.178e-06    2.804e-05    4.937e-07     56.7920   
    2.25000     1.178e-06    2.804e-05    4.937e-07     56.7920   
    2.24000     1.178e-06    2.804e-05    4.937e-07     56.7920   
    2.23000     1.178e-06    2.804e-05    4.937e-07     56.7920   
    2.22000     1.178e-06    2.804e-05    4.937e-07     56.7920   
    2.21000     1.178e-06    2.804e-05    4.937e-07     56.7920   
    2.20000     1.178e-06    2.804e-05    4.937e-07     56.7920   
    2.19000     1.178e-06    2.804e-05    4.937e-07     56.7920   
    2.18000     1.178e-06    2.804e-05    4.937e-07     56.7920   
    2.17000     1.178e-06    2.804e-05    4.937e-07     56.7920   
    2.16000     1.178e-06    2.804e-05    4.937e-07     56.7920   
    2.15000     1.178e-06    2.804e-05    4.937e-07     56.7920   
    2.14000     1.178e-06    2.804e-05    4.937e-07     56.7920   
    2.13000     1.178e-06    2.804e-05    4.937e-07     56.7920   
    2.12000     1.178e-06    2.804e-05    4.937e-07     56.7920   
    2.11000     1.178e-06    2.804e-05    4.937e-07     56.7920   
    2.10000     1.178e-06    2.804e-05    4.937e-07     56.7920   
    2.09000     1.178e-06    2.804e-05    4.937e-07     56.7920   
    2.08000     1.178e-06    2.804e-05    4.937e-07     56.7920   
    2.07000     1.178e-06    2.804e-05    4.937e-07     56.7920   
    2.06000     1.178e-06    2.804e-05    4.937e-07     56.7920   
    2.05000     1.178e-06    2.804e-05    4.937e-07     56.7920   
    2.04000     1.178e-06    2.804e-05    4.937e-07     56.7920   
    2.03000     1.178e-06    2.804e-05    4.937e-07     56.7920   
    2.02000     1.178e-06    2.804e-05    4.937e-07     56.7920   
    2.01000     1.178e-06    2.804e-05    4.937e-07     56.7920   
    2.00000     1.178e-06    2.804e-05    4.937e-07     56.7920   
y
1****** HSPICE -- B-2008.09-SP1 32-BIT (Nov 24 2008) linux ******               
 ******  
 *inputstage

  ******  operating point information tnom=  25.000 temp=  25.000 *****
 ***** operating point status is all       simulation time is     0.     
    node    =voltage      node    =voltage      node    =voltage

 +0:nwd     =   1.0213  0:out     =   2.0000  0:ref     =   2.0000 
 +0:vdd     =   3.3000  0:vgn     =   1.8000  0:vgp     =   2.4200 
 +0:vnw     =   0.5200  0:vss     =   0.     


 maximum nodal capacitance=   3.438E-14         on node     0:vss             

    nodal  capacitance table 

    node    =    cap      node    =    cap      node    =    cap

 +0:nwd     = 1.196e-14 0:out     = 6.422e-15 0:ref     =   0.     
 +0:vdd     = 1.850e-14 0:vgn     = 2.208e-15 0:vgp     = 6.671e-15
 +0:vnw     = 5.365e-15 0:vss     = 3.438e-14

 

 ****  voltage sources

 subckt                                                                    
 element  0:vd       0:vs       0:vpg      0:vng      0:vn       0:vr      
  volts      3.3000     0.         2.4200     1.8000     0.5200     2.0000 
  current -1.176e-06  1.178e-06    0.         0.         0.         0.     
  power    3.882e-06    0.         0.         0.         0.         0.     

     total voltage source power dissipation=  3.882e-06       watts



 **** voltage-controlled voltage sources


 subckt             
 element  0:eo      
  volts      1.9984 
  current -1.890e-09





 **** mosfets


 subckt                                   
 element  0:mp       0:mcg      0:mnw     
 model    0:pch.2    0:nch.3    0:nch.3   
 region     Saturati     Cutoff     Cutoff
  id      -1.176e-06  1.178e-06  1.178e-06
  ibs      2.448e-19 -4.644e-15 -1.831e-18
  ibd      1.691e-15 -5.901e-15 -1.351e-14
  vgs       -0.8800     0.7787     0.5200 
  vds       -1.3000     0.9787     1.0213 
  vbs        0.        -1.0213     0.     
  vth       -0.7632     0.7912     0.5663 
  vdsat     -0.1665   6.093e-02  5.069e-02
  vod       -0.1168  -1.256e-02 -4.625e-02
  beta     1.045e-04  1.592e-03  3.761e-03
  gam eff    0.3948     0.5532     0.5610 
  gm       1.331e-05  2.804e-05  2.838e-05
  gds      1.182e-07  4.937e-07  4.216e-07
  gmb      2.904e-06  5.178e-06  7.882e-06
  cdtot    2.805e-15  3.617e-15  8.027e-15
  cgtot    6.671e-15  2.208e-15  5.365e-15
  cstot    1.021e-14  3.938e-15  9.632e-15
  cbtot    8.290e-15  7.229e-15  1.752e-14
  cgs      5.230e-15  6.333e-16  1.376e-15
  cgd      3.751e-16  6.333e-16  1.376e-15






 **** the results of the sqrt of integral (I**2 / freq)
      using more points from fstart to fstop 
      results in more accurate total noise values.

