Using: /usr/bin/time -p /usr/cad/synopsys/hspice/cur/hspice/linux/hspice input.sp
 ****** HSPICE -- B-2008.09-SP1 32-BIT (Nov 24 2008) linux ******               
  Copyright (C) 2008 Synopsys, Inc. All Rights Reserved.                        
  Unpublished-rights reserved under US copyright laws.
  This program is protected by law and is subject to the 
  terms and conditions of the license agreement from Synopsys.
  Use of this program is your acceptance to be bound by the 
  license agreement. HSPICE is the trademark of Synopsys, Inc.
  Input File: input.sp                                                          
 lic:  
 lic: FLEXlm: v8.5b 
 lic: USER:   m103061608           HOSTNAME: ws43 
 lic: HOSTID: 5cf3fcb5e0d8         PID:      10809 
 lic: Using FLEXlm license file: 
 lic: 26585@lsnctu 
 lic: Checkout 1 hspice 
 lic: License/Maintenance for hspice will expire on 14-may-2016/2015.06 
 lic: FLOATING license(s) on SERVER lsnctu 
 lic:   
 Init: read install configuration file: /usr/cad/synopsys/hspice/cur/hspice/meta.cfg
 Init: hspice initialization file: /usr/cad/synopsys/hspice/cur/hspice/hspice.ini
 .option runlvl
 .options abstol=1e-7 reltol=1e-7
 + post=1 captab=1 accurate=1 ingold=2
 ***netlist***

 .param wp = 20u

 *mp  out vgp vdd vdd pch w = 2u l = 1u m = 1
 mcg out vgn nwd vss nch w = 3u  l = 0.4u m = 1

 vd vdd gnd dc = 3.3
 vs vss gnd dc = 0
 *vpg vgp gnd dc = 2.42       * 1.178u

 vng vgn gnd dc = 1.8

 vn vnw gnd dc = 0.52v ac = 0.01
 mnw nwd vnw vss vss nch w = 6.6u l = 0.4u m = 1

 ***output stage***
 eo out gnd opamp ref out
 vr ref gnd dc = 2v





 .op

 *.dc vpg 3.3 2 0.01
 .dc vn 0 0.8 0.001
 .probe dc par('1/lx8(mp)') par('-i(mp)') par('v(vdp)-v(vgp)') i(mt) i(mp) i(mn)
 + gmn=lx7(mn) rdsn=lx8(mn) gmrdn=par('lx7(mn)*lx8(mn)')
 .print dc i(mp) rdsp=lx8(mp)
 .print dc i(mcg) gmn=lx7(mcg) rdsn=lx8(mcg) gmrdn=par('lx7(mcg)/lx8(mcg)')
 *.meas dc rdsval find par('1/lx8(mp)') when v(vgp)=2.5
 *.meas dc ival find par('-i(mp)') when v(vgp)=2.5
 *.ac dec 1000 10 10k
 *.noise i(eo) vn
 .end


 **warning**  the accurate option increases  the cpu time but the results
                are more accurate.
 ***accurate option sets default value of the options: 
 lvltim= 4         dvdt= 3       relvar= 200.00m absvar= 200.00m
     ft= 200.00m relmos=  10.00m
 (used for FFT control ) fft_accurate= 1
 

 **warning** could not find branch element     0:mt              
      branch - output ignored
 **warning** could not find branch element     0:mp              
      branch - output ignored
 **warning** could not find branch element     0:mn              
      branch - output ignored
 **warning** could not find branch element     0:mn              
      branch - output ignored
 **warning** could not find branch element     0:mn              
      branch - output ignored
 **warning** could not find branch element     0:mp              
      branch - output ignored
 **warning**  attempt to reference undefined node     0:vdp             
  in the definition of v(vdp,0)
   branch - output ignored

 **warning**  attempt to reference undefined node     0:vgp             
  in the definition of v(vgp,0)
   branch - output ignored

 **warning** print/plot=out0         of analysis=dc  
 contains unused outputs
 this entire output statement is ignored

 

 **warning** the following singular supplies were terminated to 1 meg resistor 
   supply       node1            node2
  vd                      0:vdd              defined in subckt 0                     0:0                defined in subckt 0               
      

 **warning** zero value is used for the non-existance
             output variable in the expression.
             you may have output variables with
             a long path name.
 ******  
 *inputstage

  ******  dc transfer curves tnom=  25.000 temp=  25.000 *****
x

        volt    current          gmn         rdsn         gmrdn   
                    mcg                                           
    0.          6.862e-12    1.337e-10    2.517e-12    5.312e+01  
  1.0000e-03    6.883e-12    1.343e-10    2.529e-12    5.312e+01  
  2.0000e-03    6.904e-12    1.350e-10    2.541e-12    5.312e+01  
  3.0000e-03    6.926e-12    1.357e-10    2.554e-12    5.312e+01  
  4.0000e-03    6.948e-12    1.364e-10    2.567e-12    5.313e+01  
  5.0000e-03    6.971e-12    1.371e-10    2.581e-12    5.313e+01  
  6.0000e-03    6.995e-12    1.379e-10    2.595e-12    5.313e+01  
  7.0000e-03    7.020e-12    1.386e-10    2.609e-12    5.313e+01  
  8.0000e-03    7.045e-12    1.394e-10    2.624e-12    5.313e+01  
  9.0000e-03    7.071e-12    1.402e-10    2.639e-12    5.314e+01  
  1.0000e-02    7.098e-12    1.411e-10    2.655e-12    5.314e+01  
  1.1000e-02    7.125e-12    1.419e-10    2.671e-12    5.314e+01  
  1.2000e-02    7.153e-12    1.428e-10    2.687e-12    5.314e+01  
  1.3000e-02    7.182e-12    1.437e-10    2.704e-12    5.315e+01  
  1.4000e-02    7.212e-12    1.447e-10    2.722e-12    5.315e+01  
  1.5000e-02    7.243e-12    1.456e-10    2.740e-12    5.315e+01  
  1.6000e-02    7.275e-12    1.466e-10    2.758e-12    5.315e+01  
  1.7000e-02    7.307e-12    1.476e-10    2.777e-12    5.316e+01  
  1.8000e-02    7.341e-12    1.487e-10    2.797e-12    5.316e+01  
  1.9000e-02    7.376e-12    1.498e-10    2.817e-12    5.316e+01  
  2.0000e-02    7.411e-12    1.509e-10    2.838e-12    5.316e+01  
  2.1000e-02    7.448e-12    1.520e-10    2.860e-12    5.317e+01  
  2.2000e-02    7.485e-12    1.532e-10    2.882e-12    5.317e+01  
  2.3000e-02    7.524e-12    1.544e-10    2.904e-12    5.317e+01  
  2.4000e-02    7.564e-12    1.557e-10    2.928e-12    5.318e+01  
  2.5000e-02    7.605e-12    1.570e-10    2.952e-12    5.318e+01  
  2.6000e-02    7.647e-12    1.583e-10    2.976e-12    5.318e+01  
  2.7000e-02    7.691e-12    1.597e-10    3.002e-12    5.319e+01  
  2.8000e-02    7.735e-12    1.611e-10    3.028e-12    5.319e+01  
  2.9000e-02    7.781e-12    1.625e-10    3.055e-12    5.319e+01  
  3.0000e-02    7.829e-12    1.640e-10    3.083e-12    5.320e+01  
  3.1000e-02    7.877e-12    1.655e-10    3.111e-12    5.320e+01  
  3.2000e-02    7.928e-12    1.671e-10    3.141e-12    5.320e+01  
  3.3000e-02    7.979e-12    1.687e-10    3.171e-12    5.321e+01  
  3.4000e-02    8.032e-12    1.704e-10    3.202e-12    5.321e+01  
  3.5000e-02    8.087e-12    1.721e-10    3.234e-12    5.321e+01  
  3.6000e-02    8.143e-12    1.739e-10    3.267e-12    5.322e+01  
  3.7000e-02    8.201e-12    1.757e-10    3.301e-12    5.322e+01  
  3.8000e-02    8.261e-12    1.776e-10    3.336e-12    5.323e+01  
  3.9000e-02    8.322e-12    1.795e-10    3.371e-12    5.323e+01  
  4.0000e-02    8.385e-12    1.815e-10    3.408e-12    5.323e+01  
  4.1000e-02    8.450e-12    1.835e-10    3.446e-12    5.324e+01  
  4.2000e-02    8.517e-12    1.856e-10    3.485e-12    5.324e+01  
  4.3000e-02    8.585e-12    1.877e-10    3.526e-12    5.325e+01  
  4.4000e-02    8.656e-12    1.900e-10    3.567e-12    5.325e+01  
  4.5000e-02    8.729e-12    1.923e-10    3.610e-12    5.326e+01  
  4.6000e-02    8.804e-12    1.946e-10    3.653e-12    5.326e+01  
  4.7000e-02    8.881e-12    1.970e-10    3.699e-12    5.327e+01  
  4.8000e-02    8.960e-12    1.995e-10    3.745e-12    5.327e+01  
  4.9000e-02    9.042e-12    2.021e-10    3.793e-12    5.328e+01  
  5.0000e-02    9.126e-12    2.047e-10    3.842e-12    5.328e+01  
  5.1000e-02    9.212e-12    2.074e-10    3.892e-12    5.329e+01  
  5.2000e-02    9.301e-12    2.102e-10    3.944e-12    5.329e+01  
  5.3000e-02    9.393e-12    2.131e-10    3.998e-12    5.330e+01  
  5.4000e-02    9.487e-12    2.160e-10    4.053e-12    5.330e+01  
  5.5000e-02    9.584e-12    2.191e-10    4.110e-12    5.331e+01  
  5.6000e-02    9.684e-12    2.222e-10    4.168e-12    5.331e+01  
  5.7000e-02    9.786e-12    2.254e-10    4.228e-12    5.332e+01  
  5.8000e-02    9.892e-12    2.288e-10    4.290e-12    5.332e+01  
  5.9000e-02    1.000e-11    2.322e-10    4.353e-12    5.333e+01  
  6.0000e-02    1.011e-11    2.357e-10    4.419e-12    5.333e+01  
  6.1000e-02    1.023e-11    2.393e-10    4.486e-12    5.334e+01  
  6.2000e-02    1.035e-11    2.430e-10    4.555e-12    5.335e+01  
  6.3000e-02    1.047e-11    2.468e-10    4.626e-12    5.335e+01  
  6.4000e-02    1.059e-11    2.508e-10    4.700e-12    5.336e+01  
  6.5000e-02    1.072e-11    2.548e-10    4.775e-12    5.336e+01  
  6.6000e-02    1.085e-11    2.590e-10    4.853e-12    5.337e+01  
  6.7000e-02    1.099e-11    2.633e-10    4.932e-12    5.338e+01  
  6.8000e-02    1.113e-11    2.677e-10    5.015e-12    5.338e+01  
  6.9000e-02    1.128e-11    2.723e-10    5.099e-12    5.339e+01  
  7.0000e-02    1.143e-11    2.769e-10    5.186e-12    5.340e+01  
  7.1000e-02    1.158e-11    2.817e-10    5.275e-12    5.340e+01  
  7.2000e-02    1.174e-11    2.867e-10    5.367e-12    5.341e+01  
  7.3000e-02    1.190e-11    2.918e-10    5.462e-12    5.342e+01  
  7.4000e-02    1.207e-11    2.970e-10    5.560e-12    5.342e+01  
  7.5000e-02    1.224e-11    3.024e-10    5.660e-12    5.343e+01  
  7.6000e-02    1.241e-11    3.080e-10    5.763e-12    5.344e+01  
  7.7000e-02    1.260e-11    3.137e-10    5.869e-12    5.344e+01  
  7.8000e-02    1.278e-11    3.196e-10    5.978e-12    5.345e+01  
  7.9000e-02    1.297e-11    3.256e-10    6.091e-12    5.346e+01  
  8.0000e-02    1.317e-11    3.318e-10    6.206e-12    5.346e+01  
  8.1000e-02    1.338e-11    3.382e-10    6.325e-12    5.347e+01  
  8.2000e-02    1.359e-11    3.448e-10    6.447e-12    5.348e+01  
  8.3000e-02    1.380e-11    3.516e-10    6.573e-12    5.349e+01  
  8.4000e-02    1.402e-11    3.586e-10    6.703e-12    5.349e+01  
  8.5000e-02    1.425e-11    3.658e-10    6.836e-12    5.350e+01  
  8.6000e-02    1.449e-11    3.731e-10    6.973e-12    5.351e+01  
  8.7000e-02    1.473e-11    3.807e-10    7.114e-12    5.352e+01  
  8.8000e-02    1.498e-11    3.886e-10    7.259e-12    5.352e+01  
  8.9000e-02    1.523e-11    3.966e-10    7.408e-12    5.353e+01  
  9.0000e-02    1.550e-11    4.049e-10    7.562e-12    5.354e+01  
  9.1000e-02    1.577e-11    4.134e-10    7.720e-12    5.355e+01  
  9.2000e-02    1.605e-11    4.222e-10    7.882e-12    5.355e+01  
  9.3000e-02    1.633e-11    4.312e-10    8.049e-12    5.356e+01  
  9.4000e-02    1.663e-11    4.405e-10    8.221e-12    5.357e+01  
  9.5000e-02    1.693e-11    4.500e-10    8.398e-12    5.358e+01  
  9.6000e-02    1.725e-11    4.598e-10    8.580e-12    5.359e+01  
  9.7000e-02    1.757e-11    4.699e-10    8.768e-12    5.359e+01  
  9.8000e-02    1.790e-11    4.803e-10    8.960e-12    5.360e+01  
  9.9000e-02    1.824e-11    4.910e-10    9.158e-12    5.361e+01  
  1.0000e-01    1.859e-11    5.020e-10    9.362e-12    5.362e+01  
  1.0100e-01    1.895e-11    5.134e-10    9.572e-12    5.363e+01  
  1.0200e-01    1.932e-11    5.250e-10    9.788e-12    5.364e+01  
  1.0300e-01    1.970e-11    5.370e-10    1.001e-11    5.364e+01  
  1.0400e-01    2.010e-11    5.493e-10    1.024e-11    5.365e+01  
  1.0500e-01    2.050e-11    5.620e-10    1.047e-11    5.366e+01  
  1.0600e-01    2.092e-11    5.751e-10    1.071e-11    5.367e+01  
  1.0700e-01    2.134e-11    5.885e-10    1.096e-11    5.368e+01  
  1.0800e-01    2.178e-11    6.023e-10    1.122e-11    5.369e+01  
  1.0900e-01    2.224e-11    6.166e-10    1.148e-11    5.369e+01  
  1.1000e-01    2.270e-11    6.312e-10    1.175e-11    5.370e+01  
  1.1100e-01    2.318e-11    6.462e-10    1.203e-11    5.371e+01  
  1.1200e-01    2.367e-11    6.617e-10    1.232e-11    5.372e+01  
  1.1300e-01    2.418e-11    6.777e-10    1.261e-11    5.373e+01  
  1.1400e-01    2.470e-11    6.941e-10    1.291e-11    5.374e+01  
  1.1500e-01    2.524e-11    7.109e-10    1.323e-11    5.375e+01  
  1.1600e-01    2.579e-11    7.283e-10    1.355e-11    5.376e+01  
  1.1700e-01    2.636e-11    7.461e-10    1.388e-11    5.376e+01  
  1.1800e-01    2.695e-11    7.645e-10    1.422e-11    5.377e+01  
  1.1900e-01    2.755e-11    7.834e-10    1.456e-11    5.378e+01  
  1.2000e-01    2.817e-11    8.028e-10    1.492e-11    5.379e+01  
  1.2100e-01    2.880e-11    8.228e-10    1.529e-11    5.380e+01  
  1.2200e-01    2.946e-11    8.434e-10    1.567e-11    5.381e+01  
  1.2300e-01    3.013e-11    8.646e-10    1.606e-11    5.382e+01  
  1.2400e-01    3.083e-11    8.863e-10    1.647e-11    5.383e+01  
  1.2500e-01    3.154e-11    9.087e-10    1.688e-11    5.384e+01  
  1.2600e-01    3.228e-11    9.318e-10    1.730e-11    5.385e+01  
  1.2700e-01    3.303e-11    9.555e-10    1.774e-11    5.385e+01  
  1.2800e-01    3.381e-11    9.799e-10    1.819e-11    5.386e+01  
  1.2900e-01    3.461e-11    1.005e-09    1.865e-11    5.387e+01  
  1.3000e-01    3.543e-11    1.031e-09    1.913e-11    5.388e+01  
  1.3100e-01    3.628e-11    1.057e-09    1.962e-11    5.389e+01  
  1.3200e-01    3.715e-11    1.085e-09    2.012e-11    5.390e+01  
  1.3300e-01    3.804e-11    1.113e-09    2.064e-11    5.391e+01  
  1.3400e-01    3.896e-11    1.142e-09    2.117e-11    5.392e+01  
  1.3500e-01    3.991e-11    1.171e-09    2.172e-11    5.393e+01  
  1.3600e-01    4.089e-11    1.202e-09    2.228e-11    5.394e+01  
  1.3700e-01    4.189e-11    1.234e-09    2.286e-11    5.395e+01  
  1.3800e-01    4.292e-11    1.266e-09    2.346e-11    5.396e+01  
  1.3900e-01    4.399e-11    1.299e-09    2.407e-11    5.396e+01  
  1.4000e-01    4.508e-11    1.334e-09    2.470e-11    5.397e+01  
  1.4100e-01    4.620e-11    1.369e-09    2.535e-11    5.398e+01  
  1.4200e-01    4.736e-11    1.405e-09    2.602e-11    5.399e+01  
  1.4300e-01    4.855e-11    1.442e-09    2.671e-11    5.400e+01  
  1.4400e-01    4.977e-11    1.481e-09    2.741e-11    5.401e+01  
  1.4500e-01    5.103e-11    1.520e-09    2.814e-11    5.402e+01  
  1.4600e-01    5.233e-11    1.561e-09    2.889e-11    5.403e+01  
  1.4700e-01    5.366e-11    1.603e-09    2.965e-11    5.404e+01  
  1.4800e-01    5.503e-11    1.646e-09    3.044e-11    5.405e+01  
  1.4900e-01    5.644e-11    1.690e-09    3.126e-11    5.406e+01  
  1.5000e-01    5.789e-11    1.735e-09    3.209e-11    5.407e+01  
  1.5100e-01    5.939e-11    1.782e-09    3.295e-11    5.408e+01  
  1.5200e-01    6.092e-11    1.830e-09    3.384e-11    5.409e+01  
  1.5300e-01    6.250e-11    1.880e-09    3.475e-11    5.410e+01  
  1.5400e-01    6.413e-11    1.931e-09    3.568e-11    5.410e+01  
  1.5500e-01    6.580e-11    1.983e-09    3.664e-11    5.411e+01  
  1.5600e-01    6.752e-11    2.037e-09    3.763e-11    5.412e+01  
  1.5700e-01    6.929e-11    2.092e-09    3.865e-11    5.413e+01  
  1.5800e-01    7.111e-11    2.149e-09    3.970e-11    5.414e+01  
  1.5900e-01    7.299e-11    2.208e-09    4.077e-11    5.415e+01  
  1.6000e-01    7.491e-11    2.268e-09    4.188e-11    5.416e+01  
  1.6100e-01    7.690e-11    2.331e-09    4.302e-11    5.417e+01  
  1.6200e-01    7.894e-11    2.394e-09    4.419e-11    5.418e+01  
  1.6300e-01    8.103e-11    2.460e-09    4.539e-11    5.419e+01  
  1.6400e-01    8.319e-11    2.528e-09    4.663e-11    5.420e+01  
  1.6500e-01    8.541e-11    2.597e-09    4.791e-11    5.421e+01  
  1.6600e-01    8.770e-11    2.669e-09    4.922e-11    5.422e+01  
  1.6700e-01    9.005e-11    2.742e-09    5.056e-11    5.423e+01  
  1.6800e-01    9.246e-11    2.818e-09    5.195e-11    5.424e+01  
  1.6900e-01    9.495e-11    2.896e-09    5.337e-11    5.424e+01  
  1.7000e-01    9.751e-11    2.976e-09    5.484e-11    5.425e+01  
  1.7100e-01    1.001e-10    3.058e-09    5.635e-11    5.426e+01  
  1.7200e-01    1.028e-10    3.142e-09    5.790e-11    5.427e+01  
  1.7300e-01    1.056e-10    3.230e-09    5.949e-11    5.428e+01  
  1.7400e-01    1.085e-10    3.319e-09    6.113e-11    5.429e+01  
  1.7500e-01    1.114e-10    3.411e-09    6.282e-11    5.430e+01  
  1.7600e-01    1.145e-10    3.506e-09    6.455e-11    5.431e+01  
  1.7700e-01    1.176e-10    3.604e-09    6.633e-11    5.432e+01  
  1.7800e-01    1.208e-10    3.704e-09    6.817e-11    5.433e+01  
  1.7900e-01    1.241e-10    3.807e-09    7.006e-11    5.434e+01  
  1.8000e-01    1.275e-10    3.913e-09    7.200e-11    5.435e+01  
  1.8100e-01    1.310e-10    4.022e-09    7.399e-11    5.436e+01  
  1.8200e-01    1.346e-10    4.134e-09    7.604e-11    5.436e+01  
  1.8300e-01    1.383e-10    4.250e-09    7.815e-11    5.437e+01  
  1.8400e-01    1.421e-10    4.368e-09    8.032e-11    5.438e+01  
  1.8500e-01    1.460e-10    4.491e-09    8.255e-11    5.439e+01  
  1.8600e-01    1.500e-10    4.616e-09    8.485e-11    5.440e+01  
  1.8700e-01    1.542e-10    4.745e-09    8.721e-11    5.441e+01  
  1.8800e-01    1.584e-10    4.878e-09    8.963e-11    5.442e+01  
  1.8900e-01    1.628e-10    5.015e-09    9.213e-11    5.443e+01  
  1.9000e-01    1.673e-10    5.155e-09    9.470e-11    5.444e+01  
  1.9100e-01    1.719e-10    5.300e-09    9.734e-11    5.445e+01  
  1.9200e-01    1.767e-10    5.449e-09    1.000e-10    5.446e+01  
  1.9300e-01    1.816e-10    5.602e-09    1.028e-10    5.446e+01  
  1.9400e-01    1.867e-10    5.759e-09    1.057e-10    5.447e+01  
  1.9500e-01    1.918e-10    5.921e-09    1.087e-10    5.448e+01  
  1.9600e-01    1.972e-10    6.087e-09    1.117e-10    5.449e+01  
  1.9700e-01    2.027e-10    6.258e-09    1.148e-10    5.450e+01  
  1.9800e-01    2.083e-10    6.434e-09    1.180e-10    5.451e+01  
  1.9900e-01    2.141e-10    6.615e-09    1.213e-10    5.452e+01  
  2.0000e-01    2.201e-10    6.801e-09    1.247e-10    5.453e+01  
  2.0100e-01    2.263e-10    6.993e-09    1.282e-10    5.454e+01  
  2.0200e-01    2.326e-10    7.190e-09    1.318e-10    5.454e+01  
  2.0300e-01    2.391e-10    7.392e-09    1.355e-10    5.455e+01  
  2.0400e-01    2.458e-10    7.601e-09    1.393e-10    5.456e+01  
  2.0500e-01    2.527e-10    7.815e-09    1.432e-10    5.457e+01  
  2.0600e-01    2.597e-10    8.035e-09    1.472e-10    5.458e+01  
  2.0700e-01    2.670e-10    8.262e-09    1.513e-10    5.459e+01  
  2.0800e-01    2.745e-10    8.495e-09    1.556e-10    5.460e+01  
  2.0900e-01    2.822e-10    8.734e-09    1.599e-10    5.461e+01  
  2.1000e-01    2.901e-10    8.981e-09    1.644e-10    5.461e+01  
  2.1100e-01    2.983e-10    9.234e-09    1.690e-10    5.462e+01  
  2.1200e-01    3.067e-10    9.495e-09    1.738e-10    5.463e+01  
  2.1300e-01    3.153e-10    9.763e-09    1.787e-10    5.464e+01  
  2.1400e-01    3.242e-10    1.004e-08    1.837e-10    5.465e+01  
  2.1500e-01    3.333e-10    1.032e-08    1.888e-10    5.466e+01  
  2.1600e-01    3.427e-10    1.061e-08    1.941e-10    5.467e+01  
  2.1700e-01    3.524e-10    1.091e-08    1.996e-10    5.467e+01  
  2.1800e-01    3.623e-10    1.122e-08    2.052e-10    5.468e+01  
  2.1900e-01    3.725e-10    1.154e-08    2.110e-10    5.469e+01  
  2.2000e-01    3.830e-10    1.187e-08    2.169e-10    5.470e+01  
  2.2100e-01    3.938e-10    1.220e-08    2.230e-10    5.471e+01  
  2.2200e-01    4.049e-10    1.255e-08    2.293e-10    5.472e+01  
  2.2300e-01    4.164e-10    1.290e-08    2.357e-10    5.472e+01  
  2.2400e-01    4.281e-10    1.327e-08    2.423e-10    5.473e+01  
  2.2500e-01    4.402e-10    1.364e-08    2.492e-10    5.474e+01  
  2.2600e-01    4.527e-10    1.403e-08    2.562e-10    5.475e+01  
  2.2700e-01    4.655e-10    1.442e-08    2.634e-10    5.476e+01  
  2.2800e-01    4.787e-10    1.483e-08    2.708e-10    5.477e+01  
  2.2900e-01    4.922e-10    1.525e-08    2.784e-10    5.477e+01  
  2.3000e-01    5.061e-10    1.568e-08    2.862e-10    5.478e+01  
  2.3100e-01    5.205e-10    1.612e-08    2.943e-10    5.479e+01  
  2.3200e-01    5.352e-10    1.658e-08    3.025e-10    5.480e+01  
  2.3300e-01    5.503e-10    1.705e-08    3.111e-10    5.481e+01  
  2.3400e-01    5.659e-10    1.753e-08    3.198e-10    5.481e+01  
  2.3500e-01    5.820e-10    1.803e-08    3.288e-10    5.482e+01  
  2.3600e-01    5.985e-10    1.854e-08    3.381e-10    5.483e+01  
  2.3700e-01    6.154e-10    1.906e-08    3.476e-10    5.484e+01  
