Using: /usr/bin/time -p /usr/cad/synopsys/hspice/cur/hspice/linux/hspice new.sp
 ****** HSPICE -- B-2008.09-SP1 32-BIT (Nov 24 2008) linux ******               
  Copyright (C) 2008 Synopsys, Inc. All Rights Reserved.                        
  Unpublished-rights reserved under US copyright laws.
  This program is protected by law and is subject to the 
  terms and conditions of the license agreement from Synopsys.
  Use of this program is your acceptance to be bound by the 
  license agreement. HSPICE is the trademark of Synopsys, Inc.
  Input File: new.sp                                                            
 lic:  
 lic: FLEXlm: v8.5b 
 lic: USER:   m103061608           HOSTNAME: ws42 
 lic: HOSTID: e41f13bfda98         PID:      21152 
 lic: Using FLEXlm license file: 
 lic: 26585@lsnctu 
 lic: Checkout 1 hspice 
 lic: License/Maintenance for hspice will expire on 14-may-2016/2015.06 
 lic: FLOATING license(s) on SERVER lsnctu 
 lic:   
 Init: read install configuration file: /usr/cad/synopsys/hspice/cur/hspice/meta.cfg
 Init: hspice initialization file: /usr/cad/synopsys/hspice/cur/hspice/hspice.ini
 .option runlvl
 .options abstol=1e-7 reltol=1e-7
 + post=1 captab=1 accurate=1 ingold=2 *converge=5 dcon=2

 ***subckt***
 ******ienlarge******
 .subckt ien vdd vss vinn vinp vout cz eb
 mb	b	cz	 vdd vdd pch   w = 5u  l = 5u  m = 1
 m1	von	vinp b	 b	 pch   w = 1u  l = 5u  m = 1
 m2	vop	vinn b	 b	 pch   w = 1u  l = 5u  m = 1
 m3	von	von	 vss vss nch   w = 1u  l = 5u  m = 1
 m4	vop	von	 vss vss nch   w = 1u  l = 5u    m = 1

 me1p vinp eb vdd vdd pch   w = 10u l = 0.4u
 me2p vout eb vdd vdd pch   w = 10u l = 0.4u m = 10
 me1n vinp vop vss vss nch  w = 2u l = 1u
 me2n vout vop vss vss nch  w = 2u l = 1u m = 10
 *rc  xx   vop 100k
 cc  vinp vop  10f
 *ct  vout gnd 300f
 .ends
 ******tr******
 .subckt tr vdd vss vinp vinn vop cz rld=20k
 mb	b	cz	 vdd vdd pch w = 5u  l = 5u  m = 1
 m1	1	vinn b	 b	 pch w = 3u   l = 5u  m = 2
 m2	2	vinp b	 b	 pch w = 3u   l = 5u  m = 2
 m3	1	1	 vss vss nch w = 3u   l = 5u  m = 1
 m4	2	1	 vss vss nch w = 3u l = 5u    m = 1
 ma1 vop cz vdd vdd pch w = 8u l = 1u m = 2
 ma2 vop 2  vss vss nch w = 17.3u l = 1u m = 2
 c1  2  vop 1p
 *c2  1  von 1p
 rl   vop    vinn rld
 .ends
 ******gm******
 .subckt gm vdd vss inp inn io2  vb
 mb  bd  vb  vdd vdd pch w = 6u l = 2u   m = 1
 .subckt gmx vdd vss in bd gg id sd
 ms  sd  sd bd  bd  pch w = 2u    l = 1u m = 1
 min id  id  sd  in  pch w = 1u    l = 5u m = 1
 mn  id  gg  vss vss nch w = 2u    l = 2u m = 1
 .ends
 mb1  bd   ggp  bump vss nch w = 2.3u l = 0.6u m = 1
 mb2  bump ggn  vss  vss  nch w = 4u l = 0.6u m = 1
 mo1  io1  ggn  vss  vss  nch w = 2u l = 2u m = 1
 mo2  io2  ggp  vss  vss  nch w = 2u l = 2u m = 1
 mo3a io1a io1a vdd  vdd  pch w = 2u l = 2u m = 1
 mo3  io1  io1  io1a io1a pch w = 2u l = 2u m = 1
 mo4a io2a io1a vdd  vdd  pch w = 2u l = 2u m = 1
 mo4  io2  io1  io2a io2a pch w = 2u l = 2u m = 1
 xgmx1  vdd vss inp bd ggp idp sdp gmx
 xgmx2  vdd vss inn bd ggn idn sdn gmx
 v0  idp ggp dc = 0
 v1  idn ggn dc = 0
 *cc   io1 ggn  500f        *the small fallen peak btw 10k, 100k can be slightly reduced by this
 .ends
 ******op: single stage******
 .subckt trx vdd vss vinp vinn 2 cz
 mb	b	cz	 vdd vdd pch w = 1u  l = 5u  m = 1
 m1	1	vinn b	 b	 pch w = 1u  l = 5u  m = 1
 m2	2	vinp b	 b	 pch w = 1u  l = 5u  m = 1
 m3	1	1	 vss vss nch w = 1u  l = 5u  m = 1
 m4	2	1	 vss vss nch w = 1u  l = 5u    m = 1
 *ro  2  vss 1000k
 .ends
 ******op: folded cascode*******
 .subckt op_fc vdd vss vinp vinn vop cp cp2 cn
 mb	b	cp	 vdd vdd pch w = 6u   l = 5u  m = 1
 m1	1	vinp b	 b	 pch w = 3u   l = 3u  m = 1
 m2	2	vinn b	 b	 pch w = 3u   l = 3u  m = 1
 my1 von von  vdd vdd pch w = 3u   l = 5u  m = 1
 my2 vop von  vdd vdd pch w = 3u   l = 5u  m = 1
 m3	von cp2	 1   vss nch w = 3u   l = 3u  m = 1
 m4	vop	cp2	 2   vss nch w = 3u   l = 3u  m = 1
 mz1 1	cn	 vss vss nch w = 5u   l = 3u  m = 2
 mz2	2	cn	 vss vss nch w = 5u   l = 3u  m = 2
 .ends
 ******current mirror******
 .subckt cmb vdd vss cp cp2 cp3 cp4 cn     *cp = 2.4; cp2 = 1.25; cp3 = cn =  0.6; cp4 = 2.7
 iin cp  vss dc = 1u
 mc0 cp  cp  vdd vdd pch w = 5.1u l = 5u     m = 1
 mc1 c0  cp  vdd vdd pch w = 2u   l = 5u     m = 1
 mc5 c2  cp  vdd vdd pch w = 2u   l = 5u     m = 1
 mc2 cp2 cp2 c0  c0  pch w = 1u   l = 5u     m = 1
 mc6 c3  cp2 c2  c2  pch w = 1u   l = 5u     m = 1
 mc3 cn  cp3 cp2 cp2 pch w = 5u   l = 0.5u   m = 2
 mc7 cp3 cp3 c3  c3  pch w = 5u   l = 0.5u   m = 2
 mc4 cn  cn  vss vss nch w = 1u   l = 3u     m = 1
 mc8 cp3 cn  vss vss nch w = 1u   l = 3u     m = 1

 mca cp4 cp4 vdd vdd pch w = 5u   l = 0.5u   m = 6
 mcb cp4 cn  vss vss nch w = 1u   l = 3u     m = 1
 .ends

 xcmb vdd vss cz cp2 cp3 cx cn cmb

 ***netlist***
 xtri vdd vss opb ti_in ti_out  cz  tr rld=100k
 xgm  vdd vss gm_in gm_out gm_c  cx  gm
 xgm2  vdd vss gm_c gm_out gm_out  cx  gm
 *xtro vdd vss to_in opb to_out  cz  trx
 xop_fc vdd vss to_in opb to_out cz cp2 cn op_fc
 *xtro vdd vss to_in opb to_out  cz  gm       *use gm as op
 cg  gm_c gnd 10p
 cg2  gm_out gnd 10p
 xien vdd vss opb ien_in ien_out cx  eb ien
 veb eb gnd dc = 2.6

 ***nw input stage***
 .param pbi = 10u
 ip vdd out dc = pbi
 mc  out vgn nwd vss nch w = 10u  l = 1u m = 1
 vng vgn gnd dc = 1.8
 .param wx = 1u
 mnw nwd vnw vss vsn nch w = wx l = 0.4u m = 1
 vsn vsn gnd dc = 0

 vc1 out     ien_in  dc = 0
 vc2 ti_in   ien_out dc = 0
 vc3 ti_out  gm_in   dc = 0
 vc4 gm_out  to_in   dc = 0
 vfc to_out vnw dc = vdif




 vopbias opb gnd dc = 2 *ac = 1 *180
 .param
 +comon		= 2
 +diff		= 0
 +vdif       = 0
 vd vdd gnd dc = 3.3
 vs vss gnd dc = 0


 ***compensation***
 cc1 to_out gnd 100p


 .probe dc i(mp) i(mnw) i(ip) i(mc) i(xtri.rl) lx3(mc) lv9(mc) lv9(mnw)
 + par'lx7(mc)/lx8(mc)/lx8(mnw)'

 ***ic***        *this help converge


 .op

 ***cloase loop test***
 .alter  *inw_dc    #0


 **warning**  the accurate option increases  the cpu time but the results
                are more accurate.
 ***accurate option sets default value of the options: 
 lvltim= 4         dvdt= 3       relvar= 200.00m absvar= 200.00m
     ft= 200.00m relmos=  10.00m
 (used for FFT control ) fft_accurate= 1
1****** HSPICE -- B-2008.09-SP1 32-BIT (Nov 24 2008) linux ******               
 ******  
 *inputstage

  ******  circuit name directory
 circuit number to circuit name directory
   number circuitname                     definition         multiplier
        0 main circuit
        1 xcmb.                           cmb                1.00 
        2 xtri.                           tr                 1.00 
        3 xgm.                            gm                 1.00 
        4 xgm2.                           gm                 1.00 
        5 xop_fc.                         op_fc              1.00 
        6 xien.                           ien                1.00 
        7 xgm.xgmx1.                      gmx                1.00 
        8 xgm.xgmx2.                      gmx                1.00 
        9 xgm2.xgmx1.                     gmx                1.00 
       10 xgm2.xgmx2.                     gmx                1.00 
 

 **warning** could not find branch element     0:mp              
      branch - output ignored
 
      
  Opening plot unit= 15
 file=new.pa0                                                                  


 **diagnostic** rebuilding matrix with pivot option


 **diagnostic** dc convergence failure, 
 resetting dcon option to 1 and retrying

 **diagnostic** dc convergence successful
 you can increase the efficiency of the
 operating point calculation by setting dcon= 1
 in the .option statement
1****** HSPICE -- B-2008.09-SP1 32-BIT (Nov 24 2008) linux ******               
 ******  
 *inputstage

  ******  operating point information tnom=  25.000 temp=  25.000 *****
 ***** operating point status is all       simulation time is     0.     
     node    =voltage       node    =voltage       node    =voltage

 + 0:cn      = 6.064e-01  0:cp2     = 1.250e+00  0:cp3     = 6.064e-01
 + 0:cx      = 2.701e+00  0:cz      = 2.398e+00  0:eb      = 2.600e+00
 + 0:gm_c    = 1.988e+00  0:gm_in   = 1.988e+00  0:gm_out  = 1.992e+00
 + 0:ien_in  = 2.000e+00  0:ien_out = 2.000e+00  0:nwd     = 9.318e-01
 + 0:opb     = 2.000e+00  0:out     = 2.000e+00  0:ti_in   = 2.000e+00
 + 0:ti_out  = 1.988e+00  0:to_in   = 1.992e+00  0:to_out  = 7.663e-01
 + 0:vdd     = 3.300e+00  0:vgn     = 1.800e+00  0:vnw     = 7.663e-01
 + 0:vsn     =   0.       0:vss     =   0.       1:c0      = 2.261e+00
 + 1:c2      = 2.261e+00  1:c3      = 1.250e+00  2:1       = 5.942e-01
 + 2:2       = 5.891e-01  2:b       = 2.830e+00  3:bd      = 1.865e+00
 + 3:bump    = 1.947e-02  3:ggn     = 3.927e-01  3:ggp     = 3.929e-01
 + 3:idn     = 3.927e-01  3:idp     = 3.929e-01  3:io1     = 2.047e+00
 + 3:io1a    = 2.673e+00  3:io2a    = 2.673e+00  3:sdn     = 1.266e+00
 + 3:sdp     = 1.265e+00  4:bd      = 1.865e+00  4:bump    = 1.946e-02
 + 4:ggn     = 3.927e-01  4:ggp     = 3.929e-01  4:idn     = 3.927e-01
 + 4:idp     = 3.929e-01  4:io1     = 2.047e+00  4:io1a    = 2.673e+00
 + 4:io2a    = 2.673e+00  4:sdn     = 1.266e+00  4:sdp     = 1.266e+00
 + 5:1       = 4.500e-01  5:2       = 4.460e-01  5:b       = 2.857e+00
 + 5:von     = 2.188e+00  6:b       = 2.683e+00  6:von     = 4.194e-01
 + 6:vop     = 6.248e-01


 maximum nodal capacitance=   1.000E-10         on node     0:to_out          

    nodal  capacitance table 

     node    =    cap       node    =    cap       node    =    cap

 + 0:cn      = 2.182e-13  0:cp2     = 1.517e-13  0:cp3     = 3.179e-14
 + 0:cx      = 1.217e-13  0:cz      = 3.821e-13  0:eb      = 7.412e-14
 + 0:gm_c    = 1.001e-11  0:gm_in   = 8.434e-15  0:gm_out  = 1.002e-11
 + 0:ien_in  = 3.112e-14  0:ien_out = 1.432e-13  0:nwd     = 4.279e-14
 + 0:opb     = 1.186e-13  0:out     = 1.090e-14  0:ti_in   = 8.425e-14
 + 0:ti_out  = 1.056e-12  0:to_in   = 2.802e-14  0:to_out  = 1.000e-10
 + 0:vdd     = 1.689e-12  0:vgn     = 3.154e-14  0:vnw     = 1.786e-15
 + 0:vsn     = 3.795e-15  0:vss     = 1.154e-12  1:c0      = 3.454e-14
 + 1:c2      = 3.454e-14  1:c3      = 5.241e-14  2:1       = 9.553e-14
 + 2:2       = 1.082e-12  2:b       = 2.923e-13  3:bd      = 3.554e-14
 + 3:bump    = 9.778e-15  3:ggn     = 1.576e-14  3:ggp     = 1.404e-14
 + 3:idn     = 1.034e-14  3:idp     = 1.034e-14  3:io1     = 1.584e-14
 + 3:io1a    = 2.820e-14  3:io2a    = 1.815e-14  3:sdn     = 8.030e-15
 + 3:sdp     = 8.032e-15  4:bd      = 3.554e-14  4:bump    = 9.778e-15
 + 4:ggn     = 1.576e-14  4:ggp     = 1.404e-14  4:idn     = 1.034e-14
 + 4:idp     = 1.034e-14  4:io1     = 1.584e-14  4:io1a    = 2.820e-14
 + 4:io2a    = 1.816e-14  4:sdn     = 8.030e-15  4:sdp     = 8.032e-15
 + 5:1       = 5.330e-14  5:2       = 5.347e-14  5:b       = 1.118e-13
 + 5:von     = 1.094e-13  6:b       = 3.200e-14  6:von     = 1.834e-14
 + 6:vop     = 8.564e-14

 

 ****  voltage sources

 subckt                                                              
 element   0:veb       0:vng       0:vsn       0:vc1       0:vc2     
  volts     2.600e+00   1.800e+00     0.          0.          0.     
  current     0.          0.        9.341e-13  -1.057e-08  -1.168e-07
  power       0.          0.          0.          0.          0.     

 subckt                                                              
 element   0:vc3       0:vc4       0:vfc       0:vopbias   0:vd      
  volts       0.          0.          0.        2.000e+00   3.300e+00
  current   2.319e-12   3.997e-22  -1.388e-17     0.       -5.508e-05
  power       0.          0.          0.          0.        1.818e-04

 subckt                xgm         xgm         xgm2        xgm2      
 element   0:vs        3:v0        3:v1        4:v0        4:v1      
  volts       0.          0.          0.          0.          0.     
  current   5.508e-05     0.        1.735e-18     0.          0.     
  power       0.          0.          0.          0.          0.     

     total voltage source power dissipation=  1.818e-04       watts



 ***** current sources

 subckt                xcmb      
 element   0:ip        1:iin     
  volts     1.299e+00   2.398e+00
  current   1.000e-05   1.000e-06
  power    -1.299e-05  -2.398e-06


     total current source power dissipation=-1.539e-05       watts

 **** resistors

 subckt    xtri      
 element   2:rl      
  r value   1.000e+05
  v drop   -1.168e-02
  current  -1.168e-07
  power     1.365e-09



 **** mosfets


 subckt                            xcmb        xcmb        xcmb      
 element   0:mc        0:mnw       1:mc0       1:mc1       1:mc5     
 model     0:nch.2     0:nch.6     0:pch.1     0:pch.1     0:pch.1   
 region      Saturati    Saturati    Saturati    Saturati    Saturati
  id        1.001e-05   1.001e-05  -1.000e-06  -3.065e-07  -3.065e-07
  ibs      -1.308e-14  -2.258e-17   2.007e-19   6.380e-20   6.380e-20
  ibd      -2.380e-14  -2.272e-15   4.849e-16   2.063e-16   2.063e-16
  vgs       8.682e-01   7.663e-01  -9.019e-01  -9.019e-01  -9.019e-01
  vds       1.069e+00   9.318e-01  -9.019e-01  -1.038e+00  -1.038e+00
  vbs      -9.318e-01     0.          0.          0.          0.     
  vth       7.965e-01   5.576e-01  -7.510e-01  -7.681e-01  -7.681e-01
  vdsat     1.110e-01   1.926e-01  -1.900e-01  -1.739e-01  -1.739e-01
  vod       7.172e-02   2.087e-01  -1.509e-01  -1.338e-01  -1.338e-01
  beta      2.144e-03   4.695e-04   6.562e-05   2.418e-05   2.418e-05
  gam eff   4.546e-01   5.077e-01   4.100e-01   3.885e-01   3.885e-01
  gm        1.586e-04   8.302e-05   9.768e-06   3.166e-06   3.166e-06
  gds       7.312e-07   1.317e-06   2.701e-08   9.437e-09   9.437e-09
  gmb       3.364e-05   2.188e-05   2.296e-06   7.308e-07   7.308e-07
  cdtot     1.090e-14   1.683e-15   6.824e-15   2.960e-15   2.960e-15
  cgtot     3.154e-14   1.786e-15   8.151e-14   3.320e-14   3.320e-14
  cstot     4.110e-14   3.419e-15   9.768e-14   3.830e-14   3.830e-14
  cbtot     2.701e-14   3.795e-15   4.088e-14   1.793e-14   1.793e-14
  cgs       2.589e-14   1.301e-15   7.023e-14   2.736e-14   2.736e-14
  cgd       2.077e-15   2.207e-16   9.425e-16   3.751e-16   3.751e-16



 subckt    xcmb        xcmb        xcmb        xcmb        xcmb      
 element   1:mc2       1:mc6       1:mc3       1:mc7       1:mc4     
 model     0:pch.4     0:pch.4     0:pch.3     0:pch.3     0:nch.4   
 region      Saturati    Saturati      Cutoff      Cutoff    Saturati
  id       -3.065e-07  -3.065e-07  -3.065e-07  -3.065e-07   3.065e-07
  ibs       6.714e-20   6.714e-20   6.157e-20   6.157e-20  -6.949e-19
  ibd       1.159e-16   1.159e-16   9.518e-16   9.518e-16  -2.233e-15
  vgs      -1.011e+00  -1.011e+00  -6.439e-01  -6.439e-01   6.064e-01
  vds      -1.011e+00  -1.011e+00  -6.439e-01  -6.439e-01   6.064e-01
  vbs         0.          0.          0.          0.          0.     
  vth      -7.887e-01  -7.887e-01  -7.340e-01  -7.340e-01   5.233e-01
  vdsat    -2.407e-01  -2.407e-01  -5.522e-02  -5.522e-02   1.155e-01
  vod      -2.224e-01  -2.224e-01   9.017e-02   9.017e-02   8.310e-02
  beta      1.114e-05   1.114e-05   1.043e-03   1.043e-03   5.691e-05
  gam eff   3.553e-01   3.553e-01   4.292e-01   4.292e-01   4.314e-01
  gm        2.307e-06   2.307e-06   6.589e-06   6.589e-06   4.426e-06
  gds       7.985e-09   7.985e-09   1.469e-07   1.469e-07   8.222e-09
  gmb       5.103e-07   5.103e-07   1.459e-06   1.459e-06   1.268e-06
  cdtot     1.792e-15   1.792e-15   1.431e-14   1.431e-14   1.754e-15
  cgtot     1.876e-14   1.876e-14   7.863e-15   7.863e-15   1.047e-14
  cstot     2.092e-14   2.092e-14   1.792e-14   1.792e-14   1.187e-14
  cbtot     1.066e-14   1.066e-14   3.270e-14   3.270e-14   7.895e-15
  cgs       1.496e-14   1.496e-14   1.848e-15   1.848e-15   7.702e-15
  cgd       1.922e-16   1.922e-16   1.848e-15   1.848e-15   2.207e-16



 subckt    xcmb        xcmb        xcmb        xtri        xtri      
 element   1:mc8       1:mca       1:mcb       2:mb        2:m1      
 model     0:nch.4     0:pch.3     0:nch.4     0:pch.1     0:pch.1   
 region      Saturati      Cutoff    Saturati    Saturati    Saturati
  id        3.065e-07  -3.291e-07   3.288e-07  -9.639e-07  -4.820e-07
  ibs      -6.949e-19   6.610e-20  -7.455e-19   1.936e-19   9.841e-20
  ibd      -2.233e-15   2.855e-15  -2.353e-10   4.759e-16   3.190e-13
  vgs       6.064e-01  -5.986e-01   6.064e-01  -9.019e-01  -8.301e-01
  vds       6.064e-01  -5.986e-01   2.701e+00  -4.699e-01  -2.235e+00
  vbs         0.          0.          0.          0.          0.     
  vth       5.233e-01  -7.349e-01   5.213e-01  -7.520e-01  -7.564e-01
  vdsat     1.155e-01  -4.989e-02   1.167e-01  -1.892e-01  -1.314e-01
  vod       8.310e-02   1.363e-01   8.503e-02  -1.499e-01  -7.362e-02
  beta      5.691e-05   3.131e-03   5.692e-05   6.428e-05   7.581e-05
  gam eff   4.314e-01   4.292e-01   4.314e-01   4.097e-01   4.002e-01
  gm        4.426e-06   7.529e-06   4.661e-06   9.438e-06   6.154e-06
  gds       8.222e-09   1.678e-07   2.854e-08   4.001e-08   1.367e-08
  gmb       1.268e-06   1.697e-06   1.336e-06   2.218e-06   1.461e-06
  cdtot     1.754e-15   4.348e-14   1.474e-15   7.527e-15   6.749e-15
  cgtot     1.047e-14   2.383e-14   1.047e-14   7.995e-14   8.425e-14
  cstot     1.187e-14   5.375e-14   1.187e-14   9.577e-14   9.407e-14
  cbtot     7.895e-15   9.889e-14   7.615e-15   4.096e-14   4.830e-14
  cgs       7.702e-15   5.545e-15   7.702e-15   6.885e-14   6.593e-14
  cgd       2.207e-16   5.545e-15   2.207e-16   9.242e-16   1.116e-15



 subckt    xtri        xtri        xtri        xtri        xtri      
 element   2:m2        2:m3        2:m4        2:ma1       2:ma2     
 model     0:pch.1     0:nch.1     0:nch.1     0:pch.2     0:nch.2   
 region      Saturati    Saturati    Saturati    Saturati    Saturati
  id       -4.819e-07   4.820e-07   4.819e-07  -1.485e-05   1.496e-05
  ibs       9.839e-20  -8.297e-19  -8.296e-19   2.951e-18  -2.191e-17
  ibd       3.265e-13  -4.644e-15  -4.644e-15   1.604e-14  -1.490e-09
  vgs      -8.301e-01   5.942e-01   5.942e-01  -9.019e-01   5.891e-01
  vds      -2.241e+00   5.942e-01   5.891e-01  -1.311e+00   1.988e+00
  vbs         0.          0.          0.          0.          0.     
  vth      -7.564e-01   5.345e-01   5.345e-01  -7.514e-01   5.661e-01
  vdsat    -1.314e-01   1.061e-01   1.061e-01  -1.953e-01   7.732e-02
  vod      -7.361e-02   5.970e-02   5.970e-02  -1.505e-01   2.293e-02
  beta      7.581e-05   1.171e-04   1.171e-04   9.125e-04   7.795e-03
  gam eff   4.002e-01   4.547e-01   4.547e-01   3.952e-01   4.732e-01
  gm        6.153e-06   7.321e-06   7.320e-06   1.487e-04   2.871e-04
  gds       1.367e-08   1.018e-08   1.021e-08   1.380e-06   1.436e-06
  gmb       1.461e-06   2.177e-06   2.177e-06   3.241e-05   8.369e-05
  cdtot     6.744e-15   4.162e-15   4.166e-15   1.898e-14   3.703e-14
  cgtot     8.424e-14   4.231e-14   4.231e-14   5.194e-14   7.123e-14
  cstot     9.406e-14   4.592e-14   4.592e-14   7.895e-14   8.842e-14
  cbtot     4.830e-14   2.661e-14   2.661e-14   5.538e-14   1.069e-13
  cgs       6.592e-14   3.151e-14   3.151e-14   4.352e-14   3.696e-14
  cgd       1.116e-15   6.333e-16   6.333e-16   2.946e-15   7.167e-15



 subckt    xgm         xgm         xgm         xgm         xgm       
 element   3:mb        3:mb1       3:mb2       3:mo1       3:mo2     
 model     0:pch.1     0:nch.3     0:nch.3     0:nch.1     0:nch.1   
 region        Cutoff      Cutoff      Cutoff      Cutoff      Cutoff
  id       -2.666e-08   7.544e-09   7.545e-09   1.074e-08   1.073e-08
  ibs       5.332e-21  -2.019e-15  -1.242e-20  -2.005e-20  -2.005e-20
  ibd       9.035e-16  -6.432e-13  -3.108e-15  -9.047e-13  -6.445e-13
  vgs      -5.986e-01   3.734e-01   3.927e-01   3.927e-01   3.929e-01
  vds      -1.434e+00   1.846e+00   1.947e-02   2.047e+00   1.988e+00
  vbs         0.       -1.947e-02     0.          0.          0.     
  vth      -7.512e-01   5.638e-01   5.708e-01   5.360e-01   5.361e-01
