Using: /usr/bin/time -p /usr/cad/synopsys/hspice/cur/hspice/linux/hspice new.sp
 ****** HSPICE -- B-2008.09-SP1 32-BIT (Nov 24 2008) linux ******               
  Copyright (C) 2008 Synopsys, Inc. All Rights Reserved.                        
  Unpublished-rights reserved under US copyright laws.
  This program is protected by law and is subject to the 
  terms and conditions of the license agreement from Synopsys.
  Use of this program is your acceptance to be bound by the 
  license agreement. HSPICE is the trademark of Synopsys, Inc.
  Input File: new.sp                                                            
 lic:  
 lic: FLEXlm: v8.5b 
 lic: USER:   m103061608           HOSTNAME: ws34 
 lic: HOSTID: e41f1366b76c         PID:      30081 
 lic: Using FLEXlm license file: 
 lic: 26585@lsnctu 
 lic: Checkout 1 hspice 
 lic: License/Maintenance for hspice will expire on 14-may-2016/2015.06 
 lic: FLOATING license(s) on SERVER lsnctu 
 lic:   
 Init: read install configuration file: /usr/cad/synopsys/hspice/cur/hspice/meta.cfg
 Init: hspice initialization file: /usr/cad/synopsys/hspice/cur/hspice/hspice.ini
 .option runlvl
 .options abstol=1e-7 reltol=1e-7 unwrap = 1
 + post=1 captab=1 accurate=1 ingold=2  converge=1 *dcon=1 * gmindc=1.000e-10

 ***subckt***
 ******ienlarge******
 .subckt ien vdd vss vinn vinp vout cz eb
 mb	b	cz	 vdd vdd pch   w = 10u  l = 3u   m = 1
 m1	von	vinp b	 b	 pch   w = 5u   l = 3u   m = 3
 m2	vop	vinn b	 b	 pch   w = 5u   l = 3u   m = 3
 m3	von	von	 vss vss nch   w = 1u   l = 3u   m = 1
 m4	vop	von	 vss vss nch   w = 1u   l = 3u   m = 1

 me1p vinp eb vdd vdd pch   w = 10u l = 0.4u
 me2p vout eb vdd vdd pch   w = 10u l = 0.4u m = 10
 me1n vinp vop vss vss nch  w = 2u l = 1u
 me2n vout vop vss vss nch  w = 2u l = 1u m = 10

 cc  vop xx 20p
 r1  xx vss 10k
 .ends
 ******tr******
 .subckt tr vdd vss vinp vinn vop cz rld=50k
 mb	b	cz	 vdd vdd pch w = 10u  l = 5u  m = 1
 m1	1	vinn b	 b	 pch w = 3u   l = 1u  m = 2
 m2	2	vinp b	 b	 pch w = 3u   l = 1u  m = 2
 m3	1	1	 vss vss nch w = 3u   l = 1u  m = 1
 m4	2	1	 vss vss nch w = 3u l = 1u    m = 1
 ma1 vop cz vdd vdd pch   w = 4u l = 0.4u m = 2
 ma2 vop 2  vss vss nch   w = 12u l = 0.4u m = 3
 c1  2  vop 500f
 rl   vop    vinn rld
 .ends
 ******gm******
 .subckt gm vdd vss inp inn io2  vb
 mbx 1   vb  vdd vdd pch w = 6u l = 8u   m = 1
 mby 2   vb  1   1   pch w = 6u l = 8u   m = 1
 mbz bd  vb  2   2   pch w = 6u l = 8u   m = 1
 .subckt gmx vdd vss in bd gg id sd
 ms  sd  sd  bd  bd  pch w = 2u    l = 1u m = 2
 min id  id  sd  in  pch w = 2u    l = 1u m = 2
 mn  id  gg  vss vss nch w = 2u    l = 1u m = 2
 .ends
 mb1  bd   ggp  bump vss  nch w = 8u l = 0.5u m = 2
 mb2  bump ggn  vss  vss  nch w = 5u l = 0.5u m = 2
 mo1  io1  ggn  vss  vss  nch w = 5u l = 0.5u m = 2
 mo2  io2  ggp  vss  vss  nch w = 5u l = 0.5u m = 2
 mo3  1a  io1 vdd  vdd  pch w = 1u l = 2u m = 1
 mo3a 1b  io1 1a   1a   pch w = 1u l = 2u m = 1
 mo3b io1 io1 1b   1b   pch w = 1u l = 2u m = 1
 mo4  2a  io1 vdd  vdd  pch w = 1u l = 2u m = 1
 mo4a 2b  io1 2a   2a   pch w = 1u l = 2u m = 1
 mo4b io2 io1 2b   2b   pch w = 1u l = 2u m = 1

 xgmx1  vdd vss inp bd ggp idp sdp gmx
 xgmx2  vdd vss inn bd ggn idn sdn gmx
 v0  idp ggp dc = 0
 v1  idn ggn dc = 0
 *cc   io1 ggn  500f        *the small fallen peak btw 10k, 100k can be slightly reduced by this
 .ends
 ******op: single stage******
 .subckt trx vdd vss vinp vinn 2 cz
 mb	b	cz	 vdd vdd pch w = 1u  l = 5u  m = 1
 m1	1	vinn b	 b	 pch w = 1u  l = 5u  m = 1
 m2	2	vinp b	 b	 pch w = 1u  l = 5u  m = 1
 m3	1	1	 vss vss nch w = 1u  l = 5u  m = 1
 m4	2	1	 vss vss nch w = 1u  l = 5u    m = 1
 *ro  2  vss 1000k
 .ends
 ******op: folded cascode*******
 .subckt op_fc vdd vss vinp vinn vop cp cp2 cn
 mb	b	cp	 vdd vdd pch w = 6u   l = 5u  m = 1
 m1	1	vinp b	 b	 pch w = 3u   l = 3u  m = 1
 m2	2	vinn b	 b	 pch w = 3u   l = 3u  m = 1
 my1 von von  vdd vdd pch w = 3u   l = 5u  m = 1
 my2 vop von  vdd vdd pch w = 3u   l = 5u  m = 1
 m3	von cp2	 1   vss nch w = 3u   l = 3u  m = 1
 m4	vop	cp2	 2   vss nch w = 3u   l = 3u  m = 1
 mz1 1	cn	 vss vss nch w = 5u   l = 3u  m = 2
 mz2	2	cn	 vss vss nch w = 5u   l = 3u  m = 2
 .ends
 ******op: two stage******
 .subckt trx2 vdd vss vinp vinn vop cz
 mb	b	cz	 vdd vdd pch w = 10u  l = 3u   m = 1
 m1	1	vinn b	 b	 pch w = 5u   l = 2u   m = 3
 m2	2	vinp b	 b	 pch w = 5u   l = 2u   m = 3
 m3	1	1	 vss vss nch w = 2u   l = 2u   m = 1
 m4	2	1	 vss vss nch w = 2u   l = 2u   m = 1
 ma1 vop cz vdd vdd pch w = 4u l = 1u m = 4
 ma2 vop 2  vss vss nch w = 4u l = 1u m = 2
 *ma1 vop cz vdd vdd pch w = 4u l = 2u m = 4
 *ma2 vop 2  vss vss nch w = 4u l = 2u m = 2
 cc xx vop 30p
 rc 2  xx  10k
 .ends

 ******current mirror******
 .subckt cmb vdd vss cp cp2 cp3 cp4 cn     *cp = 2.4; cp2 = 1.25; cp3 = cn =  0.6; cp4 = 2.7
 iin cp  vss dc = 1u
 mc0 cp  cp  vdd vdd pch w = 5.1u l = 5u     m = 1
 mc1 c0  cp  vdd vdd pch w = 2u   l = 5u     m = 1
 mc5 c2  cp  vdd vdd pch w = 2u   l = 5u     m = 1
 mc2 cp2 cp2 c0  c0  pch w = 1u   l = 5u     m = 1
 mc6 c3  cp2 c2  c2  pch w = 1u   l = 5u     m = 1
 mc3 cn  cp3 cp2 cp2 pch w = 5u   l = 0.5u   m = 2
 mc7 cp3 cp3 c3  c3  pch w = 5u   l = 0.5u   m = 2
 mc4 cn  cn  vss vss nch w = 1u   l = 3u     m = 1
 mc8 cp3 cn  vss vss nch w = 1u   l = 3u     m = 1

 mca cp4 cp4 vdd vdd pch w = 5u   l = 0.5u   m = 6
 mcb cp4 cn  vss vss nch w = 1u   l = 3u     m = 1
 .ends

 xcmb vdd vss cz cp2 cp3 cx cn cmb

 ******hp*******
 *.subckt hp vdd vss in out
 *r1 in out 100k
 *l1 out vss 1m
 *.ends

 ***netlist***
 xtri vdd vss opb1 ti_in ti_out  cz  tr rld=100k
 *xgm  vdd vss gm_in gm_out gm_out  cx  gm
 *xgm2  vdd vss gm_c gm_out gm_out  cx  gm
 *xtro vdd vss to_in opb to_out  cz  trx
 *xtro vdd vss to_in opb to_out cz cp2 cn op_fc
 *xtro vdd vss to_in opb to_out  cz  gm       *use gm as op
 xtro vdd vss opb1 to_in to_out cz trx2
 *cg  gm_c gnd 10p
 *cg2  gm_out gnd 10p
 *xien vdd vss opb1 ien_in ien_out cz  mpx ien
 *veb eb gnd dc = 2.4

 ***nw input stage***
 .subckt opnw vdd vss vinp vinn vop cz
 mb	b	cz	 vdd vdd pch w = 12u  l = 10u  m = 1
 m1	1	vinn b	 b	 pch w = 1u   l = 5u  m = 1
 m2	2	vinp b	 b	 pch w = 1u   l = 5u  m = 1
 m3	1	1	 vss vss nch w = 1u   l = 1u  m = 1
 m4	2	1	 vss vss nch w = 1u   l = 1u    m = 1
 ma1 vop cz vdd vdd pch w =  2u l = 0.5u m = 1
 ma2 vop 2  vss vss nch w =  4u l = 1u m = 2
 .ends
 xopnw vdd vss mpy opb1 mpx cz opnw

 .param pbi = 100n
 ip mpy vss dc = pbi
 mpb mpy mpx vdd vdd pch w = 5u l = 0.4u

 mp  out mpx vdd vdd pch w = 5u l = 0.4u
 *vpx px gnd dc = 2.735

 *inw vdd out dc = pbi

 *mc  out vgn nwd vss nch w = 10u  l = 1u m = 1
 *vng vgn gnd dc = 2.5
 .param wx = 20u mx = 1
 mnw  out vnw nws vsn nch w = wx l = 20u m = mx
 *vws nws vss dc = 0
 *vsn vsn vss dc = 0.3
 vws nws vss dc = 0
 vsn vsn vss dc = 1



 vc1 out     ti_in  dc = 0
 *vc2 ien_out ti_in   dc = 0
 *vc3 ti_out  gm_in   dc = 0
 vc4 ti_out  to_in   dc = 0
 vfc to_out vnw dc = vdif



 vopbias  opb  gnd dc = 2 *ac = 1 *180
 vopbias1 opb1 gnd dc = 1 *ac = 1 *180
 .param
 +comon		= 1
 +diff		= 0
 +vdif       = 0.8
 vd vdd gnd dc = 3.3
 vs vss gnd dc = 0


 ***compensation***
 *cc1 ti_out gnd 10p
 *rol  to_out gnd 1k


 .probe dc i(mp) i(mnw) i(ip) i(mc) i(xtri.rl) lx3(mc) lv9(mc) lv9(mnw)
 + par'lx7(mc)/lx8(mc)/lx8(mnw)'

 ***ic***        *this help converge
 .ic i(mnw)=pbi




 ***cloase loop test***
 *.alter  *inw_dc    #0
 *.lib 'test.l' inw_dc
 *
 *.alter  *inw_ac     #0
 *.del lib 'test.l' inw_dc
 *.lib 'test.l' inw_ac
 *
 .alter  *wx     #1


 **warning**  the accurate option increases  the cpu time but the results
                are more accurate.
 ***accurate option sets default value of the options: 
 lvltim= 4         dvdt= 3       relvar= 200.00m absvar= 200.00m
     ft= 200.00m relmos=  10.00m
 (used for FFT control ) fft_accurate= 1
1****** HSPICE -- B-2008.09-SP1 32-BIT (Nov 24 2008) linux ******               
 ******  
 *inputstage

  ******  circuit name directory
 circuit number to circuit name directory
   number circuitname                     definition         multiplier
        0 main circuit
        1 xcmb.                           cmb                1.00 
        2 xtri.                           tr                 1.00 
        3 xtro.                           trx2               1.00 
        4 xopnw.                          opnw               1.00 
 

 **warning** could not find branch element     0:mc              
      branch - output ignored
 **warning** could not find branch element     0:mc              
      branch - output ignored
 **warning** could not find branch element     0:mc              
      branch - output ignored
 **warning** could not find branch element     0:mc              
      branch - output ignored
 **warning** could not find branch element     0:mc              
      branch - output ignored
 

 **warning** the following singular supplies were terminated to 1 meg resistor 
   supply       node1            node2
  vopbias                 0:opb              defined in subckt 0                     0:0                defined in subckt 0               
      
  Opening plot unit= 15
 file=new.pa0                                                                  


          ***** job concluded
1****** HSPICE -- B-2008.09-SP1 32-BIT (Nov 24 2008) linux ******               
 ******  
 *inputstage

  ******  job statistics summary tnom=  25.000 temp=  25.000 *****

  ******  HSPICE Threads Information  ******
  Command Line Threads Count:                      0
  Available CPU Count:                             8
  Actual Model Evaluation(Load) Threads Count:     1
  Actual Solver Threads Count:                     1


  ******  Circuit Statistics  ******
  # nodes       =     105  # elements   =      53
  # resistors   =       3  # capacitors =       2  # inductors   =       0
  # mutual_inds =       0  # vccs       =       0  # vcvs        =       0
  # cccs        =       0  # ccvs       =       0  # volt_srcs   =      11
  # curr_srcs   =       2  # diodes     =       0  # bjts        =       0
  # jfets       =       0  # mosfets    =      35  # U elements  =       0
  # T elements  =       0  # W elements =       0  # B elements  =       0
  # S elements  =       0  # P elements =       0  # va device   =       0


  ******  Runtime Statistics (seconds)  ******

  analysis           time    # points   tot. iter  conv.iter
  op point           0.00           1           0
  readin             0.05
  errchk             0.01
  setup              0.00
  output             0.00


           total memory used          955  kbytes
           total cpu time            0.06 seconds
           total elapsed time        0.27 seconds
           job started at     16:21:30 03/16/2016
           job ended   at     16:21:30 03/16/2016


1****** HSPICE -- B-2008.09-SP1 32-BIT (Nov 24 2008) linux ******               
 ******  
   *wx     #1

  ******    alter processing listing tnom=  25.000 temp=  25.000 *****
 .del lib 'test.l' inw_ac
 .lib 'test.l' wx
     .op
     vfc to_out vnw dc = vdif ac = 1
     .dc wx 0.4u 40u 0.4u *sweep pbi dec 1 10n 10u
     .ac dec 1000 1 10g sweep pbi dec 1 10n 10u
     mt vdt vgt vst vst nch w = wx l = 0.5u m = mx
     it vst vss dc = 'pbi'
     vtg vgt gnd dc = 1
     vtd vdt gnd dc = 1
     .probe dc lx2(mt) par'lx7(mc)/lx8(mc)/lx8(mnw)' i(mt) lx7(mnw) lx9(mnw) par'-i(mp)' lx5(mnw) lx6(mnw)
     .probe ac out=par('v(ti_out)') lx7(mnw)
     *.ic v(gm_in) = 2 v(gm_out) = 2 v(out) = 2
     .option dcon = 1
 .endl
 *
 .alter
 $ alter processing continues $


 **warning**  the accurate option increases  the cpu time but the results
                are more accurate.
 ***accurate option sets default value of the options: 
 lvltim= 4         dvdt= 3       relvar= 200.00m absvar= 200.00m
     ft= 200.00m relmos=  10.00m
 (used for FFT control ) fft_accurate= 1
1****** HSPICE -- B-2008.09-SP1 32-BIT (Nov 24 2008) linux ******               
 ******  
   *wx     #1

  ******  circuit name directory
 circuit number to circuit name directory
   number circuitname                     definition         multiplier
        0 main circuit
        1 xcmb.                           cmb                1.00 
        2 xtri.                           tr                 1.00 
        3 xtro.                           trx2               1.00 
        4 xopnw.                          opnw               1.00 
 **warning** could not find branch element     0:mc              
      branch - output ignored
 **warning** could not find branch element     0:mc              
      branch - output ignored
 **warning** could not find branch element     0:mc              
      branch - output ignored
 **warning** could not find branch element     0:mc              
      branch - output ignored
 **warning** could not find branch element     0:mc              
      branch - output ignored
 

 **warning** the following singular supplies were terminated to 1 meg resistor 
   supply       node1            node2
  vopbias                 0:opb              defined in subckt 0                     0:0                defined in subckt 0               
      
  Opening plot unit= 15
 file=new.pa1                                                                  

  *** initial damped pseudo transient completed. ***
  *** final try started ***
1****** HSPICE -- B-2008.09-SP1 32-BIT (Nov 24 2008) linux ******               
 ******  
   *wx     #1

  ******  operating point information tnom=  25.000 temp=  25.000 *****
 ***** operating point status is all       simulation time is     0.     
    node    =voltage      node    =voltage      node    =voltage

 +0:cn      = 6.064e-01 0:cp2     = 1.250e+00 0:cp3     = 6.064e-01
 +0:cx      = 2.701e+00 0:cz      = 2.398e+00 0:mpx     = 2.735e+00
 +0:mpy     = 1.000e+00 0:nws     =   0.      0:opb     = 2.000e+00
 +0:opb1    = 1.000e+00 0:out     = 1.000e+00 0:ti_in   = 1.000e+00
 +0:ti_out  = 1.000e+00 0:to_in   = 1.000e+00 0:to_out  = 1.065e+00
 +0:vdd     = 3.300e+00 0:vdt     = 1.000e+00 0:vgt     = 1.000e+00
 +0:vnw     = 2.656e-01 0:vsn     = 1.000e+00 0:vss     =   0.     
 +0:vst     = 5.981e-01 1:c0      = 2.261e+00 1:c2      = 2.261e+00
 +1:c3      = 1.250e+00 2:1       = 5.788e-01 2:2       = 5.871e-01
 +2:b       = 1.784e+00 3:1       = 6.604e-01 3:2       = 6.817e-01
 +3:b       = 1.789e+00 3:xx      = 6.817e-01 4:1       = 5.979e-01
 +4:2       = 5.719e-01 4:b       = 2.131e+00


 maximum nodal capacitance=   3.003E-11         on node     0:to_out          

    nodal  capacitance table 

    node    =    cap      node    =    cap      node    =    cap

 +0:cn      = 4.747e-14 0:cp2     = 8.994e-14 0:cp3     = 3.179e-14
 +0:cx      = 6.878e-14 0:cz      = 8.519e-13 0:mpx     = 1.932e-14
 +0:mpy     = 2.415e-14 0:nws     = 3.643e-14 0:opb     =   0.     
 +0:opb1    = 9.420e-14 0:out     = 3.320e-14 0:ti_in   = 1.155e-14
 +0:ti_out  = 5.512e-13 0:to_in   = 6.362e-14 0:to_out  = 3.003e-11
 +0:vdd     = 1.687e-12 0:vdt     = 2.542e-14 0:vgt     = 1.839e-14
 +0:vnw     = 1.289e-12 0:vsn     = 1.337e-12 0:vss     = 4.407e-13
 +0:vst     = 8.314e-14 1:c0      = 3.454e-14 1:c2      = 3.454e-14
 +1:c3      = 5.241e-14 2:1       = 2.544e-14 2:2       = 5.471e-13
 +2:b       = 9.185e-14 3:1       = 5.004e-14 3:2       = 4.994e-14
 +3:b       = 3.015e-13 3:xx      = 3.000e-11 4:1       = 1.021e-14
 +4:2       = 1.802e-14 4:b       = 7.752e-14

 

 ****  voltage sources

 subckt                                                                    
 element  0:vws      0:vsn      0:vc1      0:vc4      0:vfc      0:vopbias 
  volts      0.       1.000e+00    0.         0.       8.000e-01  2.000e+00
  current  1.457e-04 -1.456e-04 -3.264e-10 -6.661e-16 -5.551e-17 -2.000e-06
  power      0.       1.456e-04    0.         0.       4.441e-17  4.000e-06

 subckt                                                         
 element  0:vopbias1 0:vd       0:vs       0:vtg      0:vtd     
  volts    1.000e+00  3.300e+00    0.       1.000e+00  1.000e+00
  current    0.      -5.620e-05  5.630e-05    0.      -1.000e-07
  power      0.       1.854e-04    0.         0.       1.000e-07

     total voltage source power dissipation=  3.351e-04       watts



 ***** current sources

 subckt                         xcmb      
 element  0:ip       0:it       1:iin     
  volts    1.000e+00  5.981e-01  2.398e+00
  current  1.000e-07  1.000e-07  1.000e-06
  power   -1.001e-07 -5.981e-08 -2.398e-06


     total current source power dissipation=-2.558e-06       watts

 **** resistors

 subckt   xtri       xtro      
 element  2:rl       3:rc      
  r value  1.000e+05  1.000e+04
  v drop   3.264e-05    0.     
  current  3.264e-10    0.     
  power    1.065e-14    0.     



 **** mosfets


 subckt                                               xcmb       xcmb      
 element  0:mpb      0:mp       0:mnw      0:mt       1:mc0      1:mc1     
 model    0:pch.3    0:pch.3    0:nch.10   0:nch.12   0:pch.1    0:pch.1   
 region       Cutoff     Cutoff     Cutoff     Cutoff   Saturati   Saturati
  id      -9.999e-08 -1.000e-07  1.004e-07  1.000e-07 -1.000e-06 -3.065e-07
  ibs      2.009e-20  2.009e-20  1.456e-04 -1.457e-19  2.007e-19  6.380e-20
  ibd      1.828e-12  1.831e-12 -1.250e-16 -2.514e-14  4.849e-16  2.063e-16
  vgs     -5.649e-01 -5.649e-01  2.656e-01  4.019e-01 -9.019e-01 -9.019e-01
  vds     -2.299e+00 -2.299e+00  1.000e+00  4.019e-01 -9.019e-01 -1.038e+00
  vbs        0.         0.       1.000e+00    0.         0.         0.     
  vth     -6.738e-01 -6.738e-01  3.313e-01  5.741e-01 -7.510e-01 -7.681e-01
  vdsat   -4.998e-02 -4.999e-02  5.488e-02  4.352e-02 -1.900e-01 -1.739e-01
  vod      1.089e-01  1.088e-01 -6.567e-02 -1.721e-01 -1.509e-01 -1.338e-01
  beta     6.277e-04  6.277e-04  2.085e-04  9.156e-03  6.562e-05  2.418e-05
  gam eff  4.553e-01  4.553e-01  4.896e-01  5.323e-01  4.100e-01  3.885e-01
  gm       2.273e-06  2.273e-06  1.952e-06  2.683e-06  9.768e-06  3.166e-06
  gds      6.390e-08  6.391e-08  1.665e-09  3.478e-08  2.701e-08  9.437e-09
  gmb      5.055e-07  5.056e-07  2.703e-07  8.154e-07  2.296e-06  7.308e-07
  cdtot    5.254e-15  5.253e-15  2.794e-14  2.542e-14  6.824e-15  2.960e-15
  cgtot    3.536e-15  3.536e-15  1.289e-12  1.839e-14  8.151e-14  3.320e-14
  cstot    8.959e-15  8.959e-15  3.643e-14  2.794e-14  9.768e-14  3.830e-14
  cbtot    1.405e-14  1.405e-14  1.337e-12  5.520e-14  4.088e-14  1.793e-14
  cgs      9.242e-16  9.242e-16  4.140e-15  4.140e-15  7.023e-14  2.736e-14
  cgd      9.242e-16  9.242e-16  4.140e-15  4.140e-15  9.425e-16  3.751e-16



 subckt   xcmb       xcmb       xcmb       xcmb       xcmb       xcmb      
 element  1:mc5      1:mc2      1:mc6      1:mc3      1:mc7      1:mc4     
 model    0:pch.1    0:pch.4    0:pch.4    0:pch.3    0:pch.3    0:nch.4   
 region     Saturati   Saturati   Saturati     Cutoff     Cutoff   Saturati
  id      -3.065e-07 -3.065e-07 -3.065e-07 -3.065e-07 -3.065e-07  3.065e-07
  ibs      6.380e-20  6.714e-20  6.714e-20  6.157e-20  6.157e-20 -6.949e-19
  ibd      2.063e-16  1.159e-16  1.159e-16  9.518e-16  9.518e-16 -2.233e-15
  vgs     -9.019e-01 -1.011e+00 -1.011e+00 -6.439e-01 -6.439e-01  6.064e-01
  vds     -1.038e+00 -1.011e+00 -1.011e+00 -6.439e-01 -6.439e-01  6.064e-01
  vbs        0.         0.         0.         0.         0.         0.     
  vth     -7.681e-01 -7.887e-01 -7.887e-01 -7.340e-01 -7.340e-01  5.233e-01
  vdsat   -1.739e-01 -2.407e-01 -2.407e-01 -5.522e-02 -5.522e-02  1.155e-01
  vod     -1.338e-01 -2.224e-01 -2.224e-01  9.017e-02  9.017e-02  8.310e-02
  beta     2.418e-05  1.114e-05  1.114e-05  1.043e-03  1.043e-03  5.691e-05
  gam eff  3.885e-01  3.553e-01  3.553e-01  4.292e-01  4.292e-01  4.314e-01
  gm       3.166e-06  2.307e-06  2.307e-06  6.589e-06  6.589e-06  4.426e-06
  gds      9.437e-09  7.985e-09  7.985e-09  1.469e-07  1.469e-07  8.222e-09
  gmb      7.308e-07  5.103e-07  5.103e-07  1.459e-06  1.459e-06  1.268e-06
