Using: /usr/bin/time -p /usr/cad/synopsys/hspice/cur/hspice/linux/hspice new.sp
 ****** HSPICE -- B-2008.09-SP1 32-BIT (Nov 24 2008) linux ******               
  Copyright (C) 2008 Synopsys, Inc. All Rights Reserved.                        
  Unpublished-rights reserved under US copyright laws.
  This program is protected by law and is subject to the 
  terms and conditions of the license agreement from Synopsys.
  Use of this program is your acceptance to be bound by the 
  license agreement. HSPICE is the trademark of Synopsys, Inc.
  Input File: new.sp                                                            
 lic:  
 lic: FLEXlm: v8.5b 
 lic: USER:   m103061608           HOSTNAME: ws34 
 lic: HOSTID: e41f1366b76c         PID:      16456 
 lic: Using FLEXlm license file: 
 lic: 26585@lsnctu 
 lic: Checkout 1 hspice 
 lic: License/Maintenance for hspice will expire on 14-may-2016/2015.06 
 lic: FLOATING license(s) on SERVER lsnctu 
 lic:   
 Init: read install configuration file: /usr/cad/synopsys/hspice/cur/hspice/meta.cfg
 Init: hspice initialization file: /usr/cad/synopsys/hspice/cur/hspice/hspice.ini
 .option runlvl
 .options abstol=1e-7 reltol=1e-7 unwrap = 1
 + post=1 captab=1 accurate=1 ingold=2  *converge=1  *dcon=1 * gmindc=1.000e-10

 ***subckt***
 ******ienlarge******
 .subckt ien vdd vss vinn vinp vout cz eb
 mb	b	cz	 vdd vdd pch   w = 10u  l = 3u   m = 1
 m1	von	vinp b	 b	 pch   w = 5u   l = 3u   m = 3
 m2	vop	vinn b	 b	 pch   w = 5u   l = 3u   m = 3
 m3	von	von	 vss vss nch   w = 1u   l = 3u   m = 1
 m4	vop	von	 vss vss nch   w = 1u   l = 3u   m = 1

 me1p vinp eb vdd vdd pch   w = 10u l = 0.4u
 me2p vout eb vdd vdd pch   w = 10u l = 0.4u m = 10
 me1n vinp vop vss vss nch  w = 2u l = 1u
 me2n vout vop vss vss nch  w = 2u l = 1u m = 10

 cc  vop xx 20p
 r1  xx vss 10k
 .ends
 ****tr******
 .subckt tr vdd vss vinp vinn vop cz rld=50k
 mb	b	cz	 vdd vdd pch w = 1.5u  l = 1u  m = 2
 m1	1	vinn b	 b	 pch w = 3u   l = 1u  m = 2
 m2	2	vinp b	 b	 pch w = 3u   l = 1u  m = 2
 m3	1	1	 vss vss nch w = 3u   l = 1u  m = 1
 m4	2	1	 vss vss nch w = 3u l = 1u    m = 1
 ma1 vop cz vdd vdd pch   w = 1.5u l = 1u m = 24
 ma2 vop 2  vss vss nch   w = 12u l = 0.4u m = 3
 cc  xx  vop 50f
 rc  2   xx  20k
 rl   vop    vinn rld
 .ends
 ******gm******
 .subckt gm vdd vss inp inn io2  vb
 mbx 1   vb  vdd vdd pch w = 6u l = 8u   m = 1
 mby 2   vb  1   1   pch w = 6u l = 8u   m = 1
 mbz bd  vb  2   2   pch w = 6u l = 8u   m = 1
 .subckt gmx vdd vss in bd gg id sd
 ms  sd  sd  bd  bd  pch w = 2u    l = 1u m = 2
 min id  id  sd  in  pch w = 2u    l = 1u m = 2
 mn  id  gg  vss vss nch w = 2u    l = 1u m = 2
 .ends
 mb1  bd   ggp  bump vss  nch w = 8u l = 0.5u m = 2
 mb2  bump ggn  vss  vss  nch w = 5u l = 0.5u m = 2
 mo1  io1  ggn  vss  vss  nch w = 5u l = 0.5u m = 2
 mo2  io2  ggp  vss  vss  nch w = 5u l = 0.5u m = 2
 mo3  1a  io1 vdd  vdd  pch w = 1u l = 2u m = 1
 mo3a 1b  io1 1a   1a   pch w = 1u l = 2u m = 1
 mo3b io1 io1 1b   1b   pch w = 1u l = 2u m = 1
 mo4  2a  io1 vdd  vdd  pch w = 1u l = 2u m = 1
 mo4a 2b  io1 2a   2a   pch w = 1u l = 2u m = 1
 mo4b io2 io1 2b   2b   pch w = 1u l = 2u m = 1

 xgmx1  vdd vss inp bd ggp idp sdp gmx
 xgmx2  vdd vss inn bd ggn idn sdn gmx
 v0  idp ggp dc = 0
 v1  idn ggn dc = 0
 *cc   io1 ggn  500f        *the small fallen peak btw 10k, 100k can be slightly reduced by this
 .ends
 ******op: single stage******
 .subckt trx vdd vss vinp vinn 2 cz
 mb	b	cz	 vdd vdd pch w = 1u  l = 5u  m = 1
 m1	1	vinn b	 b	 pch w = 1u  l = 5u  m = 1
 m2	2	vinp b	 b	 pch w = 1u  l = 5u  m = 1
 m3	1	1	 vss vss nch w = 1u  l = 5u  m = 1
 m4	2	1	 vss vss nch w = 1u  l = 5u    m = 1
 *ro  2  vss 1000k
 .ends
 ******op: folded cascode*******

 .subckt op_fc vdd vss vinp vinn vop cp cn
 ***input stage***
 mn	1	vinn b	 vss  nch w = 3u   l = 5u  m = 2
 mp	2	vinp b	 vss  nch w = 3u   l = 5u  m = 2
 mb 	b	cn2	 vss  vss nch w = 5u   l = 1u  m = 4
 ***output stage***
 m1  1   cp2 vdd vdd pch w = 1u   l = 5u m = 2
 m2  2   cp2 vdd vdd pch w = 1u   l = 5u m = 2
 m3	von cp	1   1   pch w = 2u   l = 1u  m = 1      * gm*rds = 50 (id = 200n)
 m4	vop	cp	2   2   pch w = 2u   l = 1u  m = 1
 m5  von	cn  5   vss nch w = 2u   l = 1u  m = 1
 m6  vop	cn  6   vss nch w = 2u   l = 1u  m = 1
 m7  5   von vss vss nch w = 3u   l = 5u  m = 1
 m8  6   von vss vss nch w = 3u   l = 5u  m = 1
 mc1 cp2 cp2 vdd vdd pch w = 1u   l = 5u m = 1
 mc2 cp2 cn  cn2 cn2 nch w = 3.5u l = 1u   m = 3
 mc3 cn2 cn2 vss vss nch w = 5u   l = 1u m = 2
 c1  vop vss 5p
 .ends
 ******op: two stage******
 .subckt trx2 vdd vss vinp vinn vop cz
 mb	b	cz	 vdd vdd pch w = 10u  l = 5u   m = 1
 m1	1	vinn b	 b	 pch w = 5u   l = 2u   m = 1
 m2	2	vinp b	 b	 pch w = 5u   l = 2u   m = 1
 m3	1	1	 vss vss nch w = 2u   l = 2u   m = 1
 m4	2	1	 vss vss nch w = 2u   l = 2u   m = 1
 ma1 vop cz vdd vdd pch w = 4u l = 1u m = 1
 ma2 vop 2  vss vss nch w = 4u l = 1u m = 2
 *ma1 vop cz vdd vdd pch w = 4u l = 2u m = 4
 *ma2 vop 2  vss vss nch w = 4u l = 2u m = 2
 cc xx vop 30p
 rc 2  xx  10k
 .ends

 ******current mirror******
 *.subckt cmb vdd vss cp cp2 cp3 cp4 cn     *cp = 2.4; cp2 = 1.25; cp3 = cn =  0.6; cp4 = 2.7
 *iin cp  vss dc = 1u
 *mc0 cp  cp  vdd vdd pch w = 5.1u l = 5u     m = 1
 *mc1 c0  cp  vdd vdd pch w = 2u   l = 5u     m = 1
 *mc5 c2  cp  vdd vdd pch w = 2u   l = 5u     m = 1
 *mc2 cp2 cp2 c0  c0  pch w = 1u   l = 5u     m = 1
 *mc6 c3  cp2 c2  c2  pch w = 1u   l = 5u     m = 1
 *mc3 cn  cp3 cp2 cp2 pch w = 5u   l = 0.5u   m = 2
 *mc7 cp3 cp3 c3  c3  pch w = 5u   l = 0.5u   m = 2
 *mc4 cn  cn  vss vss nch w = 1u   l = 3u     m = 1
 *mc8 cp3 cn  vss vss nch w = 1u   l = 3u     m = 1
 *
 *mca cp4 cp4 vdd vdd pch w = 5u   l = 0.5u   m = 6
 *mcb cp4 cn  vss vss nch w = 1u   l = 3u     m = 1
 *.ends
 *xcmb vdd vss cz cp2 cp3 cx cn cmb

 *.subckt cmb_beta4 vdd vss 1 4
 *m1 1   1   vdd vdd pch w = 20u l = 5u m = 1
 *m2 2   1   vdd vdd pch w = 20u l = 5u m = 1
 *m3 3   3   1   1   pch w = 20u l = 1u m = 1
 *m4 4   3   2   2   pch w = 20u l = 1u m = 1
 *m5 3   4   rx  vss nch w = '3.5u * 4' l = 5u m = 1
 *m6 4   4   vss vss nch w = '3.5u * 1' l = 5u m = 1
 *msus1a s0  s1  vdd vdd pch w = 1u l = 5u m = 1
 *msus1b s1  s1  s0  s0  pch w = 1u l = 5u m = 1
 *msus2  s1  4   vss vss nch w = 3.5u l = 5u m = 1
 *msus3  1   s1  4   vss nch w = 1u   l = 1u m = 1
 *r1 rx vss 25k
 *.ends
 *xcmb vdd vss cz opb0 cmb_beta4
 .subckt cmb_bete5 vdd vss cp cn wp = 5u
 iin cp  vss dc = 1u
 mc0 cp  cp  vdd vdd pch w = 1.5u l = 1u m = 1
 mc1 cn  cp  vdd vdd pch w = 1.5u l = 1u m = 4
 mc2 cn  cn  vss vss nch w = 3.5u  l = 5u m = 1
 .ends
 xcmb   vdd vss cz opb0 cmb_bete5
 vb opb0 opb1 dc = 0
 ******hp*******
 *.subckt hp vdd vss in out
 *r1 in out 100k
 *l1 out vss 1m
 *.ends

 ***netlist***
 xtri vdd vss opb1 ti_in ti_out  cz  tr rld=100k
 *xgm  vdd vss gm_in gm_out gm_out  cx  gm
 *xgm2  vdd vss gm_c gm_out gm_out  cx  gm
 *xtro vdd vss to_in opb to_out  cz  trx
 xtro vdd vss to_in opb1 to_out cz  opb1 op_fc
 *xtro vdd vss to_in opb to_out  cz  gm       *use gm as op
 *xtro vdd vss opb1 to_in to_out cz trx2
 *cg  gm_c gnd 10p
 *cg2  gm_out gnd 10p
 *xien vdd vss opb1 ien_in ien_out cz  mpx ien
 *veb eb gnd dc = 2.4

 ***nw input stage***
 .subckt opnw vdd vss vinp vinn 2 cz
 m1	1	vinp b	 vss nch w = 2u   l = 1u  m = 6
 m2	2	vinn b	 vss nch w = 2u   l = 1u  m = 6
 m3	1	1	 vdd vdd pch w = 2u   l = 1u  m = 1
 m4	2	1	 vdd vdd pch w = 2u   l = 1u  m = 1
 mbx	b	cz bx  vss nch w = 1u   l = 5u  m = 1
 mby	bx	cz by  vss nch w = 1u   l = 5u  m = 1
 mbz	by	cz vss vss nch w = 1u   l = 5u  m = 1
 c1  1 vss 500f
 c2  vinp   2   30f
 .ends
 .subckt ibias vdd vss opb1 mpx mpy rin = 10k
 mp mpy mpx vdd vdd pch w = 5u   l =  1u
 *(id, vgs, gm, rds): (10n, -0.5423, 2.363e-07, 574x); (10u, -0.9871,  7.141e-05, 1.67x)
 mn mpy opb1 rx vss nch w = 3.5u l =  1u m = 5
 r1 rx  vss rin
 .ends
 xopnw vdd vss mpy opb1 mpx opb1 opnw
 *xib ibias

 .param pbi = 10u
 ip mpy vss dc = pbi
 mpb mpy mpx vdd vdd pch w = 5u l = 1u
 mp  out mpx vdd vdd pch w = 5u l = 1u
 *vpx px gnd dc = 2.735

 *inw vdd out dc = pbi

 *mc  out vgn nwd vss nch w = 10u  l = 1u m = 1
 *vng vgn gnd dc = 2.5
 .param wx = 20u mx = 1
 mnw  out vnw nws vsn nch w = wx l = 20u m = mx
 *vws nws vss dc = 0
 *vsn vsn vss dc = 0.3
 vws nws vss dc = 0
 vsn vsn vss dc = 1



 vc1 out     ti_in  dc = 0
 *vc2 ien_out ti_in   dc = 0
 *vc3 ti_out  gm_in   dc = 0
 vc4 ti_out  to_in   dc = 0
 vfc to_out vnw dc = vdif



 *vopbias1 opb1 gnd dc = 0.8 *ac = 1 *180
 .param
 +comon		= 0.8
 +diff		= 0
 +vdif       = 0
 vd vdd gnd dc = 3.3
 *vd vdd gnd pulse 0 3.3         *try pseudo trans
 vs vss gnd dc = 0



 .probe dc i(mp) i(mnw) i(ip) i(mc) i(xtri.rl) lx3(mc) lv9(mc) lv9(mnw)
 + par'lx7(mc)/lx8(mc)/lx8(mnw)'

 ***ic***        *this help converge
 *.ic i(mnw)=pbi *v(opb1) = 0.802




 ***cloase loop test***
 *.alter  *inw_dc    #0
 *.lib 'test.l' inw_dc
 *
 *.alter  *inw_ac     #0
 *.del lib 'test.l' inw_dc
 *.lib 'test.l' inw_ac
 *
 .alter  *wx     #1


 **warning**  the accurate option increases  the cpu time but the results
                are more accurate.
 ***accurate option sets default value of the options: 
 lvltim= 4         dvdt= 3       relvar= 200.00m absvar= 200.00m
     ft= 200.00m relmos=  10.00m
 (used for FFT control ) fft_accurate= 1
1****** HSPICE -- B-2008.09-SP1 32-BIT (Nov 24 2008) linux ******               
 ******  
 *inputstage

  ******  circuit name directory
 circuit number to circuit name directory
   number circuitname                     definition         multiplier
        0 main circuit
        1 xcmb.                           cmb_bete5          1.00 
        2 xtri.                           tr                 1.00 
        3 xtro.                           op_fc              1.00 
        4 xopnw.                          opnw               1.00 
 

 **warning** could not find branch element     0:mc              
      branch - output ignored
 **warning** could not find branch element     0:mc              
      branch - output ignored
 **warning** could not find branch element     0:mc              
      branch - output ignored
 **warning** could not find branch element     0:mc              
      branch - output ignored
 **warning** could not find branch element     0:mc              
      branch - output ignored
 
      
  Opening plot unit= 15
 file=new.pa0                                                                  


          ***** job concluded
1****** HSPICE -- B-2008.09-SP1 32-BIT (Nov 24 2008) linux ******               
 ******  
 *inputstage

  ******  job statistics summary tnom=  25.000 temp=  25.000 *****

  ******  HSPICE Threads Information  ******
  Command Line Threads Count:                      0
  Available CPU Count:                             8
  Actual Model Evaluation(Load) Threads Count:     1
  Actual Solver Threads Count:                     1


  ******  Circuit Statistics  ******
  # nodes       =     102  # elements   =      52
  # resistors   =       2  # capacitors =       4  # inductors   =       0
  # mutual_inds =       0  # vccs       =       0  # vcvs        =       0
  # cccs        =       0  # ccvs       =       0  # volt_srcs   =      10
  # curr_srcs   =       2  # diodes     =       0  # bjts        =       0
  # jfets       =       0  # mosfets    =      34  # U elements  =       0
  # T elements  =       0  # W elements =       0  # B elements  =       0
  # S elements  =       0  # P elements =       0  # va device   =       0


  ******  Runtime Statistics (seconds)  ******

  analysis           time    # points   tot. iter  conv.iter
  op point           0.00           1           0
  readin             0.04
  errchk             0.01
  setup              0.00
  output             0.00


           total memory used          955  kbytes
           total cpu time            0.05 seconds
           total elapsed time        0.22 seconds
           job started at     15:02:26 04/06/2016
           job ended   at     15:02:26 04/06/2016


1****** HSPICE -- B-2008.09-SP1 32-BIT (Nov 24 2008) linux ******               
 ******  
   *wx     #1

  ******    alter processing listing tnom=  25.000 temp=  25.000 *****
 .del lib 'test.l' inw_ac
 .lib 'test.l' wx
     .op
     vfc to_out vnw dc = vdif ac = 1
     .dc wx 0.4u 40u 0.4u *sweep pbi dec 1 10n 10u
     .ac dec 1000 1 10g sweep pbi dec 1 10n 10u
     mt vdt vgt vst vst nch w = wx l = 0.5u m = mx
     it vst vss dc = 'pbi'
     vtg vgt gnd dc = 1
     vtd vdt gnd dc = 1
     .probe dc lx2(mt) par'lx7(mc)/lx8(mc)/lx8(mnw)' i(mt) lx7(mnw) lx9(mnw) par'-i(mp)' lx5(mnw) lx6(mnw)
     .probe ac out=par('v(ti_out)') lx7(mnw)
     *.ic v(gm_in) = 2 v(gm_out) = 2 v(out) = 2
     .option dcon = 1
 .endl
 *
 .alter
 $ alter processing continues $


 **warning**  the accurate option increases  the cpu time but the results
                are more accurate.
 ***accurate option sets default value of the options: 
 lvltim= 4         dvdt= 3       relvar= 200.00m absvar= 200.00m
     ft= 200.00m relmos=  10.00m
 (used for FFT control ) fft_accurate= 1
1****** HSPICE -- B-2008.09-SP1 32-BIT (Nov 24 2008) linux ******               
 ******  
   *wx     #1

  ******  circuit name directory
 circuit number to circuit name directory
   number circuitname                     definition         multiplier
        0 main circuit
        1 xcmb.                           cmb_bete5          1.00 
        2 xtri.                           tr                 1.00 
        3 xtro.                           op_fc              1.00 
        4 xopnw.                          opnw               1.00 
 **warning** could not find branch element     0:mc              
      branch - output ignored
 **warning** could not find branch element     0:mc              
      branch - output ignored
 **warning** could not find branch element     0:mc              
      branch - output ignored
 **warning** could not find branch element     0:mc              
      branch - output ignored
 **warning** could not find branch element     0:mc              
      branch - output ignored
 
      
  Opening plot unit= 15
 file=new.pa1                                                                  


 **diagnostic** although this circuit has failed to converge
 to gmindc=   1.000E-12, it did converge to a gmindc=   2.986E-08

 ** Warning ** Convergence problem in the first
               dc sweep value, Pseudo tran is tried.

  *** initial damped pseudo transient completed. ***
  *** final try started ***
 convergence problems in dc sweep curves at  8.00000E-07
  resimulating with dc convergence controls


 **diagnostic** although this circuit has failed to converge
 to gmindc=   1.000E-12, it did converge to a gmindc=   2.569E-08

 convergence problem in dc sweep curve at 8.00000E-07
 pseudo tran is tried

  *** initial damped pseudo transient completed. ***
  *** final try started ***
 convergence problems in dc sweep curves at  1.20000E-06
  resimulating with dc convergence controls


 **diagnostic** although this circuit has failed to converge
 to gmindc=   1.000E-12, it did converge to a gmindc=   1.649E-08

 convergence problem in dc sweep curve at 1.20000E-06
 pseudo tran is tried

  *** initial damped pseudo transient completed. ***
  *** final try started ***
1****** HSPICE -- B-2008.09-SP1 32-BIT (Nov 24 2008) linux ******               
 ******  
   *wx     #1

  ******  operating point information tnom=  25.000 temp=  25.000 *****
 ***** operating point status is all       simulation time is     0.     
    node    =voltage      node    =voltage      node    =voltage

 +0:cz      = 2.395e+00 0:mpx     = 2.313e+00 0:mpy     = 7.942e-01
 +0:nws     =   0.      0:opb0    = 7.967e-01 0:opb1    = 7.967e-01
 +0:out     = 7.968e-01 0:ti_in   = 7.968e-01 0:ti_out  = 7.967e-01
 +0:to_in   = 7.967e-01 0:to_out  = 6.571e-01 0:vdd     = 3.300e+00
 +0:vdt     = 1.000e+00 0:vgt     = 1.000e+00 0:vnw     = 6.571e-01
 +0:vsn     = 1.000e+00 0:vss     =   0.      0:vst     = 4.144e-01
 +2:1       = 5.791e-01 2:2       = 5.876e-01 2:b       = 1.583e+00
 +2:xx      = 5.876e-01 3:1       = 3.062e+00 3:2       = 3.064e+00
 +3:5       = 2.648e-01 3:6       = 2.657e-01 3:b       = 2.806e-01
 +3:cn2     = 4.050e-01 3:cp2     = 2.461e+00 3:von     = 4.719e-01
 +4:1       = 2.547e+00 4:b       = 2.871e-01 4:bx      = 1.066e-01
 +4:by      = 4.522e-02


 maximum nodal capacitance=   6.255E-12         on node     0:vss             

    nodal  capacitance table 

    node    =    cap      node    =    cap      node    =    cap

 +0:cz      = 1.714e-13 0:mpx     = 8.209e-14 0:mpy     = 5.308e-14
 +0:nws     = 1.806e-12 0:opb0    = 7.321e-14 0:opb1    = 1.573e-13
 +0:out     = 3.479e-14 0:ti_in   = 1.193e-14 0:ti_out  = 1.384e-13
 +0:to_in   = 3.370e-14 0:to_out  = 5.005e-12 0:vdd     = 6.821e-13
 +0:vdt     = 2.464e-14 0:vgt     = 2.125e-14 0:vnw     = 1.357e-12
 +0:vsn     = 8.048e-13 0:vss     = 6.255e-12 0:vst     = 8.817e-14
 +2:1       = 2.584e-14 2:2       = 4.763e-14 2:b       = 8.666e-14
 +2:xx      = 5.000e-14 3:1       = 2.299e-14 3:2       = 2.304e-14
 +3:5       = 7.549e-15 3:6       = 7.547e-15 3:b       = 4.537e-14
 +3:cn2     = 1.108e-13 3:cp2     = 8.532e-14 3:von     = 4.219e-14
 +4:1       = 5.235e-13 4:b       = 3.931e-14 4:bx      = 4.084e-14
 +4:by      = 4.472e-14

 

 ****  voltage sources

 subckt                                                                    
 element  0:vb       0:vws      0:vsn      0:vc1      0:vc4      0:vfc     
  volts      0.         0.       1.000e+00    0.         0.         0.     
  current  1.388e-17  1.556e-04 -1.456e-04  1.532e-09    0.         0.     
  power      0.         0.       1.456e-04    0.         0.         0.     

 subckt                                              
 element  0:vd       0:vs       0:vtg      0:vtd     
  volts    3.300e+00    0.       1.000e+00  1.000e+00
  current -5.606e-05  6.606e-05    0.      -1.000e-05
  power    1.850e-04    0.         0.       1.000e-05

     total voltage source power dissipation=  3.406e-04       watts



 ***** current sources

 subckt                         xcmb      
 element  0:ip       0:it       1:iin     
  volts    7.942e-01  4.144e-01  2.395e+00
  current  1.000e-05  1.000e-05  1.000e-06
  power   -7.942e-06 -4.144e-06 -2.396e-06


     total current source power dissipation=-1.448e-05       watts

 **** resistors

 subckt   xtri       xtri      
 element  2:rc       2:rl      
  r value  2.000e+04  1.000e+05
  v drop     0.      -1.532e-04
  current    0.      -1.532e-09
  power      0.       2.348e-13



 **** mosfets


 subckt                                               xcmb       xcmb      
 element  0:mpb      0:mp       0:mnw      0:mt       1:mc0      1:mc1     
 model    0:pch.2    0:pch.2    0:nch.10   0:nch.12   0:pch.2    0:pch.2   
 region     Saturati   Saturati   Saturati   Saturati   Saturati   Saturati
  id      -1.000e-05 -9.998e-06  9.997e-06  1.000e-05 -1.000e-06 -4.612e-06
  ibs      2.004e-18  2.004e-18  1.456e-04 -1.456e-17  2.118e-19  9.769e-19
  ibd      6.047e-11  5.982e-11  6.832e-11 -2.514e-14  1.610e-16  3.871e-11
  vgs     -9.869e-01 -9.869e-01  6.571e-01  5.856e-01 -9.045e-01 -9.045e-01
  vds     -2.505e+00 -2.503e+00  7.968e-01  5.856e-01 -9.045e-01 -2.503e+00
  vbs        0.         0.       1.000e+00    0.         0.         0.     
  vth     -7.458e-01 -7.458e-01  3.314e-01  5.731e-01 -7.709e-01 -7.603e-01
  vdsat   -2.744e-01 -2.744e-01  3.013e-01  6.697e-02 -1.795e-01 -1.881e-01
  vod     -2.411e-01 -2.411e-01  3.257e-01  1.249e-02 -1.336e-01 -1.441e-01
  beta     2.773e-04  2.773e-04  2.042e-04  9.139e-03  7.484e-05  2.998e-04
  gam eff  3.951e-01  3.951e-01  4.896e-01  5.323e-01  3.947e-01  3.947e-01
  gm       7.142e-05  7.142e-05  5.641e-05  2.181e-04  1.056e-05  4.685e-05
  gds      5.981e-07  5.982e-07  6.357e-08  2.591e-06  1.076e-07  3.645e-07
  gmb      1.552e-05  1.552e-05  7.201e-06  6.132e-05  2.295e-06  1.016e-05
