Using: /usr/bin/time -p /usr/cad/synopsys/hspice/cur/hspice/linux/hspice new.sp
 ****** HSPICE -- B-2008.09-SP1 32-BIT (Nov 24 2008) linux ******               
  Copyright (C) 2008 Synopsys, Inc. All Rights Reserved.                        
  Unpublished-rights reserved under US copyright laws.
  This program is protected by law and is subject to the 
  terms and conditions of the license agreement from Synopsys.
  Use of this program is your acceptance to be bound by the 
  license agreement. HSPICE is the trademark of Synopsys, Inc.
  Input File: new.sp                                                            
 lic:  
 lic: FLEXlm: v8.5b 
 lic: USER:   m103061608           HOSTNAME: ws34 
 lic: HOSTID: e41f1366b76c         PID:      458 
 lic: Using FLEXlm license file: 
 lic: 26585@lsnctu 
 lic: Checkout 1 hspice 
 lic: License/Maintenance for hspice will expire on 14-may-2016/2015.06 
 lic: FLOATING license(s) on SERVER lsnctu 
 lic:   
 Init: read install configuration file: /usr/cad/synopsys/hspice/cur/hspice/meta.cfg
 Init: hspice initialization file: /usr/cad/synopsys/hspice/cur/hspice/hspice.ini
 .option runlvl
 .options abstol=1e-7 reltol=1e-7 unwrap = 1
 + post=1 captab=1 accurate=1 ingold=2  *converge=1  *dcon=1 * gmindc=1.000e-10

 ***subckt***
 ******ienlarge******
 .subckt ien vdd vss vinn vinp vout cz eb
 mb	b	cz	 vdd vdd pch   w = 10u  l = 3u   m = 1
 m1	von	vinp b	 b	 pch   w = 5u   l = 3u   m = 3
 m2	vop	vinn b	 b	 pch   w = 5u   l = 3u   m = 3
 m3	von	von	 vss vss nch   w = 1u   l = 3u   m = 1
 m4	vop	von	 vss vss nch   w = 1u   l = 3u   m = 1

 me1p vinp eb vdd vdd pch   w = 10u l = 0.4u
 me2p vout eb vdd vdd pch   w = 10u l = 0.4u m = 10
 me1n vinp vop vss vss nch  w = 2u l = 1u
 me2n vout vop vss vss nch  w = 2u l = 1u m = 10

 cc  vop xx 20p
 r1  xx vss 10k
 .ends
 ****tr******
 .subckt tr vdd vss vinp vinn vop cz rld=50k
 mb	b	cz	 vdd vdd pch w = 1.5u  l = 1u  m = 2
 m1	1	vinn b	 b	 pch w = 3u   l = 1u  m = 2
 m2	2	vinp b	 b	 pch w = 3u   l = 1u  m = 2
 m3	1	1	 vss vss nch w = 3u   l = 1u  m = 1
 m4	2	1	 vss vss nch w = 3u l = 1u    m = 1
 ma1 vop cz vdd vdd pch   w = 1.5u l = 1u m = 24
 ma2 vop 2  vss vss nch   w = 12u l = 0.4u m = 3
 cc  xx  vop 150f
 rc  2   xx  20k
 rl   vop    vinn rld
 .ends
 ******gm******
 .subckt gm vdd vss inp inn io2  vb
 mbx 1   vb  vdd vdd pch w = 6u l = 8u   m = 1
 mby 2   vb  1   1   pch w = 6u l = 8u   m = 1
 mbz bd  vb  2   2   pch w = 6u l = 8u   m = 1
 .subckt gmx vdd vss in bd gg id sd
 ms  sd  sd  bd  bd  pch w = 2u    l = 1u m = 2
 min id  id  sd  in  pch w = 2u    l = 1u m = 2
 mn  id  gg  vss vss nch w = 2u    l = 1u m = 2
 .ends
 mb1  bd   ggp  bump vss  nch w = 8u l = 0.5u m = 2
 mb2  bump ggn  vss  vss  nch w = 5u l = 0.5u m = 2
 mo1  io1  ggn  vss  vss  nch w = 5u l = 0.5u m = 2
 mo2  io2  ggp  vss  vss  nch w = 5u l = 0.5u m = 2
 mo3  1a  io1 vdd  vdd  pch w = 1u l = 2u m = 1
 mo3a 1b  io1 1a   1a   pch w = 1u l = 2u m = 1
 mo3b io1 io1 1b   1b   pch w = 1u l = 2u m = 1
 mo4  2a  io1 vdd  vdd  pch w = 1u l = 2u m = 1
 mo4a 2b  io1 2a   2a   pch w = 1u l = 2u m = 1
 mo4b io2 io1 2b   2b   pch w = 1u l = 2u m = 1

 xgmx1  vdd vss inp bd ggp idp sdp gmx
 xgmx2  vdd vss inn bd ggn idn sdn gmx
 v0  idp ggp dc = 0
 v1  idn ggn dc = 0
 *cc   io1 ggn  500f        *the small fallen peak btw 10k, 100k can be slightly reduced by this
 .ends
 ******op: buffer******
 .subckt trb vdd vss vinp vinn 2 cz
 mb	b	cz	 vdd vdd pch w = 2u  l = 0.5u  m = 2
 m1	1	vinp b	 b	 pch w = 2u   l = 0.5u  m = 2
 m2	2	vinn b	 b	 pch w = 2u   l = 0.5u  m = 2
 m3	1	1	 vss vss nch w = 2u   l = 0.5u  m = 1
 m4	2	1	 vss vss nch w = 2u   l = 0.5u  m = 1
 *ma1 vop cz vdd vdd pch   w = 1.5u l = 1u m = 2
 *ma2 vop 2  vss vss nch   w = 3u l = 0.4u m = 1
 *cc  vop 2 200f
 *rc vop   xx  100k
 *c1 1 vop 50f

 *rc vop xx 70k
 .ends
 ******op: folded cascode*******

 .subckt op_fc vdd vss vinp vinn vop cp cn cn2
 ***input stage***
 mn	1	vinp b	 vss	 nch w = 3u   l = 5u  m = 2
 mp	2	vinn b	 vss	 nch w = 3u   l = 5u  m = 2
 mb 	b	cn2	 vss  vss nch w = 2u   l = 1u  m = 4
 ***output stage***
 m1  1   cp2 vdd vdd pch w = 1u   l = 5u m = 4
 m2  2   cp2 vdd vdd pch w = 1u   l = 5u m = 4
 m3	von cp	1   1   pch w = 2u   l = 1u  m = 1      * gm*rds = 50 (id = 200n)
 m4	vop	cp	2   2   pch w = 2u   l = 1u  m = 1
 m5  von	cn  5   vss nch w = 2u   l = 1u  m = 1
 m6  vop	cn  6   vss nch w = 1u   l = 1u  m = 1
 m7  5   von vss vss nch w = 3u   l = 5u  m = 1
 m8  6   von vss vss nch w = 3u   l = 5u  m = 1
 mc1 cp2 cp2 vdd vdd pch w = 1u   l = 5u m = 1
 mc2 cp2 cn  cn2 vss nch w = 3.5u l = 0.5u   m = 7
 mc3 cn2 cn2 vss vss nch w = 2u   l = 1u m = 1
 cp vop vss 2p
 .ends


 .subckt cmb_bete5 vdd vss cp cn wp = 5u
 iin cp  vss dc = 1u
 mc0 cp  cp  vdd vdd pch w = 1.5u l = 1u m = 1
 mc1 cn  cp  vdd vdd pch w = 1.5u l = 1u m = 4
 mc2 cn  cn  vss vss nch w = 3.5u  l = 5u m = 1
 .ends
 xcmb   vdd vss cp opb0 cmb_bete5
 vb opb0 cn dc = 0
 ******hp*******
 *.subckt hp vdd vss in out
 *r1 in out 100k
 *l1 out vss 1m
 *.ends


 ***nw input stage***
 .subckt opnw2 vdd vss vinp vinn 2 cn2
 ******** bias from fd op *******
 ********
 m1	1	vinp b	 vss nch w = 2u   l = 2u  m = 1
 m2	2	vinn b	 vss nch w = 2u   l = 2u  m = 1
 m3	1	1	 vdd vdd pch w = 2u   l = 1u  m = 1
 m4	2	1	 vdd vdd pch w = 2u   l = 1u  m = 1
 mb  b   cn2  vss vss nch w = 2u   l = 1u m = 1
 c1   2   vinp 30f
 mr1  xx  rb  1   1   pch w = 1u l = 4u m = 1
 mcr1 cr1 1   vdd vdd pch w = 2u l = 1u m = 1
 mcr4 rb  rb  cr2 cr2 pch w = 1u l = 1u m = 2
 mcr5 cr2 cr2 vdd vdd pch w = 2u l = 1u m = 1
 mcr2 cr1 cr1 vss vss nch w = 1u l = 0.5u m = 1
 mcr3 rb  cr1 vss vss nch w = 1u l = 0.5u m = 1
 c2   2   xx  200f
 .ends
 .subckt ibias vdd vss cn mpx mpy rin = 1k
 mp mpy mpx vdd vdd pch w = 5u   l =  1u
 *(id, vgs, gm, rds): (10n, -0.5423, 2.363e-07, 574x); (10u, -0.9871,  7.141e-05, 1.67x)
 mn mpy cn rx vss nch w = 3.5u l =  1u m = 5
 r1 rx  vss rin
 .ends


 xtri vdd vss cn ti_in ti_out  cp  tr rld=100k
 xtro vdd vss cn to_in to_out0 cp  cn cn2 op_fc
 xtrb  vdd vss to_out0 to_out to_out cp trb


 *xopnw2 vdd vss mpy cn mpx cn2 opnw2
 *xib vdd vss cn mpx mpy ibias rin = 1k




 .param pbi = 10n
 ip mpx vss dc = pbi
 mpb mpx mpx vdd vdd pch w = 5u l = 1u
 mp  out mpx vdd vdd pch w = 5u l = 1u
 *vpx px gnd dc = 2.735

 *inw vdd out dc = pbi

 *mc  out vgn nwd vss nch w = 10u  l = 1u m = 1
 *vng vgn gnd dc = 2.5
 .param wx = 20u mx = 1
 mnw  out vnw nws vsn nch w = wx l = 20u m = mx
 *vws nws vss dc = 0
 *vsn vsn vss dc = 0.3
 vws nws vss dc = 0
 vsn vsn vss dc = 1



 vc1 out     ti_in  dc = 0
 *vc3 ti_out  gm_in   dc = 0
 vc4 ti_out  to_in   dc = 0
 vfc to_out vnw dc = vdif


 .param
 +comon		= 0.8
 +diff		= 0
 +vdif       = 0
 vd vdd gnd dc = 3.3
 *vd vdd gnd pulse 0 3.3         *try pseudo trans
 vs vss gnd dc = 0



 .probe dc i(mp) i(mnw) i(ip) i(xtri.rl)  lv9(mnw)

 ***ic***        *this help converge
 *.ic i(mnw)=pbi *v(opb1) = 0.802




 ***cloase loop test***
 *.alter  *inw_dc    #0
 *.lib 'test.l' inw_dc
 *
 *.alter  *inw_ac     #0
 *.del lib 'test.l' inw_dc
 *.lib 'test.l' inw_ac
 *
 .alter  *wx     #1


 **warning**  the accurate option increases  the cpu time but the results
                are more accurate.
 ***accurate option sets default value of the options: 
 lvltim= 4         dvdt= 3       relvar= 200.00m absvar= 200.00m
     ft= 200.00m relmos=  10.00m
 (used for FFT control ) fft_accurate= 1
1****** HSPICE -- B-2008.09-SP1 32-BIT (Nov 24 2008) linux ******               
 ******  
 *inputstage

  ******  circuit name directory
 circuit number to circuit name directory
   number circuitname                     definition         multiplier
        0 main circuit
        1 xcmb.                           cmb_bete5          1.00 
        2 xtri.                           tr                 1.00 
        3 xtro.                           op_fc              1.00 
        4 xtrb.                           trb                1.00 
 

 
      
  Opening plot unit= 15
 file=new.pa0                                                                  


          ***** job concluded
1****** HSPICE -- B-2008.09-SP1 32-BIT (Nov 24 2008) linux ******               
 ******  
 *inputstage

  ******  job statistics summary tnom=  25.000 temp=  25.000 *****

  ******  HSPICE Threads Information  ******
  Command Line Threads Count:                      0
  Available CPU Count:                             8
  Actual Model Evaluation(Load) Threads Count:     1
  Actual Solver Threads Count:                     1


  ******  Circuit Statistics  ******
  # nodes       =      96  # elements   =      48
  # resistors   =       2  # capacitors =       2  # inductors   =       0
  # mutual_inds =       0  # vccs       =       0  # vcvs        =       0
  # cccs        =       0  # ccvs       =       0  # volt_srcs   =      10
  # curr_srcs   =       2  # diodes     =       0  # bjts        =       0
  # jfets       =       0  # mosfets    =      32  # U elements  =       0
  # T elements  =       0  # W elements =       0  # B elements  =       0
  # S elements  =       0  # P elements =       0  # va device   =       0


  ******  Runtime Statistics (seconds)  ******

  analysis           time    # points   tot. iter  conv.iter
  op point           0.00           1           0
  readin             0.03
  errchk             0.02
  setup              0.00
  output             0.00


           total memory used          949  kbytes
           total cpu time            0.05 seconds
           total elapsed time        0.32 seconds
           job started at     00:32:20 04/21/2016
           job ended   at     00:32:20 04/21/2016


1****** HSPICE -- B-2008.09-SP1 32-BIT (Nov 24 2008) linux ******               
 ******  
   *wx     #1

  ******    alter processing listing tnom=  25.000 temp=  25.000 *****
 .del lib 'test.l' inw_ac
 .lib 'test.l' wx

     .op
     vfc to_out vnw dc = vdif ac = 1
     .dc wx 0.4u 40u 0.4u *sweep pbi dec 1 10n 10u
     .ac dec 1000 1 10g sweep pbi dec 1 10n 10u
     mt vdt vgt vst vst nch w = wx l = 0.5u m = mx
     it vst vss dc = 'pbi'
     vtg vgt gnd dc = 1
     vtd vdt gnd dc = 1
     .probe dc lx2(mt)  i(mt) lx7(mnw) lx9(mnw) par'-i(mp)' lx5(mnw) lx6(mnw)
     .probe ac out=par('v(ti_out)') lx7(mnw)
     *.ic v(gm_in) = 2 v(gm_out) = 2 v(out) = 2
     .option dcon = 1
 .endl
 **
 .alter
 $ alter processing continues $


 **warning**  the accurate option increases  the cpu time but the results
                are more accurate.
 ***accurate option sets default value of the options: 
 lvltim= 4         dvdt= 3       relvar= 200.00m absvar= 200.00m
     ft= 200.00m relmos=  10.00m
 (used for FFT control ) fft_accurate= 1
1****** HSPICE -- B-2008.09-SP1 32-BIT (Nov 24 2008) linux ******               
 ******  
   *wx     #1

  ******  circuit name directory
 circuit number to circuit name directory
   number circuitname                     definition         multiplier
        0 main circuit
        1 xcmb.                           cmb_bete5          1.00 
        2 xtri.                           tr                 1.00 
        3 xtro.                           op_fc              1.00 
        4 xtrb.                           trb                1.00 
 
      
  Opening plot unit= 15
 file=new.pa1                                                                  

1****** HSPICE -- B-2008.09-SP1 32-BIT (Nov 24 2008) linux ******               
 ******  
   *wx     #1

  ******  operating point information tnom=  25.000 temp=  25.000 *****
 ***** operating point status is all       simulation time is     0.     
    node    =voltage      node    =voltage      node    =voltage

 +0:cn      = 7.967e-01 0:cn2     = 3.969e-01 0:cp      = 2.395e+00
 +0:mpx     = 2.746e+00 0:nws     =   0.      0:opb0    = 7.967e-01
 +0:out     = 7.968e-01 0:ti_in   = 7.968e-01 0:ti_out  = 7.971e-01
 +0:to_in   = 7.971e-01 0:to_out  = 1.799e-01 0:to_out0 = 1.563e-01
 +0:vdd     = 3.300e+00 0:vdt     = 1.000e+00 0:vgt     = 1.000e+00
 +0:vnw     = 1.799e-01 0:vsn     = 1.000e+00 0:vss     =   0.     
 +0:vst     = 6.811e-01 2:1       = 5.791e-01 2:2       = 5.876e-01
 +2:b       = 1.583e+00 2:xx      = 5.876e-01 3:1       = 3.018e+00
 +3:2       = 3.015e+00 3:5       = 2.908e-01 3:6       = 1.545e-01
 +3:b       = 3.101e-01 3:cp2     = 2.566e+00 3:von     = 4.326e-01
 +4:1       = 6.577e-01 4:b       = 1.039e+00


 maximum nodal capacitance=   2.609E-12         on node     0:vss             

    nodal  capacitance table 

    node    =    cap      node    =    cap      node    =    cap

 +0:cn      = 7.523e-14 0:cn2     = 5.382e-14 0:cp      = 1.787e-13
 +0:mpx     = 2.013e-14 0:nws     = 3.643e-14 0:opb0    = 7.321e-14
 +0:out     = 3.479e-14 0:ti_in   = 1.193e-14 0:ti_out  = 2.384e-13
 +0:to_in   = 3.370e-14 0:to_out  = 1.627e-14 0:to_out0 = 2.014e-12
 +0:vdd     = 6.457e-13 0:vdt     = 2.583e-14 0:vgt     = 1.874e-14
 +0:vnw     = 1.859e-12 0:vsn     = 1.909e-12 0:vss     = 2.609e-12
 +0:vst     = 8.390e-14 2:1       = 2.584e-14 2:2       = 4.762e-14
 +2:b       = 8.666e-14 2:xx      = 1.500e-13 3:1       = 2.735e-14
 +3:2       = 2.727e-14 3:5       = 7.509e-15 3:6       = 9.503e-15
 +3:b       = 2.992e-14 3:cp2     = 9.016e-14 3:von     = 4.268e-14
 +4:1       = 1.747e-14 4:b       = 6.324e-14

 

 ****  voltage sources

 subckt                                                                    
 element  0:vb       0:vws      0:vsn      0:vc1      0:vc4      0:vfc     
  volts      0.         0.       1.000e+00    0.         0.         0.     
  current  1.388e-17  1.456e-04 -1.456e-04 -3.006e-09  2.220e-16  3.469e-18
  power      0.         0.       1.456e-04    0.         0.         0.     

 subckt                                              
 element  0:vd       0:vs       0:vtg      0:vtd     
  volts    3.300e+00    0.       1.000e+00  1.000e+00
  current -4.434e-05  4.435e-05    0.      -1.000e-08
  power    1.463e-04    0.         0.       1.000e-08

     total voltage source power dissipation=  2.919e-04       watts



 ***** current sources

 subckt                         xcmb      
 element  0:ip       0:it       1:iin     
  volts    2.746e+00  6.811e-01  2.395e+00
  current  1.000e-08  1.000e-08  1.000e-06
  power   -2.746e-08 -6.811e-09 -2.396e-06


     total current source power dissipation=-2.430e-06       watts

 **** resistors

 subckt   xtri       xtri      
 element  2:rc       2:rl      
  r value  2.000e+04  1.000e+05
  v drop     0.       3.006e-04
  current    0.       3.006e-09
  power      0.       9.035e-13



 **** mosfets


 subckt                                               xcmb       xcmb      
 element  0:mpb      0:mp       0:mnw      0:mt       1:mc0      1:mc1     
 model    0:pch.2    0:pch.2    0:nch.10   0:nch.12   0:pch.2    0:pch.2   
 region       Cutoff     Cutoff     Cutoff     Cutoff   Saturati   Saturati
  id      -9.999e-09 -1.422e-08  1.729e-08  9.999e-09 -1.000e-06 -4.612e-06
  ibs      2.009e-21  2.856e-21  1.456e-04 -1.457e-20  2.118e-19  9.769e-19
  ibd      4.759e-16  1.956e-13  6.828e-11 -2.514e-14  1.610e-16  3.871e-11
  vgs     -5.540e-01 -5.540e-01  1.799e-01  3.189e-01 -9.045e-01 -9.045e-01
  vds     -5.540e-01 -2.503e+00  7.968e-01  3.189e-01 -9.045e-01 -2.503e+00
  vbs        0.         0.       1.000e+00    0.         0.         0.     
  vth     -7.588e-01 -7.458e-01  3.314e-01  5.745e-01 -7.709e-01 -7.603e-01
  vdsat   -4.992e-02 -5.035e-02  4.393e-02  4.319e-02 -1.795e-01 -1.881e-01
  vod      2.048e-01  1.918e-01 -1.515e-01 -2.556e-01 -1.336e-01 -1.441e-01
  beta     2.861e-04  2.872e-04  2.087e-04  9.156e-03  7.484e-05  2.998e-04
  gam eff  3.951e-01  3.951e-01  4.896e-01  5.323e-01  3.947e-01  3.947e-01
  gm       2.357e-07  3.271e-07  3.717e-07  2.776e-07  1.056e-05  4.685e-05
  gds      2.114e-09  2.378e-09  3.239e-10  3.709e-09  1.076e-07  3.645e-07
  gmb      5.438e-08  7.533e-08  5.332e-08  8.786e-08  2.295e-06  1.016e-05
  cdtot    7.340e-15  5.119e-15  2.967e-14  2.583e-14  2.444e-15  7.463e-15
  cgtot    6.394e-15  6.394e-15  1.859e-12  1.874e-14  5.271e-15  2.109e-14
  cstot    8.959e-15  8.959e-15  3.643e-14  2.794e-14  8.097e-15  3.239e-14
  cbtot    1.900e-14  1.678e-14  1.909e-12  5.595e-14  6.878e-15  2.520e-14
  cgs      9.242e-16  9.242e-16  4.140e-15  4.140e-15  4.109e-15  1.644e-14
  cgd      9.242e-16  9.242e-16  4.140e-15  4.140e-15  2.837e-16  1.135e-15



 subckt   xcmb       xtri       xtri       xtri       xtri       xtri      
 element  1:mc2      2:mb       2:m1       2:m2       2:m3       2:m4      
 model    0:nch.1    0:pch.2    0:pch.2    0:pch.2    0:nch.2    0:nch.2   
 region     Saturati   Saturati   Saturati   Saturati   Saturati   Saturati
  id       4.612e-06 -2.161e-06 -1.080e-06 -1.081e-06  1.080e-06  1.081e-06
  ibs     -7.736e-18  4.578e-19  2.205e-19  2.207e-19 -1.859e-18 -1.861e-18
  ibd     -5.247e-15  2.293e-13  6.094e-16  6.062e-16 -4.644e-15 -4.644e-15
  vgs      7.967e-01 -9.045e-01 -7.862e-01 -7.864e-01  5.791e-01  5.791e-01
  vds      7.967e-01 -1.716e+00 -1.004e+00 -9.955e-01  5.791e-01  5.876e-01
  vbs        0.         0.         0.         0.         0.         0.     
  vth      5.355e-01 -7.655e-01 -7.600e-01 -7.601e-01  5.584e-01  5.583e-01
  vdsat    2.588e-01 -1.838e-01 -1.042e-01 -1.042e-01  7.640e-02  7.641e-02
  vod      2.612e-01 -1.389e-01 -2.623e-02 -2.631e-02  2.073e-02  2.075e-02
  beta     1.363e-04  1.498e-04  3.300e-04  3.300e-04  6.260e-04  6.260e-04
  gam eff  4.573e-01  3.947e-01  3.950e-01  3.950e-01  4.656e-01  4.656e-01
  gm       3.155e-05  2.238e-05  1.679e-05  1.680e-05  2.112e-05  2.114e-05
  gds      4.928e-08  1.880e-07  1.467e-07  1.471e-07  1.114e-07  1.111e-07
  gmb      9.246e-06  4.861e-06  3.730e-06  3.733e-06  6.142e-06  6.146e-06
  cdtot    4.630e-15  4.172e-15  8.342e-15  8.358e-15  4.172e-15  4.166e-15
  cgtot    6.111e-14  1.054e-14  1.193e-14  1.195e-14  6.663e-15  6.663e-15
  cstot    7.412e-14  1.619e-14  1.808e-14  1.812e-14  8.393e-15  8.393e-15
  cbtot    3.130e-14  1.304e-14  2.313e-14  2.315e-14  1.105e-14  1.105e-14
  cgs      5.240e-14  8.219e-15  6.386e-15  6.415e-15  3.386e-15  3.386e-15
  cgd      7.365e-16  5.673e-16  1.116e-15  1.116e-15  6.333e-16  6.333e-16



 subckt   xtri       xtri       xtro       xtro       xtro       xtro      
 element  2:ma1      2:ma2      3:mn       3:mp       3:mb       3:m1      
 model    0:pch.2    0:nch.3    0:nch.1    0:nch.1    0:nch.2    0:pch.4   
 region     Saturati   Saturati     Cutoff     Cutoff     Cutoff     Cutoff
  id      -2.767e-05  2.767e-05  2.131e-08  2.153e-08  4.284e-08 -4.253e-08
  ibs      5.861e-18 -4.118e-17 -9.288e-15 -9.288e-15 -8.001e-20  9.317e-21
  ibd      2.318e-10 -4.655e-14 -1.181e-11 -1.183e-11 -1.375e-14  4.636e-16
  vgs     -9.045e-01  5.876e-01  4.867e-01  4.871e-01  3.969e-01 -7.339e-01
  vds     -2.502e+00  7.971e-01  2.708e+00  2.705e+00  3.101e-01 -2.817e-01
  vbs        0.         0.      -3.101e-01 -3.101e-01    0.         0.     
  vth     -7.603e-01  5.689e-01  6.196e-01  6.196e-01  5.525e-01 -7.901e-01
  vdsat   -1.881e-01  6.904e-02  4.659e-02  4.662e-02  4.262e-02 -6.828e-02
  vod     -1.441e-01  1.871e-02 -1.329e-01 -1.325e-01 -1.556e-01  5.623e-02
  beta     1.799e-03  2.084e-02  2.333e-04  2.333e-04  1.592e-03  4.577e-05
  gam eff  3.947e-01  5.662e-01  4.461e-01  4.461e-01  4.612e-01  3.553e-01
  gm       2.811e-04  5.891e-04  5.127e-07  5.175e-07  1.132e-06  6.791e-07
  gds      2.187e-06  8.640e-06  1.954e-09  1.965e-09  6.803e-09  2.908e-09
  gmb      6.099e-05  1.612e-04  1.362e-07  1.374e-07  3.431e-07  1.648e-07
  cdtot    4.478e-14  4.367e-14  6.824e-15  6.825e-15  1.243e-14  8.772e-15
  cgtot    1.265e-13  3.510e-14  3.370e-14  3.370e-14  1.305e-14  2.679e-14
  cstot    1.943e-13  6.247e-14  8.745e-15  8.745e-15  1.338e-14  9.803e-15
  cbtot    1.512e-13  9.414e-14  4.420e-14  4.420e-14  3.202e-14  4.229e-14
  cgs      9.862e-14  1.585e-14  1.267e-15  1.267e-15  1.708e-15  7.686e-16
