Using: /usr/bin/time -p /usr/cad/synopsys/hspice/cur/hspice/linux/hspice my-op_2stage.sp
 ****** HSPICE -- B-2008.09-SP1 32-BIT (Nov 24 2008) linux ******               
  Copyright (C) 2008 Synopsys, Inc. All Rights Reserved.                        
  Unpublished-rights reserved under US copyright laws.
  This program is protected by law and is subject to the 
  terms and conditions of the license agreement from Synopsys.
  Use of this program is your acceptance to be bound by the 
  license agreement. HSPICE is the trademark of Synopsys, Inc.
  Input File: my-op_2stage.sp                                                   
 lic:  
 lic: FLEXlm: v8.5b 
 lic: USER:   m103061608           HOSTNAME: ws43 
 lic: HOSTID: 5cf3fcb5e0d8         PID:      3113 
 lic: Using FLEXlm license file: 
 lic: 26585@lsnctu 
 lic: Checkout 1 hspice 
 lic: License/Maintenance for hspice will expire on 14-may-2016/2015.06 
 lic: FLOATING license(s) on SERVER lsnctu 
 lic:   
 Init: read install configuration file: /usr/cad/synopsys/hspice/cur/hspice/meta.cfg
 Init: hspice initialization file: /usr/cad/synopsys/hspice/cur/hspice/hspice.ini
 .option runlvl
 .option post acout=0 accurate=1 dcon=1 converge=1 gmindc=1.0000e-12 captab=1 unwrap=1
 *.option dccap=1 accurate=1 post

 ***param***
 .param
 +comon		= 2
 +bias		= 2.7
 +bias2		= 0.45
 +supplyp	= 3.3
 +supplyn	= 0
 +diff			= 0
 ***netlist***
 ***1st stage***
 mb	b	cp	vdd	vdd	pch	w = 31u  l = 1u	  m = 2
 m1	1	vinn	b		b		pch	w = 10u l = 0.4u m = 1
 m2	2	vinp	b		b		pch	w = 10u l = 0.4u m = 1
 m3	1	cn		vss	vss	nch	w = 4.2u l = 0.4u m = 2
 m4	2	cn		vss	vss	nch	w = 4.2u l = 0.4u m = 2


 ***2nd stage***
 m1pa	voa	voa	vdd	vdd	pch	w = 11u l = 0.4u    m = 2
 m1pb	von	von	voa	voa	pch	w = 11u l = 0.4u    m = 2
 m2pa	vo2	voa	vdd	vdd	pch	w = 11u l = 0.4u    m = 2
 m2pb	vop	von	vo2 vo2	pch	w = 11u l = 0.4u    m = 2
 m3n	    von	1   vss vss nch w = 5u  l = 0.4u    m = 1
 m4n	    vop	2   vss vss nch w = 5u  l = 0.4u    m = 1

 ***compensation***
 *ct	gnd		2   100f
 *con	gnd	von 50f
 *con1 1 von 50f
 *cop2 2 vop 300f
 *c1   1 gnd 100f  *flatten end
 *c2   2 gnd  200f
 *cb   b gnd 10f         useless
 *cvoa gnd voa 500f      *useless
 *cvo2 gnd vo2 300f
 *cvoavo2 voa vo2 250f
 *cvonvop zon vop 220f
 rz1	zon		von   100k


 ***source***
 vd		vdd 	gnd dc supplyp
 vs		vss 	gnd dc supplyn
 vb 		b0		gnd dc bias
 vb1		b1		gnd dc bias2


 ***input***
 vinp vinp gnd dc = 'comon-diff' *ac = 1
 *vinn vinn gnd dc = 'comon+diff' ac = 1 *180
 *viac 2 gnd ac = 1
 *lac 2 vac 1x
 ***current mirror***
 iin cp vss dc = 500n
 mc0 cp cp vdd vdd pch w = 5u l = 0.4u m = 7
 mc1 c0 cp vdd vdd pch w = 5u l = 0.4u m = 2
 mc2 cn cn c0  c0  pch w = 1u l = 0.4u m = 1
 mc3 cn cn vss vss nch w = 5.1u l = 0.4u m = 3

 ***test***
 *mt	vgt	vgt	vss	vss	nch	w = 2.7u   l = 0.5u m = 1
 *mt	vdt	vgt	vdd	vdd	pch w = 9.7u l = 0.5u m = 1

 *vtd	vdt	gnd dc = '1-499.7048m'
 *vtg	vgt	gnd dc = 1

 ***feedback test***
 rf vop vinn 100k
 if vdd vinn  dc = 10u ac = 1
 *.dc if dec 100 1n 1u

 ****mos resistor***
 **mrp	vinn vref vop  pch w = 3u l = 3u m = 1
 **mrp2 vop vref vinn vinn  pch w = 3u l = 3u m = 1
 *if vdd vinn  dc = 1n ac = 1
 *vr vref gnd dc = 1.5
 *.dc if -500n 500n 1n
 *.probe zr = par('v(vop)-v(vinn)')



 .op

 ***sweep***
 .dc diff -0.5 0.5 0.01
 .probe ac i(if)
 ***probe&measuring***
 .ac dec 1000 10 1t
 *.tf v(voa) vinp
 .pz v(vop) vinp
 *.pz v(vop) viac
 .probe dc i(m1) i(m2)	i(mt)
 .probe ac cap(von)
 +gain1st=par('vdb(2, 1)-vdb(vinp,vinn)')	par('i(m1)-i(m2)')	phase1st=par('vp(2,1)')
 +gainall=par('vdb(vop)-vdb(vinp,vinn)')		phaseall=par('vp(vop)')
 .meas ac gain max par('vdb(vop)-vdb(vinp,vinn)')
 .meas ac gain1st max par('vdb(2, 1)-vdb(vinp,vinn)')
 .meas ac zerodb when par('vdb(vop)-vdb(vinp,vinn)') = 0
 .meas ac phaseatdb	find par('vp(vop)') when par('vdb(vop)-vdb(vinp,vinn)') = 0

 *.noise v(1) vinn 10
 .end


 **warning**  the accurate option increases  the cpu time but the results
                are more accurate.
 ***accurate option sets default value of the options: 
 lvltim= 4         dvdt= 3       relvar= 200.00m absvar= 200.00m
     ft= 200.00m relmos=  10.00m
 (used for FFT control ) fft_accurate= 1
 

 **warning** could not find branch element     0:mt              
      branch - output ignored
 

 **warning** only 1 connection at node        0:zon              defined in subckt 0               
        : called in element     0:rz1 defined in subckt 0                at line    50
          within the hspice source, library or include file.

 **warning** the following singular supplies were terminated to 1 meg resistor 
   supply       node1            node2
  vb                      0:b0               defined in subckt 0                     0:0                defined in subckt 0               
  vb1                     0:b1               defined in subckt 0                     0:0                defined in subckt 0               
      
  *** initial damped pseudo transient completed. ***
  *** final try started ***
1****** HSPICE -- B-2008.09-SP1 32-BIT (Nov 24 2008) linux ******               
 ******  
 ***myop_2stage

  ******  operating point information tnom=  25.000 temp=  25.000 *****
 ***** operating point status is all       simulation time is     0.     
    node    =voltage      node    =voltage      node    =voltage

 +0:1       = 162.9591m 0:2       = 632.8843m 0:b       =   2.5814 
 +0:b0      =   2.7000  0:b1      = 450.0000m 0:c0      =   1.2252 
 +0:cn      = 449.9268m 0:cp      =   2.7007  0:vdd     =   3.3000 
 +0:vinn    =   2.0225  0:vinp    =   2.0000  0:vo2     =   2.9543 
 +0:voa     =   3.0025  0:von     =   2.7051  0:vop     =   1.0225 
 +0:vss     =   0.      0:zon     =   2.7051 


 maximum nodal capacitance=   7.497E-13         on node     0:vdd             

    nodal  capacitance table 

    node    =    cap      node    =    cap      node    =    cap

 +0:1       =  26.4405f 0:2       =  28.5270f 0:b       = 168.1107f
 +0:b0      =   0.      0:b1      =   0.      0:c0      =  17.9291f
 +0:cn      =  50.1498f 0:cp      = 155.1721f 0:vdd     = 749.7021f
 +0:vinn    =   6.9241f 0:vinp    =   6.8921f 0:vo2     = 131.0201f
 +0:voa     = 173.9326f 0:von     =  71.4271f 0:vop     =  29.3213f
 +0:vss     = 186.7533f 0:zon     =   0.     

 

 ****  voltage sources

 subckt                                                         
 element  0:vd       0:vs       0:vb       0:vb1      0:vinp    
  volts      3.3000     0.         2.7000   450.0000m    2.0000 
  current  -11.2775u   11.2775u   -2.7000u -450.0000n    0.     
  power     37.2159u    0.         7.2900u  202.5000n    0.     

     total voltage source power dissipation=   44.7084u       watts



 ***** current sources

 subckt                        
 element  0:iin      0:if      
  volts      2.7007     1.2775 
  current  500.0000n   10.0000u
  power     -1.3503u  -12.7749u


     total current source power dissipation= -14.1253u       watts

 **** resistors

 subckt                        
 element  0:rz1      0:rf      
  r value  100.0000k  100.0000k
  v drop     0.        -1.0000 
  current    0.       -10.0000u
  power      0.        10.0000u



 **** mosfets


 subckt                                                                    
 element  0:mb       0:m1       0:m2       0:m3       0:m4       0:m1pa    
 model    0:pch.11   0:pch.3    0:pch.3    0:nch.3    0:nch.3    0:pch.3   
 region       Cutoff     Cutoff     Cutoff     Cutoff     Cutoff     Cutoff
  id      -402.5889n -179.6302n -222.9469n  179.6395n  222.9490n -101.6661p
  ibs      7.911e-20  3.562e-20  4.421e-20 -2.937e-19 -3.645e-19  2.024e-23
  ibd        5.6318f    5.1775p  782.9812f  -12.1596f  -12.1810f    2.0318f
  vgs     -599.3222m -558.9091m -581.4160m  449.9268m  449.9268m -297.4545m
  vds     -718.5840m   -2.4185    -1.9485   162.9591m  632.8843m -297.4545m
  vbs        0.         0.         0.         0.         0.         0.     
  vth     -749.1555m -665.8624m -678.4926m  571.4472m  567.9076m -722.3991m
  vdsat    -52.5640m  -49.4390m  -50.4316m   43.9721m   44.0980m  -45.1576m
  vod      149.8333m  106.9532m   97.0766m -121.5204m -117.9808m  424.9446m
  beta       3.6745m    1.2854m    1.2804m    4.6782m    4.6802m    2.7879m
  gam eff  391.6940m  462.5849m  462.5849m  554.4915m  554.4915m  463.2525m
  gm         8.8460u    4.1597u    5.1142u    4.7296u    5.8421u    2.7124n
  gds       81.5548n  115.8630n  143.5032n  112.0119n   91.9603n   88.6163p
  gmb        2.0275u  934.1003n    1.1413u    1.3619u    1.6705u  780.5025p
  cdtot     80.2333f    9.8705f   10.5260f   12.1655f   11.1454f   33.2767f
  cgtot     72.8482f    6.9241f    6.8921f    7.0242f    7.0242f   16.2234f
  cstot    102.5259f   17.0945f   17.0945f   12.7039f   12.7039f   37.4431f
  cbtot    210.1502f   26.5325f   27.1560f   24.8464f   23.8262f   70.7660f
  cgs       11.3643f    1.8391f    1.8391f    1.7618f    1.7618f    4.0443f
  cgd       11.3643f    1.8391f    1.8391f    1.7618f    1.7618f    4.0443f



 subckt                                                                    
 element  0:m1pb     0:m2pa     0:m2pb     0:m3n      0:m4n      0:mc0     
 model    0:pch.3    0:pch.3    0:pch.3    0:nch.3    0:nch.3    0:pch.3   
 region       Cutoff     Cutoff     Cutoff     Cutoff   Saturati     Cutoff
  id      -101.6659p -105.9849p  -99.5662p   96.6010p   10.0001u -499.9916n
  ibs      2.024e-23  2.111e-23  2.048e-23 -1.589e-22  -15.9796a  1.004e-19
  ibd        2.0318f    2.0318f    2.3595f -772.7981f  -21.2750f    3.3314f
  vgs     -297.4544m -297.4545m -249.2044m  162.9591m  632.8843m -599.3222m
  vds     -297.4544m -345.7044m   -1.9318     2.7051     1.0225  -599.3222m
  vbs        0.         0.         0.         0.         0.         0.     
  vth     -722.3991m -721.1032m -678.5038m  552.9547m  565.5473m -719.8247m
  vdsat    -45.1576m  -45.1576m  -45.1539m   42.7146m   93.6541m  -48.9331m
  vod      424.9447m  423.6487m  429.2994m -389.9956m   67.3371m  120.5025m
  beta       2.7879m    2.7890m    2.8248m    2.8196m    2.8040m    4.3353m
  gam eff  463.2525m  463.2525m  463.2525m  557.3611m  557.3616m  455.2807m
  gm         2.7124n    2.8274n    2.6569n    2.7723n  175.8344u   11.5078u
  gds       88.6162p   90.4726p   74.1124p   37.7658p    2.4868u  354.1031n
  gmb      780.5010p  812.8305p  767.1260p  873.5129p   47.3350u    2.5757u
  cdtot     33.2767f   32.7309f   23.1128f    5.4597f    6.2085f   50.7212f
  cgtot     16.2234f   16.2234f   16.4674f    4.4044f    6.8556f   24.5798f
  cstot     37.4431f   37.4431f   37.4431f    7.4453f   12.3470f   62.7138f
  cbtot     70.7660f   70.2202f   60.8461f   13.1256f   13.8253f  112.1386f
  cgs        4.0443f    4.0443f    4.0443f    1.0459f    4.6537f    6.4691f
  cgd        4.0443f    4.0443f    4.0443f    1.0459f    1.0459f    6.4691f



 subckt                                   
 element  0:mc1      0:mc2      0:mc3     
 model    0:pch.3    0:pch.6    0:nch.3   
 region       Cutoff   Saturati     Cutoff
  id      -374.7296n -374.7388n  374.7377n
  ibs      7.527e-20  8.207e-20 -5.981e-19
  ibd        2.4938p  115.9258a  -21.5264f
  vgs     -599.3222m -775.2674m  449.9268m
  vds       -2.0748  -775.2674m  449.9268m
  vbs        0.         0.         0.     
  vth     -679.8662m -745.3677m  569.8638m
  vdsat    -53.6544m -102.1390m   44.1177m
  vod       80.5440m  -29.8997m -119.9370m
  beta       1.2523m  106.3096u    8.6184m
  gam eff  455.2808m  408.2469m  557.6573m
  gm         8.2520u    5.5740u    9.8278u
  gds      233.0318n  163.2106n  161.9936n
  gmb        1.8089u    1.1767u    2.8253u
  cdtot     10.8352f    1.8946f   20.5427f
  cgtot      7.0228f  969.8884a   12.6943f
  cstot     17.9182f    2.6998f   22.7458f
  cbtot     28.3830f    4.3941f   43.1839f
  cgs        1.8483f  388.9027a    3.1997f
  cgd        1.8483f  192.1500a    3.1997f



 ***************************************************
   ******   pole/zero analysis  
 
 
    input =  0:vinp          output = v(vop)
 
       poles (rad/sec)                 poles ( hertz)
 real            imag            real            imag            
 -38.4749k       4.80576k        -6.12347k       764.860         
 -38.4749k       -4.80576k       -6.12347k       -764.860        
 -55.6108k       0.              -8.85074k       0.              
 -5.51079x       0.              -877.069k       0.              
 -35.8970x       308.121x        -5.71318x       49.0390x        
 -35.8970x       -308.121x       -5.71318x       -49.0390x       
 -69.7600x       0.              -11.1026x       0.              
 -192.506x       0.              -30.6383x       0.              
 -384.957x       0.              -61.2678x       0.              
 -635.174x       0.              -101.091x       0.              
 -2.04161g       0.              -324.933x       0.              
 
       zeros (rad/sec)                 zeros ( hertz)
 real            imag            real            imag            
 -38.4750k       4.80601k        -6.12349k       764.900         
 -38.4751k       -4.80601k       -6.12349k       -764.900        
 -55.6106k       0.              -8.85071k       0.              
 -5.19196x       0.              -826.326k       0.              
 -37.5187x       0.              -5.97129x       0.              
 -79.2928x       0.              -12.6198x       0.              
 -204.047x       0.              -32.4751x       0.              
 -596.177x       0.              -94.8846x       0.              
 -1.57686g       0.              -250.966x       0.              
 1.95896g        0.              311.777x        0.              
 153.383g        0.              24.4117g        0.              
 
  ***** constant factor = 6.38816m
 ******  
 ***myop_2stage

  ******  ac analysis tnom=  25.000 temp=  25.000 *****
   gain=  4.3569E+01    at=  8.7297E+03
               from=  1.0000E+01    to=  1.0000E+12
   gain1st=  2.6010E+01    at=  6.6834E+01
               from=  1.0000E+01    to=  1.0000E+12
   zerodb=  4.7505E+07
   phaseatdb=  8.4512E+01

          ***** job concluded
1****** HSPICE -- B-2008.09-SP1 32-BIT (Nov 24 2008) linux ******               
 ******  
 ***myop_2stage

  ******  job statistics summary tnom=  25.000 temp=  25.000 *****

  ******  HSPICE Threads Information  ******
  Command Line Threads Count:                      0
  Available CPU Count:                             8
  Actual Model Evaluation(Load) Threads Count:     1
  Actual Solver Threads Count:                     1


  ******  Circuit Statistics  ******
  # nodes       =      50  # elements   =      28
  # resistors   =       4  # capacitors =       0  # inductors   =       0
  # mutual_inds =       0  # vccs       =       0  # vcvs        =       0
  # cccs        =       0  # ccvs       =       0  # volt_srcs   =       7
  # curr_srcs   =       2  # diodes     =       0  # bjts        =       0
  # jfets       =       0  # mosfets    =      15  # U elements  =       0
  # T elements  =       0  # W elements =       0  # B elements  =       0
  # S elements  =       0  # P elements =       0  # va device   =       0


  ******  Runtime Statistics (seconds)  ******

  analysis           time    # points   tot. iter  conv.iter
  op point           0.03           1         712
  dc sweep           0.03         101         316
  ac analysis        0.25       11001       11001
  readin             0.03
  errchk             0.01
  setup              0.00
  output             0.00


           total memory used          544  kbytes
           total cpu time            0.35 seconds
           total elapsed time        0.54 seconds
           job started at     15:37:02 01/05/2016
           job ended   at     15:37:02 01/05/2016


 Init: hspice initialization file: /usr/cad/synopsys/hspice/cur/hspice/hspice.ini
 lic: Release hspice token(s) 
