Using: /usr/bin/time -p /usr/cad/synopsys/hspice/cur/hspice/linux/hspice iE_Tr.sp
 ****** HSPICE -- B-2008.09-SP1 32-BIT (Nov 24 2008) linux ******               
  Copyright (C) 2008 Synopsys, Inc. All Rights Reserved.                        
  Unpublished-rights reserved under US copyright laws.
  This program is protected by law and is subject to the 
  terms and conditions of the license agreement from Synopsys.
  Use of this program is your acceptance to be bound by the 
  license agreement. HSPICE is the trademark of Synopsys, Inc.
  Input File: iE_Tr.sp                                                          
 lic:  
 lic: FLEXlm: v8.5b 
 lic: USER:   m103061608           HOSTNAME: ws45 
 lic: HOSTID: e41f13edf052         PID:      12673 
 lic: Using FLEXlm license file: 
 lic: 26585@lsnctu 
 lic: Checkout 1 hspice 
 lic: License/Maintenance for hspice will expire on 14-may-2016/2015.06 
 lic: FLOATING license(s) on SERVER lsnctu 
 lic:   
 Init: read install configuration file: /usr/cad/synopsys/hspice/cur/hspice/meta.cfg
 Init: hspice initialization file: /usr/cad/synopsys/hspice/cur/hspice/hspice.ini
 .option runlvl
 .option post acout=0 accurate=1 dcon=1 converge=0 gmindc=1.0000e-12 captab=1 unwrap=1
 + ingold=2

 ***netlist***
 ******ienlarge******
 .subckt ien vdd vss vinn vinp vout cz eb
 mb	b	cz	 vdd vdd pch w = 12u  l = 5u  m = 1
 m1	von	vinp b	 b	 pch w = 6u   l = 5u  m = 1
 m2	vop	vinn b	 b	 pch w = 6u   l = 5u  m = 1
 m3	von	von	 vss vss nch w = 3u   l = 5u  m = 1
 m4	vop	von	 vss vss nch w = 3u   l = 5u    m = 1

 me1b vinp eb vdd vdd pch w = 10u l = 0.4u
 me2b vout eb vdd vdd pch w = 10u l = 0.4u m = 10
 me1 vinp vop vss vss nch w = 2u l = 0.4u            *decide by noise:
 me2 vout vop vss vss nch w = 2u l = 0.4u m = 10    *id ~45n, in~0.8n
 *rc  xx   vop 100k
 cc  vinp vop  1p
 *ct  vout gnd 300f
 .ends

 ******transimpedance******
 .subckt tr vdd vss vinp vinn vop cz
 mb	b	cz	 vdd vdd pch w = 5u  l = 5u  m = 1
 m1	1	vinn b	 b	 pch w = 3u   l = 5u  m = 2
 m2	2	vinp b	 b	 pch w = 3u   l = 5u  m = 2
 m3	1	1	 vss vss nch w = 3u   l = 5u  m = 1
 m4	2	1	 vss vss nch w = 3u l = 5u    m = 1
 ma1 vop cz vdd vdd pch w = 8u l = 1u m = 2
 ma2 vop 2  vss vss nch w = 17.3u l = 1u m = 2
 c1  2  vop 1p
 rl   vop    vinn 20k
 .ends

 ******current mirror******
 ic  cp vss dc = 500n
 mc0 cp cp vdd vdd pch w = 5u l = 0.4u m = 7
 mc1 c0 cp vdd vdd pch w = 5u l = 0.4u m = 2
 mc2 cn cn c0  c0  pch w = 1u l = 0.4u m = 1
 mc3 cn cn vss vss nch w = 5.1u l = 0.4u m = 3
 mcx  cz cz vdd vdd pch w = 1u l = 1u m = 1
 mcz  cz cn vss vss nch w = 10u l = 1u m = 3


 ***
 xien vdd vss opb ien_in tr_in cz eb ien
 xtr  vdd vss opb tr_in  tr_out  cz    tr
 ******op_bias***
 vopbias opb gnd dc = 'comon+diff' *ac = 1 *180
 .param
 +comon		= 2
 +diff		= 0
 ********************
 ********************



 ***bias***

 *veb eb gnd dc = '3.3-0.5'      *10n
 *veb eb gnd dc = '3.3-0.58'      *100n
 *veb eb gnd dc = '3.3-0.7'      *1u
 veb eb gnd dc = '3.3-0.85'      *10u



 ***input***
 *******source input*******
 iin ien_in vdd dc = 1u  ac = 1  sin(1u 10n 1k 1ns)
 *iin vdd ien_in dc = 1u  ac = 1  sin(100n 10n 1k 1ns)
 *******mos input*******

 ***
 ***source***
 vd		vdd 	gnd dc supplyp
 vs		vss 	gnd dc supplyn
 .param
 +supplyp	= 3.3
 +supplyn	= 0


 ***test***
 mt  vdt vgt vst vst pch w = 5u l = 0.4u
 it  vdd vst dc = 10n
 vtg vgt gnd dc = 2v
 vtd vdt gnd dc = 1v


 .op

 ******dc*******
 .dc iin dec 100 1n 100u
 ******ac*******
 .ac dec 1000 1 1t *sweep cc 100f 1p 100f
 *.pz v(tr_out) iin
 .probe ac vp(tr_out)
 .noise v(tr_out) iin 100


 .meas dc dcgain derivative v(tr_out) at=1u
 .meas ac ntot_ find onoise at 10
 .meas ac gain_ max par('vdb(tr_out)')
 .meas ac bandw when vdb(tr_out) = 'gain_ - 3.0'
 *.meas ac bw
 ******trans******
 *.tran 100ns 2ms
 *.probe tran i(me1) i(me2)

 .alter


 **warning**  the accurate option increases  the cpu time but the results
                are more accurate.
 ***accurate option sets default value of the options: 
 lvltim= 4         dvdt= 3       relvar= 200.00m absvar= 200.00m
     ft= 200.00m relmos=  10.00m
 (used for FFT control ) fft_accurate= 1
1****** HSPICE -- B-2008.09-SP1 32-BIT (Nov 24 2008) linux ******               
 ******  
 *current enlargge: use an op and two mos of current mirror

  ******  circuit name directory
 circuit number to circuit name directory
   number circuitname                     definition         multiplier
        0 main circuit
        1 xien.                           ien                1.00 
        2 xtr.                            tr                 1.00 
 

 
      
  Opening plot unit= 15
 file=iE_Tr.pa0                                                                

 ******  
 *current enlargge: use an op and two mos of current mirror

  ******  dc transfer curves tnom=  25.000 temp=  25.000 *****
   dcgain= -1.9970E+05
1****** HSPICE -- B-2008.09-SP1 32-BIT (Nov 24 2008) linux ******               
 ******  
 *current enlargge: use an op and two mos of current mirror

  ******  operating point information tnom=  25.000 temp=  25.000 *****
 ***** operating point status is all       simulation time is     0.     
    node    =voltage      node    =voltage      node    =voltage

 +0:c0      = 1.225e+00 0:cn      = 4.499e-01 0:cp      = 2.700e+00
 +0:cz      = 2.394e+00 0:eb      = 2.450e+00 0:ien_in  = 2.000e+00
 +0:opb     = 2.000e+00 0:tr_in   = 2.000e+00 0:tr_out  = 1.799e+00
 +0:vdd     = 3.300e+00 0:vdt     = 1.000e+00 0:vgt     = 2.000e+00
 +0:vss     =   0.      0:vst     = 2.491e+00 1:b       = 2.908e+00
 +1:von     = 6.710e-01 1:vop     = 7.333e-01 2:1       = 5.967e-01
 +2:2       = 6.198e-01 2:b       = 2.833e+00


 maximum nodal capacitance=   1.453E-12         on node     0:vdd             

    nodal  capacitance table 

    node    =    cap      node    =    cap      node    =    cap

 +0:c0      = 1.793e-14 0:cn      = 7.945e-14 0:cp      = 8.232e-14
 +0:cz      = 3.589e-13 0:eb      = 1.501e-13 0:ien_in  = 1.110e-12
 +0:opb     = 1.812e-13 0:tr_in   = 2.285e-13 0:tr_out  = 1.056e-12
 +0:vdd     = 1.453e-12 0:vdt     = 5.943e-15 0:vgt     = 3.592e-15
 +0:vss     = 8.966e-13 0:vst     = 2.376e-14 1:b       = 3.403e-13
 +1:von     = 1.118e-13 1:vop     = 1.047e-12 2:1       = 9.655e-14
 +2:2       = 1.106e-12 2:b       = 2.956e-13

 

 ****  voltage sources

 subckt                                                                    
 element  0:vopbias  0:veb      0:vd       0:vs       0:vtg      0:vtd     
  volts    2.000e+00  2.450e+00  3.300e+00    0.       2.000e+00  1.000e+00
  current    0.         0.      -2.252e-04  2.251e-04    0.       1.000e-08
  power      0.         0.       7.430e-04    0.         0.      -1.000e-08

     total voltage source power dissipation=  7.430e-04       watts



 ***** current sources

 subckt                                   
 element  0:ic       0:iin      0:it      
  volts    2.700e+00 -1.299e+00  8.087e-01
  current  5.000e-07  1.000e-06  1.000e-08
  power   -1.350e-06  1.300e-06 -8.087e-09


     total current source power dissipation=-5.866e-08       watts

 **** resistors

 subckt   xtr       
 element  2:rl      
  r value  2.000e+04
  v drop  -2.002e-01
  current -1.001e-05
  power    2.005e-06



 **** mosfets


 subckt                                                                    
 element  0:mc0      0:mc1      0:mc2      0:mc3      0:mcx      0:mcz     
 model    0:pch.3    0:pch.3    0:pch.6    0:nch.3    0:pch.5    0:nch.2   
 region       Cutoff     Cutoff   Saturati     Cutoff   Saturati     Cutoff
  id      -5.000e-07 -3.747e-07 -3.747e-07  3.747e-07 -6.069e-07  6.063e-07
  ibs      1.004e-19  7.527e-20  8.207e-20 -5.981e-19  1.329e-19 -9.126e-19
  ibd      3.331e-15  2.494e-12  1.159e-16 -2.153e-14  1.160e-16 -5.585e-10
  vgs     -5.993e-01 -5.993e-01 -7.753e-01  4.499e-01 -9.058e-01  4.499e-01
  vds     -5.993e-01 -2.074e+00 -7.753e-01  4.499e-01 -9.058e-01  2.394e+00
  vbs        0.         0.         0.         0.         0.         0.     
  vth     -7.198e-01 -6.799e-01 -7.454e-01  5.699e-01 -7.778e-01  5.635e-01
  vdsat   -4.893e-02 -5.365e-02 -1.021e-01  4.412e-02 -1.747e-01  4.465e-02
  vod      1.205e-01  8.054e-02 -2.990e-02 -1.199e-01 -1.280e-01 -1.136e-01
  beta     4.335e-03  1.252e-03  1.063e-04  8.618e-03  4.825e-05  6.708e-03
  gam eff  4.553e-01  4.553e-01  4.082e-01  5.577e-01  3.889e-01  4.720e-01
  gm       1.151e-05  8.252e-06  5.574e-06  9.828e-06  6.523e-06  1.525e-05
  gds      3.541e-07  2.330e-07  1.632e-07  1.620e-07  6.154e-08  8.384e-08
  gmb      2.576e-06  1.809e-06  1.177e-06  2.825e-06  1.414e-06  4.592e-06
  cdtot    5.072e-14  1.084e-14  1.895e-15  2.054e-14  1.835e-15  3.189e-14
  cgtot    2.458e-14  7.023e-15  9.699e-16  1.269e-14  3.685e-15  4.335e-14
  cstot    6.271e-14  1.792e-14  2.700e-15  2.275e-14  5.690e-15  4.284e-14
  cbtot    1.121e-13  2.838e-14  4.394e-15  4.318e-14  5.204e-15  9.314e-14
  cgs      6.469e-15  1.848e-15  3.889e-16  3.200e-15  2.762e-15  6.232e-15
  cgd      6.469e-15  1.848e-15  1.922e-16  3.200e-15  1.922e-16  6.232e-15



 subckt              xien       xien       xien       xien       xien      
 element  0:mt       1:mb       1:m1       1:m2       1:m3       1:m4      
 model    0:pch.3    0:pch.1    0:pch.1    0:pch.1    0:nch.1    0:nch.1   
 region       Cutoff   Saturati   Saturati   Saturati   Saturati   Saturati
  id      -9.997e-09 -2.631e-06 -1.315e-06 -1.316e-06  1.315e-06  1.316e-06
  ibs      2.008e-21  5.203e-19  2.629e-19  2.631e-19 -2.263e-18 -2.265e-18
  ibd      1.851e-15  1.106e-15  6.403e-13  4.706e-13 -4.644e-15 -4.644e-15
  vgs     -4.913e-01 -9.058e-01 -9.079e-01 -9.082e-01  6.710e-01  6.710e-01
  vds     -1.491e+00 -3.918e-01 -2.237e+00 -2.174e+00  6.710e-01  7.333e-01
  vbs        0.         0.         0.         0.         0.         0.     
  vth     -6.957e-01 -7.452e-01 -7.471e-01 -7.472e-01  5.345e-01  5.344e-01
  vdsat   -4.568e-02 -1.991e-01 -1.984e-01 -1.985e-01  1.590e-01  1.590e-01
  vod      2.043e-01 -1.605e-01 -1.609e-01 -1.610e-01  1.366e-01  1.366e-01
  beta     6.241e-04  1.577e-04  7.762e-05  7.761e-05  1.166e-04  1.166e-04
  gam eff  4.553e-01  4.181e-01  4.121e-01  4.121e-01  4.547e-01  4.547e-01
  gm       2.494e-07  2.480e-05  1.239e-05  1.240e-05  1.455e-05  1.456e-05
  gds      7.103e-09  1.443e-07  2.594e-08  2.610e-08  2.055e-08  1.989e-08
  gmb      5.914e-08  5.866e-06  2.915e-06  2.916e-06  4.290e-06  4.292e-06
  cdtot    5.943e-15  1.752e-14  6.259e-15  6.312e-15  4.115e-15  4.080e-15
  cgtot    3.592e-15  1.892e-13  9.589e-14  9.590e-14  5.069e-14  5.069e-14
  cstot    8.959e-15  2.302e-13  1.155e-13  1.155e-13  6.017e-14  6.017e-14
  cbtot    1.480e-14  9.405e-14  4.586e-14  4.592e-14  2.725e-14  2.721e-14
  cgs      9.242e-16  1.659e-13  8.313e-14  8.315e-14  4.225e-14  4.225e-14
  cgd      9.242e-16  2.205e-15  1.107e-15  1.107e-15  6.333e-16  6.333e-16



 subckt   xien       xien       xien       xien       xtr        xtr       
 element  1:me1b     1:me2b     1:me1      1:me2      2:mb       2:m1      
 model    0:pch.3    0:pch.3    0:nch.3    0:nch.3    0:pch.1    0:pch.1   
 region     Saturati   Saturati   Saturati   Saturati   Saturati   Saturati
  id      -1.867e-05 -1.867e-04  1.766e-05  1.766e-04 -1.001e-06 -5.002e-07
  ibs      3.694e-18  3.694e-17 -3.283e-17 -3.283e-16  2.009e-19  1.021e-19
  ibd      5.820e-14  5.833e-13 -2.817e-09 -2.814e-08  4.759e-16  3.290e-13
  vgs     -8.500e-01 -8.500e-01  7.333e-01  7.333e-01 -9.058e-01 -8.330e-01
  vds     -1.299e+00 -1.299e+00  2.000e+00  2.000e+00 -4.669e-01 -2.236e+00
  vbs        0.         0.         0.         0.         0.         0.     
  vth     -6.960e-01 -6.960e-01  5.535e-01  5.535e-01 -7.520e-01 -7.564e-01
  vdsat   -1.761e-01 -1.761e-01  1.710e-01  1.710e-01 -1.923e-01 -1.333e-01
  vod     -1.540e-01 -1.540e-01  1.797e-01  1.797e-01 -1.538e-01 -7.654e-02
  beta     1.246e-03  1.246e-02  1.028e-03  1.028e-02  6.424e-05  7.579e-05
  gam eff  4.626e-01  4.626e-01  5.352e-01  5.352e-01  4.097e-01  4.002e-01
  gm       2.003e-04  2.003e-03  1.666e-04  1.666e-03  9.660e-06  6.327e-06
  gds      6.182e-06  6.182e-05  2.404e-06  2.404e-05  4.191e-08  1.407e-08
  gmb      4.238e-05  4.238e-04  4.384e-05  4.384e-04  2.268e-06  1.501e-06
  cdtot    1.175e-14  1.175e-13  2.576e-15  2.576e-14  7.534e-15  6.749e-15
  cgtot    1.365e-14  1.365e-13  3.305e-15  3.305e-14  8.017e-14  8.525e-14
  cstot    2.825e-14  2.825e-13  6.092e-15  6.092e-14  9.611e-14  9.563e-14
  cbtot    2.866e-14  2.865e-13  6.084e-15  6.084e-14  4.098e-14  4.836e-14
  cgs      1.047e-14  1.047e-13  2.469e-15  2.469e-14  6.913e-14  6.715e-14
  cgd      1.839e-15  1.839e-14  4.270e-16  4.270e-15  9.242e-16  1.116e-15



 subckt   xtr        xtr        xtr        xtr        xtr       
 element  2:m2       2:m3       2:m4       2:ma1      2:ma2     
 model    0:pch.1    0:nch.1    0:nch.1    0:pch.2    0:nch.2   
 region     Saturati   Saturati   Saturati   Saturati   Saturati
  id      -5.004e-07  5.002e-07  5.004e-07 -1.569e-05  2.570e-05
  ibs      1.022e-19 -8.611e-19 -8.615e-19  3.118e-18 -3.762e-17
  ibd      2.960e-13 -4.644e-15 -4.644e-15  1.754e-13 -6.249e-10
  vgs     -8.331e-01  5.967e-01  5.967e-01 -9.058e-01  6.198e-01
  vds     -2.213e+00  5.967e-01  6.198e-01 -1.500e+00  1.799e+00
  vbs        0.         0.         0.         0.         0.     
  vth     -7.565e-01  5.345e-01  5.345e-01 -7.501e-01  5.666e-01
  vdsat   -1.334e-01  1.076e-01  1.076e-01 -1.996e-01  9.338e-02
  vod     -7.659e-02  6.216e-02  6.217e-02 -1.556e-01  5.324e-02
  beta     7.579e-05  1.171e-04  1.171e-04  9.122e-04  7.780e-03
  gam eff  4.002e-01  4.547e-01  4.547e-01  3.952e-01  4.732e-01
  gm       6.329e-06  7.526e-06  7.529e-06  1.540e-04  4.396e-04
  gds      1.410e-08  1.046e-08  1.034e-08  1.378e-06  2.153e-06
  gmb      1.501e-06  2.237e-06  2.238e-06  3.357e-05  1.277e-04
  cdtot    6.770e-15  4.161e-15  4.146e-15  1.833e-14  3.755e-14
  cgtot    8.528e-14  4.282e-14  4.282e-14  5.210e-14  9.521e-14
  cstot    9.568e-14  4.679e-14  4.679e-14  7.919e-14  1.294e-13
  cbtot    4.838e-14  2.665e-14  2.664e-14  5.474e-14  1.097e-13
  cgs      6.719e-14  3.216e-14  3.216e-14  4.371e-14  6.761e-14
  cgd      1.116e-15  6.333e-16  6.333e-16  2.946e-15  7.167e-15



1****** HSPICE -- B-2008.09-SP1 32-BIT (Nov 24 2008) linux ******               
 ******  
 *current enlargge: use an op and two mos of current mirror

  ******  noise analysis tnom=  25.000 temp=  25.000 *****

     frequency = 1.000e+00      hz




 **** resistor squared noise voltages (sq v/hz)




 element     2:rl
       rs  3.293e-16    
      1/f    0.         
    total  3.293e-16    
       rx  1.999e+04    



 **** mosfet squared noise voltages (sq v/hz)




 element     0:mc0
       rd  3.564e-28    
       rs  5.635e-25    
       id    0.         
       rx  3.255e+02    
       fn  9.390e-16    
    total  9.390e-16    




 element     0:mc1
       rd  1.021e-27    
       rs  2.072e-24    
       id    0.         
       rx  4.679e+02    
       fn  3.492e-15    
    total  3.492e-15    




 element     0:mc2
       rd    0.         
       rs  1.379e-26    
       id  1.260e-23    
       rx  1.900e+01    
       fn  2.528e-17    
    total  2.528e-17    




 element     0:mc3
       rd  2.012e-28    
       rs  1.222e-24    
       id    0.         
       rx  4.869e+02    
       fn  9.164e-16    
    total  9.164e-16    




 element     0:mcx
       rd  3.234e-28    
       rs  5.425e-24    
       id  7.189e-21    
       rx  3.256e+02    
       fn  3.607e-15    
    total  3.607e-15    




 element     0:mcz
       rd    0.         
       rs  6.853e-25    
       id    0.         
       rx  3.257e+02    
       fn  1.869e-16    
    total  1.869e-16    




 element     0:mt
       rd    0.         
       rs    0.         
       id    0.         
       rx    0.         
       fn    0.         
    total    0.         




 element     1:mb
       rd    0.         
       rs  3.121e-24    
       id  1.208e-20    
       rx  2.084e+02    
       fn  3.510e-16    
    total  3.510e-16    




 element     1:m1
       rd  1.771e-24    
       rs  6.734e-19    
       id  2.626e-15    
       rx  1.384e+05    
       fn  7.698e-11    
    total  7.698e-11    




 element     1:m2
       rd  1.771e-24    
       rs  6.734e-19    
       id  2.626e-15    
       rx  1.383e+05    
       fn  7.698e-11    
    total  7.698e-11    




 element     1:m3
       rd  4.220e-25    
       rs  1.065e-18    
       id  3.339e-15    
       rx  1.382e+05    
       fn  5.778e-11    
    total  5.778e-11    




 element     1:m4
       rd  1.688e-24    
       rs  1.072e-18    
       id  3.357e-15    
       rx  1.385e+05    
       fn  5.815e-11    
    total  5.815e-11    




 element     1:me1b
       rd  1.376e-19    
       rs  2.231e-16    
       id  8.371e-14    
       rx  1.994e+05    
       fn  3.754e-07    
    total  3.754e-07    




 element     1:me2b
       rd  1.383e-20    
       rs  2.232e-17    
       id  8.375e-15    
       rx  1.994e+04    
       fn  3.755e-08    
    total  3.755e-08    




 element     1:me1
       rd  5.351e-20    
       rs  4.128e-16    
       id  8.026e-14    
       rx  1.991e+05    
       fn  3.299e-07    
    total  3.299e-07    




 element     1:me2
       rd  5.357e-21    
       rs  4.130e-17    
       id  8.029e-15    
       rx  1.991e+04    
       fn  3.301e-08    
    total  3.301e-08    




 element     2:mb
       rd  1.414e-28    
       rs  1.221e-23    
       id  5.175e-20    
       rx  6.908e+02    
       fn  1.396e-15    
    total  1.396e-15    




 element     2:m1
       rd  7.256e-24    
       rs  1.653e-18    
       id  1.173e-14    
       rx  4.292e+05    
       fn  1.914e-10    
    total  1.914e-10    




 element     2:m2
       rd  7.256e-24    
       rs  1.653e-18    
       id  1.173e-14    
       rx  4.290e+05    
       fn  1.914e-10    
    total  1.914e-10    




 element     2:m3
       rd  6.753e-24    
       rs  2.751e-18    
       id  1.467e-14    
       rx  4.285e+05    
       fn  1.487e-10    
    total  1.487e-10    




 element     2:m4
       rd  1.688e-24    
       rs  2.769e-18    
       id  1.476e-14    
       rx  4.297e+05    
       fn  1.496e-10    
    total  1.497e-10    




 element     2:ma1
       rd    0.         
       rs  1.148e-24    
       id  8.876e-22    
       rx  2.386e+01    
       fn  7.044e-16    
    total  7.044e-16    




 element     2:ma2
       rd    0.         
       rs  2.616e-24    
       id  2.590e-21    
       rx  2.387e+01    
       fn  7.247e-16    
    total  7.247e-16    




 **** total output noise voltage         = 7.768e-07       sq v/hz
                                         = 8.814e-04       v/rt hz
      transfer function value:
        v(tr_out)/iin                    = 1.997e+05      
      equivalent input noise at iin                           
                                         = 4.413e-09       /rt hz



 **** the results of the sqrt of integral (v**2 / freq)
      from fstart upto  1.000e+00      hz. using more freq points
      results in more accurate total noise values.

 **** total output noise voltage   =    0.            volts
 **** total equivalent input noise =    0.           



1****** HSPICE -- B-2008.09-SP1 32-BIT (Nov 24 2008) linux ******               
 ******  
 *current enlargge: use an op and two mos of current mirror

  ******  noise analysis tnom=  25.000 temp=  25.000 *****

     frequency = 1.258e+00      hz




 **** resistor squared noise voltages (sq v/hz)




 element     2:rl
       rs  3.293e-16    
      1/f    0.         
    total  3.293e-16    
       rx  1.999e+04    



 **** mosfet squared noise voltages (sq v/hz)




 element     0:mc0
       rd  3.564e-28    
       rs  5.635e-25    
       id    0.         
