Using: /usr/bin/time -p /usr/cad/synopsys/hspice/cur/hspice/linux/hspice outAmp.sp
 ****** HSPICE -- B-2008.09-SP1 32-BIT (Nov 24 2008) linux ******               
  Copyright (C) 2008 Synopsys, Inc. All Rights Reserved.                        
  Unpublished-rights reserved under US copyright laws.
  This program is protected by law and is subject to the 
  terms and conditions of the license agreement from Synopsys.
  Use of this program is your acceptance to be bound by the 
  license agreement. HSPICE is the trademark of Synopsys, Inc.
  Input File: outAmp.sp                                                         
 lic:  
 lic: FLEXlm: v8.5b 
 lic: USER:   m103061608           HOSTNAME: ws34 
 lic: HOSTID: e41f1366b76c         PID:      14191 
 lic: Using FLEXlm license file: 
 lic: 26585@lscic 
 lic: Checkout 1 hspice 
 lic: License/Maintenance for hspice will expire on 14-may-2016/2015.06 
 lic: FLOATING license(s) on SERVER lscic 
 lic:   
 Init: read install configuration file: /usr/cad/synopsys/hspice/cur/hspice/meta.cfg
 Init: hspice initialization file: /usr/cad/synopsys/hspice/cur/hspice/hspice.ini
 .option runlvl
 .option post acout=0 accurate=1 dcon=1 converge=1 gmindc=1.0000e-12 captab=1 unwrap=1
 + ingold=1

 ***param***
 .param
 +comon		= 0.7963
 +bias       = 2.4
 +bias1		= 1.3
 +bias2		= 0.2
 +supplyp	= 3.3
 +supplyn	= 0
 +diff			= 0
 ***netlist***


 .subckt op_fc vdd vss vinp vinn vop cp cn
 *vcp2 cp2 vss dc = 2.47
 *vcn2 cn2 vss dc = 0.373
 ***input stage***
 mn	1	cn b	 vss	 nch w = 5u   l = 1u  m = 4
 mp	2	vinn b	 vss	 nch w = 5u   l = 1u  m = 4
 mb 	b	cn2	 vss  vss nch w = 10u   l = 0.5u  m = 6
 ***dummy
 *md1 vss vss vss vss pch w = 3u l = 5u m = 2
 *md2 vss vss vss vss pch w = 3u l = 5u m = 2
 *md3 b   b   b   vss nch w = 5u l = 0.5u m = 2
 ***output stage***
 m1  1   cp2 vdd vdd pch w = 3u   l = 1u m = 4
 m2  2   cp2 vdd vdd pch w = 3u   l = 1u m = 4
 m3	von cp	1   1   pch w = 3u   l = 1u  m = 1      * gm*rds = 50 (id = 200n)
 m4	vop	cp	2   2   pch w = 3u   l = 1u  m = 1
 m5  von	cn  5   vss nch w = 3u   l = 1u  m = 1
 m6  vop	cn  6   vss nch w = 3u   l = 1u  m = 1
 m7  5   von vss vss nch w = 3u   l = 1u  m = 1
 m8  6   von vss vss nch w = 3u   l = 1u  m = 1
 mc1 cp2 cp2 vdd vdd pch w = 1u   l = 1u m = 1
 mc2 cp2 cn  cn2 vss nch w = 10u l = 0.4u   m = 3
 mc3 cn2 cn2 vss vss nch w = 10u   l = 0.5u m = 1
 *cc vop vss 10f
 cc2 1 vinn 100f
 *cc3 von vss 200f
 *cc3 vop vss 200f
 .ends




 .subckt cmb_bete5 vdd vss cp cn
 iin cp  vss dc = 1u
 mc0 cp  cp  vdd vdd pch w = 1.5u l = 1u m = 1
 mc1 cn  cp  vdd vdd pch w = 1.5u l = 1u m = 4
 mc2 cn  cn  vss vss nch w = 3.5u  l = 5u m = 1

 mc4 cp2 cp2 vdd vdd pch w = 1u   l = 5u m = 1
 mc5 cp2 cn  cn2 vss nch w = 3.5u l = 1u   m = 3
 mc6 cn2 cn2 vss vss nch w = 2u   l = 1u m = 1
 .ends


 .subckt tr vdd vss vinp vinn vop cz
 mb	b	cz	 vdd vdd pch w = 2u   l = 1u  m = 2
 m1	1	vinp b	 vdd pch w = 2u   l = 1u  m = 1
 m2	2	vinn b	 vdd pch w = 2u   l = 1u  m = 1
 m3	1	1	 vss vss nch w = 2u   l = 1u  m = 1
 m4	2	1	 vss vss nch w = 2u   l = 1u  m = 1
 ma1 vop cz vdd vdd pch   w = 2u l = 1u m = 1
 ma2 vop 2  vss vss nch   w = 2u l = 1u m = 1
 *cc  vop 2 150f
 .ends

 .subckt tra vdd vss vinp vinn 2 cn cn2 cp
 m1	1	vinp b	 vss nch w = 4u   l = 2u  m = 1
 m2	2	vinn b	 vss nch w = 4u   l = 2u  m = 1
 m3	1	1	 vdd vdd pch w = 4u   l = 2u  m = 1
 m4	2	1	 vdd vdd pch w = 4u   l = 2u  m = 1
 mb  b   cn2  vss vss nch w = 4u   l = 2u  m = 7
 *map	vop	2   vdd  vdd pch w = 2u   l = 1u  m = 1
 *man	vop	cn2 vss  vss nch w = 2u    l = 1u  m = 1
 **ma2	3	3	 vss  vss nch w = 2u   l = 1u  m = 4
 *cc  vop xx 100f
 **cc2 yy vop 20f
 **rc2 yy 1 10k
 *mr  xx  rb  2  vdd pch w = 2u l = 1u m = 1
 *mrb1 rb1 rb1 vdd vdd pch w = 2u   l = 1u  m = 1
 *mrb2 rb  rb  rb1 vdd pch w = 2u   l = 1u    m = 1
 *mrb3 rb  cn2 vss vss nch w = 2u   l = 1u  m = 1
 .ends

 .subckt switch vdd vss en in out       *source at in
 mip eo  en  vdd vdd pch w = 2.3u l = 0.35u
 min eo  en  vss vss nch w = 1u l = 0.35u
 msp out eo  in  in  pch w = 2u l = 1u
 msn out en  in  vss  nch w = 1u l = 1u
 .ends
 **************


 xcmb   vdd vss cp cn  cmb_bete5

 *vcn cn vss = 0.797
 *vcp cp vss = 2.39



 *xop_b  vdd vss cn vinn vop cp tr
 *xop_b  vdd vss cn vinn vop cn cn2 cp tra
 xop_fb vdd vss vinp vinn vop cp cn  op_fc


 ***source***
 vd		vdd 	gnd dc supplyp
 vs		vss 	gnd dc supplyn

 ***input***
 vin vi cn dc = 'diff' ac = 1  pulse(0.3 0.31 1ns 1us 1us 148us 300us)
 vip vinp cn dc = 'diff'


 .dc diff -1 1 0.001
 .ac dec 1000 0.1 1g *sweep diff -0.2  0.2 0.1
 .pz v(vop) vin
 .noise v(vop) vin
 *.tran 1us 400us
 .op
 ***sweep***
 .alter


 **warning**  the accurate option increases  the cpu time but the results
                are more accurate.
 ***accurate option sets default value of the options: 
 lvltim= 4         dvdt= 3       relvar= 200.00m absvar= 200.00m
     ft= 200.00m relmos=  10.00m
 (used for FFT control ) fft_accurate= 1
1****** HSPICE -- B-2008.09-SP1 32-BIT (Nov 24 2008) linux ******               
 ******  
 ***outputamplifier

  ******  circuit name directory
 circuit number to circuit name directory
   number circuitname                     definition         multiplier
        0 main circuit
        1 xcmb.                           cmb_bete5          1.00 
        2 xop_fb.                         op_fc              1.00 
 

 
 **warning**  no dc path to ground from node        0:vinn             defined in subckt 0               now it is connected with gdcpath



 **warning** the following singular supplies were terminated to 1 meg resistor 
   supply       node1            node2
  vin                     0:vi               defined in subckt 0                     0:cn               defined in subckt 0               
  vip                     0:vinp             defined in subckt 0                     0:cn               defined in subckt 0               
      
  Opening plot unit= 15
 file=outAmp.pa0                                                               

  *** initial damped pseudo transient completed. ***
  *** final try started ***
1****** HSPICE -- B-2008.09-SP1 32-BIT (Nov 24 2008) linux ******               
 ******  
 ***outputamplifier

  ******  operating point information tnom=  25.000 temp=  25.000 *****
 ***** operating point status is all       simulation time is     0.     
    node    =voltage      node    =voltage      node    =voltage

 +0:cn      =   0.7967  0:cp      =   2.3955  0:vdd     =   3.3000 
 +0:vi      =   0.7967  0:vinn    =   0.      0:vinp    =   0.7967 
 +0:vop     =   3.2477  0:vss     =   0.      1:cn2     =   0.3759 
 +1:cp2     =   2.6011  2:1       =   3.1338  2:2       =   3.2661 
 +2:5       =   0.2156  2:6       =   0.2268  2:b       =   0.2986 
 +2:cn2     =   0.3842  2:cp2     =   2.5920  2:von     =   0.5216 


 maximum nodal capacitance=   6.963E-13         on node     0:vss             

    nodal  capacitance table 

    node    =    cap      node    =    cap      node    =    cap

 +0:cn      = 1.472e-13 0:cp      = 4.553e-14 0:vdd     = 2.411e-13
 +0:vi      =   0.      0:vinn    = 1.345e-13 0:vinp    =   0.     
 +0:vop     = 1.771e-14 0:vss     = 6.963e-13 1:cn2     = 2.117e-14
 +1:cp2     = 2.066e-14 2:1       = 1.589e-13 2:2       = 7.247e-14
 +2:5       = 8.920e-15 2:6       = 8.898e-15 2:b       = 1.349e-13
 +2:cn2     = 1.175e-13 2:cp2     = 6.589e-14 2:von     = 1.651e-14

 

 ****  voltage sources

 subckt                                              
 element  0:vd       0:vs       0:vin      0:vip     
  volts      3.3000     0.         0.         0.     
  current -6.445e-06  6.445e-06    0.         0.     
  power    2.127e-05    0.         0.         0.     

     total voltage source power dissipation=  2.127e-05       watts



 ***** current sources

 subckt   xcmb      
 element  1:iin     
  volts      2.3955 
  current  1.000e-06
  power   -2.396e-06


     total current source power dissipation=-2.396e-06       watts


 **** mosfets


 subckt   xcmb       xcmb       xcmb       xcmb       xcmb       xcmb      
 element  1:mc0      1:mc1      1:mc2      1:mc4      1:mc5      1:mc6     
 model    0:pch.2    0:pch.2    0:nch.1    0:pch.4    0:nch.2    0:nch.2   
 region     Saturati   Saturati   Saturati     Cutoff     Cutoff     Cutoff
  id      -1.000e-06 -4.612e-06  4.612e-06 -6.174e-09  6.157e-09  6.162e-09
  ibs      2.118e-19  9.769e-19 -7.736e-18  1.353e-21 -1.574e-14 -1.151e-20
  ibd      1.610e-16  3.871e-11 -5.247e-15  1.159e-16 -2.698e-12 -3.438e-15
  vgs       -0.9045    -0.9045     0.7967    -0.6989     0.4209     0.3759 
  vds       -0.9045    -2.5033     0.7967    -0.6989     2.2252     0.3759 
  vbs        0.         0.         0.         0.        -0.3759     0.     
  vth       -0.7709    -0.7603     0.5355    -0.7893     0.6589     0.5524 
  vdsat     -0.1795    -0.1881     0.2588  -6.011e-02  4.311e-02  4.221e-02
  vod       -0.1336    -0.1441     0.2612   9.036e-02   -0.2380    -0.1765 
  beta     7.484e-05  2.998e-04  1.363e-04  1.146e-05  2.201e-03  3.980e-04
  gam eff    0.3947     0.3947     0.4573     0.3553     0.4586     0.4612 
  gm       1.056e-05  4.685e-05  3.155e-05  1.008e-07  1.798e-07  1.661e-07
  gds      1.076e-07  3.645e-07  4.928e-08  2.857e-10  8.601e-10  9.343e-10
  gmb      2.295e-06  1.016e-05  9.246e-06  2.471e-08  4.727e-08  5.074e-08
  cdtot    2.444e-15  7.463e-15  4.630e-15  1.932e-15  1.196e-14  3.069e-15
  cgtot    5.271e-15  2.109e-14  6.111e-14  6.763e-15  1.479e-14  3.279e-15
  cstot    8.097e-15  3.239e-14  7.412e-14  2.451e-15  1.483e-14  3.345e-15
  cbtot    6.878e-15  2.520e-14  3.130e-14  1.038e-14  3.274e-14  7.985e-15
  cgs      4.109e-15  1.644e-14  5.240e-14  1.922e-16  2.209e-15  4.270e-16
  cgd      2.837e-16  1.135e-15  7.365e-16  1.922e-16  2.209e-15  4.270e-16



 subckt   xop_fb     xop_fb     xop_fb     xop_fb     xop_fb     xop_fb    
 element  2:mn       2:mp       2:mb       2:m1       2:m2       2:m3      
 model    0:nch.2    0:nch.2    0:nch.3    0:pch.2    0:pch.2    0:pch.2   
 region       Cutoff     Cutoff     Cutoff     Cutoff     Cutoff     Cutoff
  id       1.848e-07  9.649e-18  1.849e-07 -4.888e-07 -3.059e-07 -3.031e-07
  ibs     -2.822e-14 -2.822e-14 -2.783e-19  9.980e-20  6.246e-20  6.188e-20
  ibd     -8.074e-10 -2.822e-14 -7.849e-14  1.182e-15  8.677e-16  5.314e-12
  vgs        0.4981    -0.2986     0.3842    -0.7080    -0.7080    -0.7382 
  vds        2.8352     2.9675     0.2986    -0.1662  -3.393e-02   -2.6121 
  vbs       -0.2986    -0.2986     0.         0.         0.         0.     
  vth        0.6412     0.6409     0.5734    -0.7656    -0.7665    -0.7493 
  vdsat    4.416e-02  4.289e-02  4.331e-02 -6.858e-02 -6.832e-02 -8.538e-02
  vod       -0.1430    -0.9395    -0.1892   5.760e-02  5.848e-02  1.106e-02
  beta     4.305e-03  4.306e-03  2.713e-02  6.624e-04  6.623e-04  1.659e-04
  gam eff    0.4627     0.4627     0.5301     0.3950     0.3950     0.3950 
  gm       4.949e-06  2.902e-16  5.019e-06  8.952e-06  4.945e-06  5.150e-06
  gds      2.933e-08  1.703e-18  6.886e-08  1.715e-07  6.037e-06  3.788e-08
  gmb      1.309e-06  9.679e-17  1.535e-06  2.022e-06  1.125e-06  1.155e-06
  cdtot    2.137e-14  2.124e-14  7.956e-14  2.129e-14  2.248e-14  3.217e-15
  cgtot    2.748e-14  3.452e-14  5.600e-14  1.542e-14  1.542e-14  3.825e-15
  cstot    2.768e-14  2.768e-14  8.567e-14  2.282e-14  2.282e-14  5.705e-15
  cbtot    5.979e-14  6.670e-14  1.714e-13  5.060e-14  5.179e-14  1.051e-14
  cgs      4.184e-15  4.184e-15  1.246e-14  2.233e-15  2.233e-15  5.582e-16
  cgd      4.184e-15  4.184e-15  1.246e-14  2.233e-15  2.233e-15  5.582e-16



 subckt   xop_fb     xop_fb     xop_fb     xop_fb     xop_fb     xop_fb    
 element  2:m4       2:m5       2:m6       2:m7       2:m8       2:mc1     
 model    0:pch.2    0:nch.2    0:nch.2    0:nch.2    0:nch.2    0:pch.5   
 region       Linear     Cutoff     Cutoff     Cutoff     Cutoff     Cutoff
  id      -3.059e-07  3.031e-07  3.037e-07  3.031e-07  3.037e-07 -3.182e-08
  ibs      6.245e-20 -4.643e-15 -4.643e-15 -5.218e-19 -5.229e-19  6.971e-21
  ibd      1.513e-16 -4.644e-15 -2.171e-09 -4.643e-15 -4.643e-15  1.159e-16
  vgs       -0.8705     0.5812     0.5700     0.5216     0.5216    -0.7080 
  vds     -1.839e-02    0.3061     3.0209     0.2156     0.2268    -0.7080 
  vbs        0.        -0.2156    -0.2268     0.         0.         0.     
  vth       -0.7666     0.6196     0.6168     0.5591     0.5591    -0.7789 
  vdsat     -0.1569   5.630e-02  5.432e-02  5.550e-02  5.551e-02 -6.548e-02
  vod       -0.1040  -3.843e-02 -4.682e-02 -3.750e-02 -3.748e-02  7.093e-02
  beta     1.634e-04  6.224e-04  6.229e-04  6.272e-04  6.272e-04  4.894e-05
  gam eff    0.3950     0.4606     0.4604     0.4656     0.4656     0.3889 
  gm       2.335e-06  6.976e-06  6.951e-06  6.898e-06  6.912e-06  5.716e-07
  gds      1.558e-05  4.436e-08  4.647e-08  5.753e-08  5.487e-08  4.730e-09
  gmb      5.252e-07  1.857e-06  1.851e-06  2.024e-06  2.028e-06  1.292e-07
  cdtot    1.433e-14  4.210e-15  3.376e-15  4.460e-15  4.449e-15  1.928e-15
  cgtot    1.290e-14  4.285e-15  4.285e-15  4.542e-15  4.542e-15  1.599e-15
  cstot    1.539e-14  4.460e-15  4.449e-15  4.712e-15  4.712e-15  2.451e-15
  cbtot    1.335e-14  1.042e-14  9.576e-15  1.118e-14  1.117e-14  5.209e-15
  cgs      6.506e-15  6.333e-16  6.333e-16  6.333e-16  6.333e-16  1.922e-16
  cgd      5.687e-15  6.333e-16  6.333e-16  6.333e-16  6.333e-16  1.922e-16



 subckt   xop_fb     xop_fb    
 element  2:mc2      2:mc3     
 model    0:nch.3    0:nch.3   
 region       Cutoff     Cutoff
  id       3.177e-08  3.178e-08
  ibs     -3.925e-14 -4.783e-20
  ibd     -3.442e-11 -1.308e-14
  vgs        0.4125     0.3842 
  vds        2.2078     0.3842 
  vbs       -0.3842     0.     
  vth        0.6536     0.5730 
  vdsat    4.408e-02  4.331e-02
  vod       -0.2411    -0.1888 
  beta     1.718e-02  4.522e-03
  gam eff    0.5686     0.5301 
  gm       9.296e-07  8.625e-07
  gds      1.353e-08  1.118e-08
  gmb      2.235e-07  2.637e-07
  cdtot    3.152e-14  1.304e-14
  cgtot    2.317e-14  9.333e-15
  cstot    3.912e-14  1.428e-14
  cbtot    6.888e-14  2.834e-14
  cgs      6.232e-15  2.077e-15
  cgd      6.232e-15  2.077e-15



 ***************************************************
   ******   pole/zero analysis  
 **warning** underflow 1 time(s) in pole/zero analysis
 **warning** underflow 1 time(s) in pole/zero analysis
 **warning** underflow 1 time(s) in pole/zero analysis
 **warning** underflow 1 time(s) in pole/zero analysis
 **warning** underflow 1 time(s) in pole/zero analysis
 **warning** underflow 1 time(s) in pole/zero analysis
 **warning** underflow 1 time(s) in pole/zero analysis
 **warning** underflow 1 time(s) in pole/zero analysis
 **warning** underflow 2 time(s) in pole/zero analysis
 **warning** underflow 1 time(s) in pole/zero analysis
 **warning** underflow 1 time(s) in pole/zero analysis
 **warning** underflow 1 time(s) in pole/zero analysis
 **warning** underflow 1 time(s) in pole/zero analysis
 **warning** underflow 1 time(s) in pole/zero analysis
 **warning** underflow 1 time(s) in pole/zero analysis
 **warning** underflow 1 time(s) in pole/zero analysis
 **warning** underflow 1 time(s) in pole/zero analysis
 **warning** underflow 1 time(s) in pole/zero analysis
 **warning** underflow 1 time(s) in pole/zero analysis
 **warning** underflow 1 time(s) in pole/zero analysis
 **warning** underflow 1 time(s) in pole/zero analysis
 **warning** underflow 1 time(s) in pole/zero analysis
 **warning** underflow 1 time(s) in pole/zero analysis
 **warning** underflow 1 time(s) in pole/zero analysis
 **warning** underflow 1 time(s) in pole/zero analysis
 **warning** underflow 1 time(s) in pole/zero analysis
 **warning** underflow 1 time(s) in pole/zero analysis
 **warning** underflow 1 time(s) in pole/zero analysis
 **warning** underflow 1 time(s) in pole/zero analysis
 **warning** underflow 1 time(s) in pole/zero analysis
 **warning** underflow 1 time(s) in pole/zero analysis
 **warning** underflow 1 time(s) in pole/zero analysis
 **warning** underflow 1 time(s) in pole/zero analysis
 **warning** underflow 1 time(s) in pole/zero analysis
 **warning** underflow 1 time(s) in pole/zero analysis
 **warning** underflow 1 time(s) in pole/zero analysis
 **warning** underflow 1 time(s) in pole/zero analysis
 **warning** underflow 1 time(s) in pole/zero analysis
 **warning** underflow 1 time(s) in pole/zero analysis
 **warning** underflow 1 time(s) in pole/zero analysis
 **warning** underflow 1 time(s) in pole/zero analysis
 **warning** underflow 1 time(s) in pole/zero analysis
 **warning** underflow 1 time(s) in pole/zero analysis
 **warning** underflow 1 time(s) in pole/zero analysis
 **warning** underflow 1 time(s) in pole/zero analysis
 **warning** underflow 1 time(s) in pole/zero analysis
 **warning** underflow 1 time(s) in pole/zero analysis
 **warning** underflow 1 time(s) in pole/zero analysis
 **warning** underflow 1 time(s) in pole/zero analysis
 **warning** underflow 1 time(s) in pole/zero analysis
 **warning** underflow 1 time(s) in pole/zero analysis
 **warning** underflow 1 time(s) in pole/zero analysis
 **warning** underflow 1 time(s) in pole/zero analysis
 **warning** underflow 1 time(s) in pole/zero analysis
 **warning** underflow 1 time(s) in pole/zero analysis
 **warning** underflow 1 time(s) in pole/zero analysis
 **warning** underflow 1 time(s) in pole/zero analysis
 **warning** underflow 1 time(s) in pole/zero analysis
 **warning** underflow 1 time(s) in pole/zero analysis
 **warning** underflow 1 time(s) in pole/zero analysis
 **warning** underflow 1 time(s) in pole/zero analysis
 **warning** underflow 1 time(s) in pole/zero analysis
 **warning** underflow 1 time(s) in pole/zero analysis
 **warning** underflow 1 time(s) in pole/zero analysis
 **warning** underflow 1 time(s) in pole/zero analysis
 **warning** underflow 1 time(s) in pole/zero analysis
 **warning** underflow 1 time(s) in pole/zero analysis
 **warning** underflow 1 time(s) in pole/zero analysis
 **warning** underflow 1 time(s) in pole/zero analysis
 **warning** underflow 1 time(s) in pole/zero analysis
 **warning** underflow 1 time(s) in pole/zero analysis
 **warning** underflow 1 time(s) in pole/zero analysis
 **warning** underflow 1 time(s) in pole/zero analysis
 **warning** underflow 1 time(s) in pole/zero analysis
 **warning** underflow 1 time(s) in pole/zero analysis
 **warning** underflow 1 time(s) in pole/zero analysis
 **warning** underflow 1 time(s) in pole/zero analysis
 **warning** underflow 1 time(s) in pole/zero analysis
 **warning** underflow 1 time(s) in pole/zero analysis
 **warning** underflow 1 time(s) in pole/zero analysis
 **warning** underflow 1 time(s) in pole/zero analysis
 **warning** underflow 1 time(s) in pole/zero analysis
 **warning** underflow 1 time(s) in pole/zero analysis
 **warning** underflow 1 time(s) in pole/zero analysis
 **warning** underflow 1 time(s) in pole/zero analysis
 **warning** underflow 1 time(s) in pole/zero analysis
 **warning** underflow 1 time(s) in pole/zero analysis
 **warning** underflow 1 time(s) in pole/zero analysis
 **warning** underflow 1 time(s) in pole/zero analysis
 **warning** underflow 1 time(s) in pole/zero analysis
 **warning** underflow 1 time(s) in pole/zero analysis
 **warning** underflow 1 time(s) in pole/zero analysis
 **warning** underflow 1 time(s) in pole/zero analysis
 **warning** underflow 1 time(s) in pole/zero analysis
 **warning** underflow 1 time(s) in pole/zero analysis
 **warning** underflow 1 time(s) in pole/zero analysis
 **warning** underflow 1 time(s) in pole/zero analysis
 **warning** underflow 1 time(s) in pole/zero analysis
 **warning** underflow 1 time(s) in pole/zero analysis
 **warning** underflow 1 time(s) in pole/zero analysis
 **warning** underflow 1 time(s) in pole/zero analysis
 **warning** underflow 1 time(s) in pole/zero analysis
 **warning** underflow 1 time(s) in pole/zero analysis
