Using: /usr/bin/time -p /usr/cad/synopsys/hspice/cur/hspice/linux/hspice outAmp.sp
 ****** HSPICE -- B-2008.09-SP1 32-BIT (Nov 24 2008) linux ******
  Copyright (C) 2008 Synopsys, Inc. All Rights Reserved.
  Unpublished-rights reserved under US copyright laws.
  This program is protected by law and is subject to the
  terms and conditions of the license agreement from Synopsys.
  Use of this program is your acceptance to be bound by the
  license agreement. HSPICE is the trademark of Synopsys, Inc.
  Input File: outAmp.sp
 lic:
 lic: FLEXlm: v8.5b
 lic: USER:   m103061608           HOSTNAME: ws45
 lic: HOSTID: e41f13edf052         PID:      29721
 lic: Using FLEXlm license file:
 lic: 26585@lsnctu
 lic: Checkout 1 hspice
 lic: License/Maintenance for hspice will expire on 14-may-2016/2015.06 
 lic: FLOATING license(s) on SERVER lsnctu
 lic:
 Init: read install configuration file: /usr/cad/synopsys/hspice/cur/hspice/meta.cfg
 Init: hspice initialization file: /usr/cad/synopsys/hspice/cur/hspice/hspice.ini
 .option runlvl
 .option post acout=0 accurate=1 dcon=1 converge=1 gmindc=1.0000e-12 captab=1 unwrap=1
 + ingold=1

 ***param***
 .param
 +comon		= 0.7963
 +bias       = 2.4
 +bias1		= 1.3
 +bias2		= 0.2
 +supplyp	= 3.3
 +supplyn	= 0
 +diff			= 0
 ***netlist***


 .subckt op_fc vdd vss vinp vinn vop cp cn cn2
 ***input stage***
 mn	1	vinp b	 vss	 nch w = 3u   l = 5u  m = 2
 mp	2	vinn b	 vss	 nch w = 3u   l = 5u  m = 2
 mb 	b	cn2	 vss  vss nch w = 10u   l = 0.5u  m = 6
 ***output stage***
 m1  1   cp2 vdd vdd pch w = 3u   l = 5u m = 4
 m2  2   cp2 vdd vdd pch w = 3u   l = 5u m = 4
 m3	von cp	1   1   pch w = 2u   l = 1u  m = 1      * gm*rds = 50 (id = 200n)
 m4	vop	cp	2   2   pch w = 2u   l = 1u  m = 1
 m5  von	cn  5   vss nch w = 2u   l = 1u  m = 1
 m6  vop	cn  6   vss nch w = 1u   l = 1u  m = 1
 m7  5   von vss vss nch w = 3u   l = 5u  m = 1
 m8  6   von vss vss nch w = 3u   l = 5u  m = 1
 mc1 cp2 cp2 vdd vdd pch w = 1u   l = 5u m = 1
 mc2 cp2 cn  cn2 vss nch w = 3.5u l = 1u   m = 3
 mc3 cn2 cn2 vss vss nch w = 10u   l = 0.5u m = 1
 cc vop vss 10f
 cc2 1 vss 300f
 *cc3 von vss 200f
 *cc3 2 vss
 .ends




 .subckt cmb_bete5 vdd vss cp cn cn2 cp2
 iin cp  vss dc = 1u
 mc0 cp  cp  vdd vdd pch w = 1.5u l = 1u m = 1
 mc1 cn  cp  vdd vdd pch w = 1.5u l = 1u m = 4
 mc2 cn  cn  vss vss nch w = 3.5u  l = 5u m = 1

 mc4 cp2 cp2 vdd vdd pch w = 1u   l = 5u m = 1
 mc5 cp2 cn  cn2 vss nch w = 3.5u l = 1u   m = 3
 mc6 cn2 cn2 vss vss nch w = 2u   l = 1u m = 1
 .ends


 .subckt tr vdd vss vinp vinn vop cz
 mb	b	cz	 vdd vdd pch w = 2u   l = 1u  m = 2
 m1	1	vinp b	 vdd pch w = 2u   l = 1u  m = 1
 m2	2	vinn b	 vdd pch w = 2u   l = 1u  m = 1
 m3	1	1	 vss vss nch w = 2u   l = 1u  m = 1
 m4	2	1	 vss vss nch w = 2u   l = 1u  m = 1
 ma1 vop cz vdd vdd pch   w = 2u l = 1u m = 1
 ma2 vop 2  vss vss nch   w = 2u l = 1u m = 1
 *cc  vop 2 150f
 .ends

 .subckt tra vdd vss vinp vinn 2 cn cn2 cp
 m1	1	vinp b	 vss nch w = 4u   l = 2u  m = 1
 m2	2	vinn b	 vss nch w = 4u   l = 2u  m = 1
 m3	1	1	 vdd vdd pch w = 4u   l = 2u  m = 1
 m4	2	1	 vdd vdd pch w = 4u   l = 2u  m = 1
 mb  b   cn2  vss vss nch w = 4u   l = 2u  m = 7
 *map	vop	2   vdd  vdd pch w = 2u   l = 1u  m = 1
 *man	vop	cn2 vss  vss nch w = 2u    l = 1u  m = 1
 **ma2	3	3	 vss  vss nch w = 2u   l = 1u  m = 4
 *cc  vop xx 100f
 **cc2 yy vop 20f
 **rc2 yy 1 10k
 *mr  xx  rb  2  vdd pch w = 2u l = 1u m = 1
 *mrb1 rb1 rb1 vdd vdd pch w = 2u   l = 1u  m = 1
 *mrb2 rb  rb  rb1 vdd pch w = 2u   l = 1u    m = 1
 *mrb3 rb  cn2 vss vss nch w = 2u   l = 1u  m = 1
 .ends
 **************





 xcmb   vdd vss cp cn cn2 cp2 cmb_bete5



 *xop_b  vdd vss cn vinn vop cp tr
 *xop_b  vdd vss cn vinn vop cn cn2 cp tra
 xop_fb vdd vss cn vinn vop cp cn cn2 op_fc



 ***source***
 vd		vdd 	gnd dc supplyp
 vs		vss 	gnd dc supplyn

 ***input***
 vin vi cn dc = 'diff' ac = 1  pulse(0.3 0.31 1ns 1us 1us 48us 100us)



 .dc diff -1 1 0.001
 .ac dec 1000 0.1 1g
 .pz v(vop) vin
 .probe dc i(mr2) i(mr1)
 .tran 1us 200us
 .op
 ***sweep***
 .alter

 ***********************************************************************
 ** runlvl is invoked, you can disable it by:
      a) Add option runlvl=0 to your current simulation job.
      b) Copy $installdir/hspice.ini to your HOME directory and
         customize it by adding option runlvl=0, which disables
         it for all of your simulation jobs.
      c) Re-invoke $installdir/bin/config program and unselect the
         option runlvl setting in box 'hspice.ini' which disables
         it for whole group simulation jobs.

 ** runlvl is invoked, some options are ignored or automatically set:
      Options below are automatically set(user setting will overwrite them):
      if runlvl=[1|2|3|4|5|6],  .option bypass=2

      Options below are ignored, they are replaced by automated algorithms:
        lvltim    dvdt      ft    fast   trtol  absvar  relvar
          relq  chgtol    dvtr    imin    itl3    rmax

 ** runlvl is invoked, actual option value used by HSPICE are:
       runlvl= 5       bypass= 2      mbypass=   2.00   bytol= 100.00u
 ***********************************************************************

1****** HSPICE -- B-2008.09-SP1 32-BIT (Nov 24 2008) linux ******
 ******
 ***outputamplifier

  ******  circuit name directory
 circuit number to circuit name directory
   number circuitname                     definition         multiplier
        0 main circuit
        1 xcmb.                           cmb_bete5          1.00
        2 xop_fb.                         op_fc              1.00


 **warning** could not find branch element     0:mr2
      branch - output ignored
 **warning** could not find branch element     0:mr1
      branch - output ignored


 **warning** the following singular supplies were terminated to 1 meg resistor
   supply       node1            node2
  vin                     0:vi               defined in subckt 0                     0:cn               defined in subckt 0

  Opening plot unit= 15
 file=outAmp.pa0

  *** initial damped pseudo transient completed. ***
  *** final try started ***
1****** HSPICE -- B-2008.09-SP1 32-BIT (Nov 24 2008) linux ******
 ******
 ***outputamplifier

  ******  operating point information tnom=  25.000 temp=  25.000 *****
 ***** operating point status is all       simulation time is     0.
    node    =voltage      node    =voltage      node    =voltage

 +0:cn      =   0.6851  0:cn2     =   0.3119  0:cp      =   2.5098
 +0:cp2     =   2.5847  0:vdd     =   3.3000  0:vi      =   0.6851
 +0:vinn    =   0.      0:vop     =   3.2279  0:vss     =   0.
 +2:1       =   3.1825  2:2       =   3.2656  2:5       =   0.1912
 +2:6       =   0.1869  2:b       =   0.1977  2:cp2     =   2.5847
 +2:von     =   0.4721


 maximum nodal capacitance=   1.014E-12         on node     0:vss

    nodal  capacitance table

    node    =    cap      node    =    cap      node    =    cap

 +0:cn      = 1.497e-13 0:cn2     = 1.073e-13 0:cp      = 4.090e-14
 +0:cp2     = 2.537e-14 0:vdd     = 6.888e-13 0:vi      =   0.
 +0:vinn    = 4.539e-14 0:vop     = 1.965e-14 0:vss     = 1.014e-12
 +2:1       = 3.373e-13 2:2       = 1.341e-13 2:5       = 7.044e-15
 +2:6       = 6.636e-15 2:b       = 9.253e-14 2:cp2     = 4.028e-13
 +2:von     = 8.307e-14



 ****  voltage sources

 subckt
 element  0:vd       0:vs       0:vin
  volts      3.3000     0.         0.
  current -6.925e-06  6.925e-06    0.
  power    2.285e-05    0.         0.

     total voltage source power dissipation=  2.285e-05       watts



 ***** current sources

 subckt   xcmb
 element  1:iin
  volts      2.5098
  current  1.000e-06
  power   -2.510e-06


     total current source power dissipation=-2.510e-06       watts


 **** mosfets


 subckt   xcmb       xcmb       xcmb       xcmb       xcmb       xcmb
 element  1:mc0      1:mc1      1:mc2      1:mc4      1:mc5      1:mc6
 model    0:pch.2    0:pch.2    0:nch.1    0:pch.4    0:nch.2    0:nch.2
 region     Saturati   Saturati   Saturati   Saturati     Cutoff     Cutoff
  id      -1.000e-06 -4.708e-06  4.708e-06 -4.265e-08  4.261e-08  1.569e-08
  ibs      2.113e-19  9.945e-19 -7.877e-18  9.295e-21 -1.596e-14 -2.911e-20
  ibd      1.663e-16  6.425e-11 -5.319e-15  1.213e-16 -2.419e-11 -3.511e-15
  vgs       -0.7902    -0.7902     0.6851    -0.7153     0.3733     0.3119
  vds       -0.7902    -2.6149     0.6851    -0.7153     2.2728     0.3119
  vbs        0.         0.         0.         0.        -0.3119     0.
  vth       -0.6709    -0.6596     0.4358    -0.6888     0.5440     0.4544
  vdsat     -0.1680    -0.1770     0.2492    -0.1005   4.359e-02  4.310e-02
  vod       -0.1194    -0.1306     0.2493  -2.650e-02   -0.1707    -0.1425
  beta     8.804e-05  3.528e-04  1.514e-04  1.315e-05  2.526e-03  4.629e-04
  gam eff    0.3966     0.3966     0.4576     0.3588     0.4625     0.4648
  gm       1.122e-05  5.067e-05  3.356e-05  6.137e-07  1.200e-06  4.171e-07
  gds      1.135e-07  3.657e-07  5.836e-08  1.911e-09  6.212e-09  2.578e-09
  gmb      2.447e-06  1.103e-05  9.846e-06  1.432e-07  3.181e-07  1.262e-07
  cdtot    2.329e-15  6.824e-15  4.294e-15  1.800e-15  1.094e-14  2.864e-15
  cgtot    5.431e-15  2.172e-14  6.570e-14  1.263e-14  1.492e-14  3.320e-15
  cstot    8.036e-15  3.214e-14  7.909e-14  1.053e-14  1.371e-14  3.085e-15
  cbtot    6.655e-15  2.413e-14  3.245e-14  1.087e-14  3.148e-14  7.687e-15
  cgs      4.228e-15  1.691e-14  5.641e-14  6.736e-15  2.022e-15  3.955e-16
  cgd      2.652e-16  1.061e-15  6.740e-16  1.828e-16  2.022e-15  3.955e-16



 subckt   xop_fb     xop_fb     xop_fb     xop_fb     xop_fb     xop_fb
 element  2:mn       2:mp       2:mb       2:m1       2:m2       2:m3
 model    0:nch.1    0:nch.1    0:nch.3    0:pch.1    0:pch.1    0:pch.2
 region       Cutoff     Cutoff     Cutoff   Saturati     Linear   Saturati
  id       3.971e-07  1.957e-15  3.971e-07 -7.634e-07 -3.683e-07 -3.658e-07
  ibs     -9.428e-15 -9.428e-15 -5.975e-19  1.557e-19  7.514e-20  7.601e-20
  ibd     -4.563e-10 -9.435e-15 -7.889e-14  1.193e-15  8.895e-16  8.709e-12
  vgs        0.4874    -0.1977     0.3119    -0.7153    -0.7153    -0.6728
  vds        2.9848     3.0678     0.1977    -0.1175  -3.442e-02   -2.7104
  vbs       -0.1977    -0.1977     0.         0.         0.         0.
  vth        0.4895     0.4894     0.4737    -0.6600    -0.6602    -0.6538
  vdsat    7.486e-02  4.314e-02  4.346e-02   -0.1190    -0.1189  -9.960e-02
  vod     -2.092e-03   -0.6872    -0.1618  -5.525e-02 -5.510e-02 -1.899e-02
  beta     2.598e-04  2.604e-04  3.229e-02  1.697e-04  1.697e-04  1.228e-04
  gam eff    0.4494     0.4494     0.5420     0.4006     0.4006     0.3959
  gm       7.455e-06  5.962e-14  1.086e-05  9.716e-06  3.617e-06  5.818e-06
  gds      6.097e-08  3.878e-16  1.913e-07  1.582e-06  8.799e-06  4.108e-08
  gmb      2.042e-06  1.942e-14  3.251e-06  2.326e-06  8.814e-07  1.294e-06
  cdtot    6.199e-15  6.176e-15  7.361e-14  1.987e-14  1.090e-13  2.095e-15
  cgtot    3.770e-14  4.539e-14  5.292e-14  1.687e-13  2.088e-13  2.891e-15
  cstot    1.071e-14  8.200e-15  7.755e-14  1.799e-13  1.816e-13  4.011e-15
  cbtot    4.601e-14  5.511e-14  1.589e-13  1.058e-13  1.077e-13  7.199e-15
  cgs      3.098e-15  1.162e-15  1.129e-14  1.267e-13  1.237e-13  5.472e-16
  cgd      1.162e-15  1.162e-15  1.129e-14  2.049e-15  5.410e-14  3.475e-16



 subckt   xop_fb     xop_fb     xop_fb     xop_fb     xop_fb     xop_fb
 element  2:m4       2:m5       2:m6       2:m7       2:m8       2:mc1
 model    0:pch.2    0:nch.2    0:nch.5    0:nch.1    0:nch.1    0:pch.4
 region       Linear     Cutoff   Saturati   Saturati   Saturati   Saturati
  id      -3.683e-07  3.658e-07  3.656e-07  3.658e-07  3.656e-07 -4.265e-08
  ibs      7.653e-20 -3.509e-15 -2.304e-15 -6.276e-19 -6.272e-19  9.295e-21
  ibd      1.625e-16 -3.511e-15 -2.726e-09 -4.713e-15 -4.713e-15  1.213e-16
  vgs       -0.7558     0.4940     0.4982     0.4721     0.4721    -0.7153
  vds     -3.767e-02    0.2810     3.0410     0.1912     0.1869    -0.7153
  vbs        0.        -0.1912    -0.1869     0.         0.         0.
  vth       -0.6707     0.5087     0.4868     0.4351     0.4351    -0.6888
  vdsat     -0.1420   6.279e-02  7.374e-02  9.266e-02  9.266e-02   -0.1005
  vod     -8.506e-02 -1.472e-02  1.142e-02  3.707e-02  3.707e-02 -2.650e-02
  beta     1.215e-04  4.594e-04  2.128e-04  1.304e-04  1.304e-04  1.315e-05
  gam eff    0.3959     0.4602     0.4501     0.4550     0.4550     0.3588
  gm       3.272e-06  8.133e-06  7.200e-06  6.081e-06  6.075e-06  6.137e-07
  gds      8.245e-06  5.513e-08  5.049e-08  5.363e-08  5.827e-08  1.911e-09
  gmb      7.334e-07  2.184e-06  1.936e-06  1.812e-06  1.811e-06  1.432e-07
  cdtot    8.300e-15  2.782e-15  1.346e-15  4.106e-15  4.110e-15  1.800e-15
  cgtot    8.529e-15  3.055e-15  2.247e-15  3.910e-14  3.910e-14  1.263e-14
  cstot    9.936e-15  2.937e-15  2.526e-15  3.790e-14  3.790e-14  1.053e-14
  cbtot    9.062e-15  7.193e-15  4.092e-15  2.724e-14  2.725e-14  1.087e-14
  cgs      4.686e-15  3.955e-16  7.915e-16  2.573e-14  2.573e-14  6.736e-15
  cgd      3.070e-15  3.955e-16  2.098e-16  5.811e-16  5.811e-16  1.828e-16



 subckt   xop_fb     xop_fb
 element  2:mc2      2:mc3
 model    0:nch.2    0:nch.3
 region       Cutoff     Cutoff
  id       4.261e-08  6.955e-08
  ibs     -1.596e-14 -1.046e-19
  ibd     -2.419e-11 -1.315e-14
  vgs        0.3733     0.3119
  vds        2.2728     0.3119
  vbs       -0.3119     0.
  vth        0.5440     0.4730
  vdsat    4.359e-02  4.347e-02
  vod       -0.1707    -0.1611
  beta     2.526e-03  5.383e-03
  gam eff    0.4625     0.5420
  gm       1.200e-06  1.902e-06
  gds      6.212e-09  2.820e-08
  gmb      3.181e-07  5.683e-07
  cdtot    1.094e-14  1.197e-14
  cgtot    1.492e-14  8.820e-15
  cstot    1.371e-14  1.292e-14
  cbtot    3.148e-14  2.619e-14
  cgs      2.022e-15  1.881e-15
  cgd      2.022e-15  1.881e-15



 ***************************************************
   ******   pole/zero analysis
 **warning** underflow 1 time(s) in pole/zero analysis
 **warning** underflow 1 time(s) in pole/zero analysis
 **warning** underflow 1 time(s) in pole/zero analysis
 **warning** underflow 1 time(s) in pole/zero analysis
 **warning** underflow 1 time(s) in pole/zero analysis
 **warning** underflow 1 time(s) in pole/zero analysis
 **warning** underflow 1 time(s) in pole/zero analysis
 **warning** underflow 1 time(s) in pole/zero analysis
 **warning** underflow 2 time(s) in pole/zero analysis
 **warning** underflow 1 time(s) in pole/zero analysis
 **warning** underflow 1 time(s) in pole/zero analysis
 **warning** underflow 1 time(s) in pole/zero analysis
 **warning** underflow 1 time(s) in pole/zero analysis
 **warning** underflow 1 time(s) in pole/zero analysis
 **warning** underflow 1 time(s) in pole/zero analysis
 **warning** underflow 1 time(s) in pole/zero analysis
 **warning** underflow 1 time(s) in pole/zero analysis
 **warning** underflow 1 time(s) in pole/zero analysis
 **warning** underflow 1 time(s) in pole/zero analysis
 **warning** underflow 1 time(s) in pole/zero analysis
 **warning** underflow 1 time(s) in pole/zero analysis
 **warning** underflow 1 time(s) in pole/zero analysis
 **warning** underflow 1 time(s) in pole/zero analysis
 **warning** underflow 1 time(s) in pole/zero analysis
 **warning** underflow 1 time(s) in pole/zero analysis
 **warning** underflow 1 time(s) in pole/zero analysis
 **warning** underflow 1 time(s) in pole/zero analysis
 **warning** underflow 1 time(s) in pole/zero analysis
 **warning** underflow 1 time(s) in pole/zero analysis
 **warning** underflow 1 time(s) in pole/zero analysis
 **warning** underflow 1 time(s) in pole/zero analysis
 **warning** underflow 1 time(s) in pole/zero analysis
 **warning** underflow 1 time(s) in pole/zero analysis
 **warning** underflow 1 time(s) in pole/zero analysis
 **warning** underflow 1 time(s) in pole/zero analysis
 **warning** underflow 1 time(s) in pole/zero analysis
 **warning** underflow 1 time(s) in pole/zero analysis
 **warning** underflow 1 time(s) in pole/zero analysis
 **warning** underflow 1 time(s) in pole/zero analysis
 **warning** underflow 1 time(s) in pole/zero analysis
 **warning** underflow 1 time(s) in pole/zero analysis
 **warning** underflow 1 time(s) in pole/zero analysis
 **warning** underflow 1 time(s) in pole/zero analysis
 **warning** underflow 1 time(s) in pole/zero analysis
 **warning** underflow 1 time(s) in pole/zero analysis
 **warning** underflow 1 time(s) in pole/zero analysis
 **warning** underflow 1 time(s) in pole/zero analysis
 **warning** underflow 1 time(s) in pole/zero analysis
 **warning** underflow 1 time(s) in pole/zero analysis
 **warning** underflow 1 time(s) in pole/zero analysis
 **warning** underflow 1 time(s) in pole/zero analysis
 **warning** underflow 1 time(s) in pole/zero analysis
 **warning** underflow 1 time(s) in pole/zero analysis
 **warning** underflow 1 time(s) in pole/zero analysis
 **warning** underflow 1 time(s) in pole/zero analysis
 **warning** underflow 1 time(s) in pole/zero analysis
 **warning** underflow 1 time(s) in pole/zero analysis
 **warning** underflow 1 time(s) in pole/zero analysis
 **warning** underflow 1 time(s) in pole/zero analysis
 **warning** underflow 1 time(s) in pole/zero analysis
 **warning** underflow 1 time(s) in pole/zero analysis
 **warning** underflow 1 time(s) in pole/zero analysis
 **warning** underflow 1 time(s) in pole/zero analysis
 **warning** underflow 1 time(s) in pole/zero analysis
 **warning** underflow 1 time(s) in pole/zero analysis
 **warning** underflow 1 time(s) in pole/zero analysis
 **warning** underflow 1 time(s) in pole/zero analysis
 **warning** underflow 1 time(s) in pole/zero analysis
 **warning** underflow 1 time(s) in pole/zero analysis
 **warning** underflow 1 time(s) in pole/zero analysis
 **warning** underflow 1 time(s) in pole/zero analysis
 **warning** underflow 1 time(s) in pole/zero analysis
 **warning** underflow 1 time(s) in pole/zero analysis
 **warning** underflow 1 time(s) in pole/zero analysis
 **warning** underflow 1 time(s) in pole/zero analysis
 **warning** underflow 1 time(s) in pole/zero analysis
 **warning** underflow 1 time(s) in pole/zero analysis
 **warning** underflow 1 time(s) in pole/zero analysis
 **warning** underflow 1 time(s) in pole/zero analysis
 **warning** underflow 1 time(s) in pole/zero analysis
 **warning** underflow 1 time(s) in pole/zero analysis
 **warning** underflow 1 time(s) in pole/zero analysis
 **warning** underflow 1 time(s) in pole/zero analysis
 **warning** underflow 1 time(s) in pole/zero analysis
 **warning** underflow 1 time(s) in pole/zero analysis
 **warning** underflow 1 time(s) in pole/zero analysis
 **warning** underflow 1 time(s) in pole/zero analysis
 **warning** underflow 1 time(s) in pole/zero analysis
 **warning** underflow 1 time(s) in pole/zero analysis
 **warning** underflow 1 time(s) in pole/zero analysis
 **warning** underflow 1 time(s) in pole/zero analysis
 **warning** underflow 1 time(s) in pole/zero analysis
 **warning** underflow 1 time(s) in pole/zero analysis
 **warning** underflow 1 time(s) in pole/zero analysis
 **warning** underflow 1 time(s) in pole/zero analysis
 **warning** underflow 1 time(s) in pole/zero analysis
 **warning** underflow 1 time(s) in pole/zero analysis
 **warning** underflow 1 time(s) in pole/zero analysis
 **warning** underflow 1 time(s) in pole/zero analysis
 **warning** underflow 1 time(s) in pole/zero analysis
 **warning** underflow 1 time(s) in pole/zero analysis


    input =  0:vin          output = v(vop)

       poles (rad/sec)                 poles ( hertz)
 real            imag            real            imag
 -1.65389x       0.              -263.225k       0.
 -16.9635x       0.              -2.69983x       0.
 -24.7182x       0.              -3.93403x       0.
 -50.6552x       0.              -8.06203x       0.
 -75.4397x       -12.5551x       -12.0066x       -1.99821x
